! IGNION VIRTUAL ANTENNA LIBRARY
!
! NN_RUN_B85x55_C55x11
! Virtual Antenna™ RUN mXTEND™: NN02-224 12.0 mm x 3.0 mm x 2.4 mm
! https://ignion.io/product/run-mxtend/
! Board: 85 mm x 55 mm
! Clearance Area: 55 mm x 11 mm
! Feeding line: L-shape; 11mm x 2mm and 5mm x 2mm
! Applications: Fleet management, IoT
! Frequency range 0.65GHz to 6GHz, step 10MHz
! Number of ports 1
!
! This product and its use is protected by at least one or more of the following patents and patent
! applications US 8,203,492 B2; US 8,237,615 B2; PCT/EP2013/064692; WO 2014/012842 A1; US 2019/190122 A1;
! US 62/072,671; and other domestic and international patents pending. Additional information about
! patents related to this product is available at https://ignion.io/files/Patent-list-NN.pdf, all
! rights reserved. Copyright, Ignion 2021.
!
! Need more help? Your platform is much different than these examples in the manual? Use our 
! Fast Track service (https://ignion.io/fast-track/), for free, and get a personalized antenna design in
! just 24 hours.
!
!
! Touchstone port 1 = "Series Port"
!
! IE3D S-Parameters Output Version 2.0  
# GHZ S MA R 50
! Nport = 1
!

 6.5000000000e-001  9.8982817203e-001 -1.7266118589e+001
 6.6000000000e-001  9.8934956670e-001 -1.7609599407e+001
 6.7000000000e-001  9.8884360198e-001 -1.7957458597e+001
 6.8000000000e-001  9.8830850720e-001 -1.8309828550e+001
 6.9000000000e-001  9.8774239646e-001 -1.8666844618e+001
 7.0000000000e-001  9.8714326132e-001 -1.9028645041e+001
 7.1000000000e-001  9.8650896312e-001 -1.9395370854e+001
 7.2000000000e-001  9.8583722490e-001 -1.9767165763e+001
 7.3000000000e-001  9.8512562304e-001 -2.0144175986e+001
 7.4000000000e-001  9.8437157841e-001 -2.0526550058e+001
 7.5000000000e-001  9.8357234731e-001 -2.0914438585e+001
 7.6000000000e-001  9.8272501201e-001 -2.1307993956e+001
 7.7000000000e-001  9.8182647109e-001 -2.1707369993e+001
 7.8000000000e-001  9.8087342950e-001 -2.2112721541e+001
 7.9000000000e-001  9.7986238850e-001 -2.2524203984e+001
 8.0000000000e-001  9.7878963550e-001 -2.2941972685e+001
 8.1000000000e-001  9.7765123398e-001 -2.3366182334e+001
 8.2000000000e-001  9.7644301348e-001 -2.3796986201e+001
 8.3000000000e-001  9.7516056000e-001 -2.4234535277e+001
 8.4000000000e-001  9.7379920679e-001 -2.4678977302e+001
 8.5000000000e-001  9.7235402592e-001 -2.5130455651e+001
 8.6000000000e-001  9.7081982079e-001 -2.5589108091e+001
 8.7000000000e-001  9.6919111987e-001 -2.6055065367e+001
 8.8000000000e-001  9.6746217207e-001 -2.6528449636e+001
 8.9000000000e-001  9.6562694414e-001 -2.7009372709e+001
 9.0000000000e-001  9.6367912045e-001 -2.7497934108e+001
 9.1000000000e-001  9.6161210581e-001 -2.7994218920e+001
 9.2000000000e-001  9.5941903173e-001 -2.8498295441e+001
 9.3000000000e-001  9.5709276698e-001 -2.9010212604e+001
 9.4000000000e-001  9.5462593283e-001 -2.9529997182e+001
 9.5000000000e-001  9.5201092404e-001 -3.0057650782e+001
 9.6000000000e-001  9.4923993612e-001 -3.0593146619e+001
 9.7000000000e-001  9.4630499989e-001 -3.1136426094e+001
 9.8000000000e-001  9.4319802401e-001 -3.1687395194e+001
 9.9000000000e-001  9.3991084646e-001 -3.2245920744e+001
 1.0000000000e+000  9.3643529568e-001 -3.2811826562e+001
 1.0100000000e+000  9.3276326212e-001 -3.3384889560e+001
 1.0200000000e+000  9.2888678078e-001 -3.3964835876e+001
 1.0300000000e+000  9.2479812521e-001 -3.4551337117e+001
 1.0400000000e+000  9.2048991305e-001 -3.5144006822e+001
 1.0500000000e+000  9.1595522305e-001 -3.5742397278e+001
 1.0600000000e+000  9.1118772300e-001 -3.6345996831e+001
 1.0700000000e+000  9.0618180756e-001 -3.6954227851e+001
 1.0800000000e+000  9.0093274436e-001 -3.7566445557e+001
 1.0900000000e+000  8.9543682630e-001 -3.8181937875e+001
 1.1000000000e+000  8.8969152705e-001 -3.8799926567e+001
 1.1100000000e+000  8.8369565619e-001 -3.9419569827e+001
 1.1200000000e+000  8.7744950974e-001 -4.0039966560e+001
 1.1300000000e+000  8.7095501095e-001 -4.0660162550e+001
 1.1400000000e+000  8.6421583590e-001 -4.1279158678e+001
 1.1500000000e+000  8.5723751772e-001 -4.1895921321e+001
 1.1600000000e+000  8.5002752334e-001 -4.2509395014e+001
 1.1700000000e+000  8.4259529627e-001 -4.3118517357e+001
 1.1800000000e+000  8.3495225969e-001 -4.3722236108e+001
 1.1900000000e+000  8.2711177447e-001 -4.4319528256e+001
 1.2000000000e+000  8.1908904809e-001 -4.4909420780e+001
 1.2100000000e+000  8.1090099167e-001 -4.5491012709e+001
 1.2200000000e+000  8.0256602424e-001 -4.6063497924e+001
 1.2300000000e+000  7.9410382548e-001 -4.6626188115e+001
 1.2400000000e+000  7.8553504030e-001 -4.7178535165e+001
 1.2500000000e+000  7.7688094099e-001 -4.7720152201e+001
 1.2600000000e+000  7.6816305496e-001 -4.8250832515e+001
 1.2700000000e+000  7.5940276787e-001 -4.8770565590e+001
 1.2800000000e+000  7.5062091367e-001 -4.9279549505e+001
 1.2900000000e+000  7.4183736403e-001 -4.9778199115e+001
 1.3000000000e+000  7.3307063004e-001 -5.0267149526e+001
 1.3100000000e+000  7.2433748884e-001 -5.0747254596e+001
 1.3200000000e+000  7.1565264683e-001 -5.1219580357e+001
 1.3300000000e+000  7.0702844976e-001 -5.1685393514e+001
 1.3400000000e+000  6.9847464772e-001 -5.2146145348e+001
 1.3500000000e+000  6.8999822076e-001 -5.2603451586e+001
 1.3600000000e+000  6.8160326835e-001 -5.3059068934e+001
 1.3700000000e+000  6.7329096303e-001 -5.3514869112e+001
 1.3800000000e+000  6.6505956636e-001 -5.3972811307e+001
 1.3900000000e+000  6.5690450285e-001 -5.4434913976e+001
 1.4000000000e+000  6.4881848593e-001 -5.4903226899e+001
 1.4100000000e+000  6.4079168853e-001 -5.5379804331e+001
 1.4200000000e+000  6.3281195010e-001 -5.5866679966e+001
 1.4300000000e+000  6.2486501159e-001 -5.6365844306e+001
 1.4400000000e+000  6.1693476979e-001 -5.6879224880e+001
 1.4500000000e+000  6.0900354317e-001 -5.7408669579e+001
 1.4600000000e+000  6.0105234213e-001 -5.7955933266e+001
 1.4700000000e+000  5.9306113715e-001 -5.8522667633e+001
 1.4800000000e+000  5.8500912008e-001 -5.9110414231e+001
 1.4900000000e+000  5.7687495444e-001 -5.9720600435e+001
 1.5000000000e+000  5.6863701178e-001 -6.0354538120e+001
 1.5100000000e+000  5.6027359253e-001 -6.1013424725e+001
 1.5200000000e+000  5.5176313022e-001 -6.1698346411e+001
 1.5300000000e+000  5.4308437891e-001 -6.2410283005e+001
 1.5400000000e+000  5.3421658445e-001 -6.3150114447e+001
 1.5500000000e+000  5.2513964027e-001 -6.3918628519e+001
 1.5600000000e+000  5.1583422907e-001 -6.4716529648e+001
 1.5700000000e+000  5.0628195173e-001 -6.5544448663e+001
 1.5800000000e+000  4.9646544494e-001 -6.6402953450e+001
 1.5900000000e+000  4.8636848896e-001 -6.7292560505e+001
 1.6000000000e+000  4.7597610698e-001 -6.8213747487e+001
 1.6100000000e+000  4.6527465705e-001 -6.9166966957e+001
 1.6200000000e+000  4.5425191780e-001 -7.0152661588e+001
 1.6300000000e+000  4.4289716868e-001 -7.1171281277e+001
 1.6400000000e+000  4.3120126526e-001 -7.2223302714e+001
 1.6500000000e+000  4.1915670998e-001 -7.3309252192e+001
 1.6600000000e+000  4.0675771867e-001 -7.4429732679e+001
 1.6700000000e+000  3.9400028264e-001 -7.5585456516e+001
 1.6800000000e+000  3.8088222663e-001 -7.6777285572e+001
 1.6900000000e+000  3.6740326225e-001 -7.8006281356e+001
 1.7000000000e+000  3.5356503719e-001 -7.9273768480e+001
 1.7100000000e+000  3.3937118024e-001 -8.0581416225e+001
 1.7200000000e+000  3.2482734290e-001 -8.1931344902e+001
 1.7300000000e+000  3.0994123884e-001 -8.3326266601e+001
 1.7400000000e+000  2.9472268364e-001 -8.4769674389e+001
 1.7500000000e+000  2.7918363879e-001 -8.6266100854e+001
 1.7600000000e+000  2.6333826700e-001 -8.7821477850e+001
 1.7700000000e+000  2.4720300993e-001 -8.9443647084e+001
 1.7800000000e+000  2.3079670701e-001 -9.1143100938e+001
 1.7900000000e+000  2.1414078674e-001 -9.2934084328e+001
 1.8000000000e+000  1.9725958445e-001 -9.4836280261e+001
 1.8100000000e+000  1.8018088278e-001 -9.6877472457e+001
 1.8200000000e+000  1.6293685386e-001 -9.9097910462e+001
 1.8300000000e+000  1.4556575288e-001 -1.0155778225e+002
 1.8400000000e+000  1.2811508952e-001 -1.0435067551e+002
 1.8500000000e+000  1.1064789938e-001 -1.0762934197e+002
 1.8600000000e+000  9.3256066002e-002 -1.1165870951e+002
 1.8700000000e+000  7.6091380695e-002 -1.1693468813e+002
 1.8800000000e+000  5.9447045829e-002 -1.2447664924e+002
 1.8900000000e+000  4.4003019136e-002 -1.3659601931e+002
 1.9000000000e+000  3.1626004979e-002 -1.5850606493e+002
 1.9100000000e+000  2.6926765982e-002 1.6519402186e+002
 1.9200000000e+000  3.3257110691e-002 1.3096308385e+002
 1.9300000000e+000  4.6199691559e-002 1.1126456307e+002
 1.9400000000e+000  6.1624525660e-002 1.0020303553e+002
 1.9500000000e+000  7.7969696867e-002 9.3170631005e+001
 1.9600000000e+000  9.4655958084e-002 8.8170123982e+001
 1.9700000000e+000  1.1142740905e-001 8.4307174328e+001
 1.9800000000e+000  1.2814973296e-001 8.1139041029e+001
 1.9900000000e+000  1.4474157138e-001 7.8425652520e+001
 2.0000000000e+000  1.6114774755e-001 7.6026862133e+001
 2.0100000000e+000  1.7732752869e-001 7.3855885062e+001
 2.0200000000e+000  1.9324897566e-001 7.1856365690e+001
 2.0300000000e+000  2.0888600776e-001 6.9990262472e+001
 2.0400000000e+000  2.2421677741e-001 6.8231060699e+001
 2.0500000000e+000  2.3922271746e-001 6.6559777618e+001
 2.0600000000e+000  2.5388795197e-001 6.4962510474e+001
 2.0700000000e+000  2.6819891103e-001 6.3428876595e+001
 2.0800000000e+000  2.8214406420e-001 6.1950989777e+001
 2.0900000000e+000  2.9571372424e-001 6.0522770262e+001
 2.1000000000e+000  3.0889989349e-001 5.9139468522e+001
 2.1100000000e+000  3.2169613657e-001 5.7797329737e+001
 2.1200000000e+000  3.3409746957e-001 5.6493353072e+001
 2.1300000000e+000  3.4610025990e-001 5.5225116169e+001
 2.1400000000e+000  3.5770213326e-001 5.3990645371e+001
 2.1500000000e+000  3.6890188582e-001 5.2788318562e+001
 2.1600000000e+000  3.7969940050e-001 5.1616791625e+001
 2.1700000000e+000  3.9009556667e-001 5.0474942240e+001
 2.1800000000e+000  4.0009220338e-001 4.9361826584e+001
 2.1900000000e+000  4.0969198586e-001 4.8276645723e+001
 2.2000000000e+000  4.1889837560e-001 4.7218719367e+001
 2.2100000000e+000  4.2771555412e-001 4.6187465266e+001
 2.2200000000e+000  4.3614836068e-001 4.5182382958e+001
 2.2300000000e+000  4.4420223401e-001 4.4203040897e+001
 2.2400000000e+000  4.5188315835e-001 4.3249066224e+001
 2.2500000000e+000  4.5919761378e-001 4.2320136594e+001
 2.2600000000e+000  4.6615253096e-001 4.1415973630e+001
 2.2700000000e+000  4.7275525029e-001 4.0536337641e+001
 2.2800000000e+000  4.7901348550e-001 3.9681023333e+001
 2.2900000000e+000  4.8493529147e-001 3.8849856280e+001
 2.3000000000e+000  4.9052903636e-001 3.8042689987e+001
 2.3100000000e+000  4.9580337769e-001 3.7259403387e+001
 2.3200000000e+000  5.0076724235e-001 3.6499898654e+001
 2.3300000000e+000  5.0542981019e-001 3.5764099230e+001
 2.3400000000e+000  5.0980050102e-001 3.5051947980e+001
 2.3500000000e+000  5.1388896465e-001 3.4363405396e+001
 2.3600000000e+000  5.1770507376e-001 3.3698447799e+001
 2.3700000000e+000  5.2125891914e-001 3.3057065475e+001
 2.3800000000e+000  5.2456080702e-001 3.2439260694e+001
 2.3900000000e+000  5.2762125807e-001 3.1845045582e+001
 2.4000000000e+000  5.3045100760e-001 3.1274439805e+001
 2.4100000000e+000  5.3306100665e-001 3.0727468029e+001
 2.4200000000e+000  5.3546242334e-001 3.0204157137e+001
 2.4300000000e+000  5.3766664415e-001 2.9704533184e+001
 2.4400000000e+000  5.3968527456e-001 2.9228618071e+001
 2.4500000000e+000  5.4153013851e-001 2.8776425933e+001
 2.4600000000e+000  5.4321327634e-001 2.8347959243e+001
 2.4700000000e+000  5.4474694038e-001 2.7943204637e+001
 2.4800000000e+000  5.4614358802e-001 2.7562128471e+001
 2.4900000000e+000  5.4741587149e-001 2.7204672150e+001
 2.5000000000e+000  5.4857662404e-001 2.6870747253e+001
 2.5100000000e+000  5.4963884202e-001 2.6560230505e+001
 2.5200000000e+000  5.5061566238e-001 2.6272958656e+001
 2.5300000000e+000  5.5152033541e-001 2.6008723345e+001
 2.5400000000e+000  5.5236619234e-001 2.5767266019e+001
 2.5500000000e+000  5.5316660762e-001 2.5548273016e+001
 2.5600000000e+000  5.5393495597e-001 2.5351370906e+001
 2.5700000000e+000  5.5468456398e-001 2.5176122219e+001
 2.5800000000e+000  5.5542865669e-001 2.5022021657e+001
 2.5900000000e+000  5.5618029935e-001 2.4888492946e+001
 2.6000000000e+000  5.5695233489e-001 2.4774886420e+001
 2.6100000000e+000  5.5775731766e-001 2.4680477481e+001
 2.6200000000e+000  5.5860744433e-001 2.4604466037e+001
 2.6300000000e+000  5.5951448273e-001 2.4545977005e+001
 2.6400000000e+000  5.6048969987e-001 2.4504061985e+001
 2.6500000000e+000  5.6154379017e-001 2.4477702121e+001
 2.6600000000e+000  5.6268680518e-001 2.4465812213e+001
 2.6700000000e+000  5.6392808619e-001 2.4467246045e+001
 2.6800000000e+000  5.6527620094e-001 2.4480802911e+001
 2.6900000000e+000  5.6673888585e-001 2.4505235245e+001
 2.7000000000e+000  5.6832299492e-001 2.4539257257e+001
 2.7100000000e+000  5.7003445655e-001 2.4581554435e+001
 2.7200000000e+000  5.7187823911e-001 2.4630793722e+001
 2.7300000000e+000  5.7385832634e-001 2.4685634190e+001
 2.7400000000e+000  5.7597770282e-001 2.4744737993e+001
 2.7500000000e+000  5.7823835030e-001 2.4806781359e+001
 2.7600000000e+000  5.8064125459e-001 2.4870465417e+001
 2.7700000000e+000  5.8318642323e-001 2.4934526622e+001
 2.7800000000e+000  5.8587291334e-001 2.4997746580e+001
 2.7900000000e+000  5.8869886920e-001 2.5058961074e+001
 2.8000000000e+000  5.9166156858e-001 2.5117068156e+001
 2.8100000000e+000  5.9475747702e-001 2.5171035151e+001
 2.8200000000e+000  5.9798230882e-001 2.5219904498e+001
 2.8300000000e+000  6.0133109355e-001 2.5262798360e+001
 2.8400000000e+000  6.0479824678e-001 2.5298921994e+001
 2.8500000000e+000  6.0837764374e-001 2.5327565873e+001
 2.8600000000e+000  6.1206269470e-001 2.5348106620e+001
 2.8700000000e+000  6.1584642069e-001 2.5360006816e+001
 2.8800000000e+000  6.1972152852e-001 2.5362813761e+001
 2.8900000000e+000  6.2368048408e-001 2.5356157314e+001
 2.9000000000e+000  6.2771558287e-001 2.5339746917e+001
 2.9100000000e+000  6.3181901715e-001 2.5313367928e+001
 2.9200000000e+000  6.3598293888e-001 2.5276877399e+001
 2.9300000000e+000  6.4019951814e-001 2.5230199410e+001
 2.9400000000e+000  6.4446099647e-001 2.5173320096e+001
 2.9500000000e+000  6.4875973503e-001 2.5106282465e+001
 2.9600000000e+000  6.5308825741e-001 2.5029181115e+001
 2.9700000000e+000  6.5743928704e-001 2.4942156943e+001
 2.9800000000e+000  6.6180577943e-001 2.4845391926e+001
 2.9900000000e+000  6.6618094917e-001 2.4739104032e+001
 3.0000000000e+000  6.7055829210e-001 2.4623542332e+001
 3.0100000000e+000  6.7493160290e-001 2.4498982340e+001
 3.0200000000e+000  6.7929498832e-001 2.4365721634e+001
 3.0300000000e+000  6.8364287652e-001 2.4224075755e+001
 3.0400000000e+000  6.8797002278e-001 2.4074374429e+001
 3.0500000000e+000  6.9227151201e-001 2.3916958096e+001
 3.0600000000e+000  6.9654275836e-001 2.3752174759e+001
 3.0700000000e+000  7.0077950236e-001 2.3580377142e+001
 3.0800000000e+000  7.0497780589e-001 2.3401920156e+001
 3.0900000000e+000  7.0913404531e-001 2.3217158653e+001
 3.1000000000e+000  7.1324490302e-001 2.3026445455e+001
 3.1100000000e+000  7.1730735783e-001 2.2830129650e+001
 3.1200000000e+000  7.2131867431e-001 2.2628555115e+001
 3.1300000000e+000  7.2527639136e-001 2.2422059284e+001
 3.1400000000e+000  7.2917831029e-001 2.2210972096e+001
 3.1500000000e+000  7.3302248247e-001 2.1995615151e+001
 3.1600000000e+000  7.3680719683e-001 2.1776301017e+001
 3.1700000000e+000  7.4053096729e-001 2.1553332698e+001
 3.1800000000e+000  7.4419252028e-001 2.1327003229e+001
 3.1900000000e+000  7.4779078238e-001 2.1097595394e+001
 3.2000000000e+000  7.5132486827e-001 2.0865381542e+001
 3.2100000000e+000  7.5479406894e-001 2.0630623497e+001
 3.2200000000e+000  7.5819784039e-001 2.0393572546e+001
 3.2300000000e+000  7.6153579261e-001 2.0154469484e+001
 3.2400000000e+000  7.6480767912e-001 1.9913544730e+001
 3.2500000000e+000  7.6801338697e-001 1.9671018475e+001
 3.2600000000e+000  7.7115292723e-001 1.9427100874e+001
 3.2700000000e+000  7.7422642591e-001 1.9181992269e+001
 3.2800000000e+000  7.7723411549e-001 1.8935883438e+001
 3.2900000000e+000  7.8017632689e-001 1.8688955854e+001
 3.3000000000e+000  7.8305348190e-001 1.8441381966e+001
 3.3100000000e+000  7.8586608615e-001 1.8193325485e+001
 3.3200000000e+000  7.8861472245e-001 1.7944941675e+001
 3.3300000000e+000  7.9130004468e-001 1.7696377645e+001
 3.3400000000e+000  7.9392277198e-001 1.7447772639e+001
 3.3500000000e+000  7.9648368348e-001 1.7199258327e+001
 3.3600000000e+000  7.9898361325e-001 1.6950959086e+001
 3.3700000000e+000  8.0142344578e-001 1.6702992273e+001
 3.3800000000e+000  8.0380411166e-001 1.6455468492e+001
 3.3900000000e+000  8.0612658365e-001 1.6208491850e+001
 3.4000000000e+000  8.0839187299e-001 1.5962160201e+001
 3.4100000000e+000  8.1060102607e-001 1.5716565383e+001
 3.4200000000e+000  8.1275512124e-001 1.5471793434e+001
 3.4300000000e+000  8.1485526591e-001 1.5227924804e+001
 3.4400000000e+000  8.1690259387e-001 1.4985034553e+001
 3.4500000000e+000  8.1889826272e-001 1.4743192527e+001
 3.4600000000e+000  8.2084345154e-001 1.4502463538e+001
 3.4700000000e+000  8.2273935866e-001 1.4262907512e+001
 3.4800000000e+000  8.2458719956e-001 1.4024579639e+001
 3.4900000000e+000  8.2638820490e-001 1.3787530505e+001
 3.5000000000e+000  8.2814361854e-001 1.3551806207e+001
 3.5100000000e+000  8.2985469575e-001 1.3317448467e+001
 3.5200000000e+000  8.3152270134e-001 1.3084494728e+001
 3.5300000000e+000  8.3314890790e-001 1.2852978238e+001
 3.5400000000e+000  8.3473459399e-001 1.2622928128e+001
 3.5500000000e+000  8.3628104234e-001 1.2394369485e+001
 3.5600000000e+000  8.3778953799e-001 1.2167323403e+001
 3.5700000000e+000  8.3926136642e-001 1.1941807046e+001
 3.5800000000e+000  8.4069781161e-001 1.1717833690e+001
 3.5900000000e+000  8.4210015398e-001 1.1495412765e+001
 3.6000000000e+000  8.4346966827e-001 1.1274549902e+001
 3.6100000000e+000  8.4480762135e-001 1.1055246966e+001
 3.6200000000e+000  8.4611526987e-001 1.0837502095e+001
 3.6300000000e+000  8.4739385781e-001 1.0621309745e+001
 3.6400000000e+000  8.4864461395e-001 1.0406660728e+001
 3.6500000000e+000  8.4986874919e-001 1.0193542268e+001
 3.6600000000e+000  8.5106745377e-001 9.9819380489e+000
 3.6700000000e+000  8.5224189437e-001 9.7718282890e+000
 3.6800000000e+000  8.5339321117e-001 9.5631898097e+000
 3.6900000000e+000  8.5452251476e-001 9.3559961276e+000
 3.7000000000e+000  8.5563088308e-001 9.1502175552e+000
 3.7100000000e+000  8.5671935827e-001 8.9458213193e+000
 3.7200000000e+000  8.5778894350e-001 8.7427716955e+000
 3.7300000000e+000  8.5884059992e-001 8.5410301601e+000
 3.7400000000e+000  8.5987524356e-001 8.3405555610e+000
 3.7500000000e+000  8.6089374244e-001 8.1413043077e+000
 3.7600000000e+000  8.6189691373e-001 7.9432305798e+000
 3.7700000000e+000  8.6288552116e-001 7.7462865546e+000
 3.7800000000e+000  8.6386027259e-001 7.5504226527e+000
 3.7900000000e+000  8.6482181796e-001 7.3555878005e+000
 3.8000000000e+000  8.6577074741e-001 7.1617297082e+000
 3.8100000000e+000  8.6670758984e-001 6.9687951607e+000
 3.8200000000e+000  8.6763281185e-001 6.7767303200e+000
 3.8300000000e+000  8.6854681705e-001 6.5854810358e+000
 3.8400000000e+000  8.6944994585e-001 6.3949931611e+000
 3.8500000000e+000  8.7034247568e-001 6.2052128699e+000
 3.8600000000e+000  8.7122462173e-001 6.0160869729e+000
 3.8700000000e+000  8.7209653808e-001 5.8275632285e+000
 3.8800000000e+000  8.7295831941e-001 5.6395906440e+000
 3.8900000000e+000  8.7381000309e-001 5.4521197648e+000
 3.9000000000e+000  8.7465157174e-001 5.2651029476e+000
 3.9100000000e+000  8.7548295621e-001 5.0784946130e+000
