! IGNION VIRTUAL ANTENNA LIBRARY
!
! NN_RUN_B130x60_C20x11
! Virtual Antenna™ RUN mXTEND™: NN02-224 12.0 mm x 3.0 mm x 2.4 mm
! https://ignion.io/product/run-mxtend/
! Board: 130 mm x 60 mm
! Clearance Area: 20 mm x 11 mm
! Feeding line: L-shape; 11mm x 2mm and 5mm x 2mm
! Applications: Smartphone, Fleet management, IoT
! Frequency range 0.65GHz to 6GHz, step 10MHz
! Number of ports 1
!
! This product and its use is protected by at least one or more of the following patents and patent
! applications US 8,203,492 B2; US 8,237,615 B2; PCT/EP2013/064692; WO 2014/012842 A1; US 2019/190122 A1;
! US 62/072,671; and other domestic and international patents pending. Additional information about
! patents related to this product is available at https://ignion.io/files/Patent-list-NN.pdf, all
! rights reserved. Copyright, Ignion 2021.
!
! Need more help? Your platform is much different than these examples in the manual? Use our 
! Fast Track service (https://ignion.io/fast-track/), for free, and get a personalized antenna design in
! just 24 hours.
!
!
! Touchstone port 1 = "Series Port"
! 
! IE3D S-Parameters Output Version 2.0
# GHZ S MA R 50
! Nport = 1
!


 6.5000000000e-001  9.8427219861e-001 -1.9214622481e+001
 6.6000000000e-001  9.8323159353e-001 -1.9599714680e+001
 6.7000000000e-001  9.8211132342e-001 -1.9988113776e+001
 6.8000000000e-001  9.8090709126e-001 -2.0379532268e+001
 6.9000000000e-001  9.7961509594e-001 -2.0773617897e+001
 7.0000000000e-001  9.7823227701e-001 -2.1169950153e+001
 7.1000000000e-001  9.7675660348e-001 -2.1568039166e+001
 7.2000000000e-001  9.7518740298e-001 -2.1967328041e+001
 7.3000000000e-001  9.7352572212e-001 -2.2367199826e+001
 7.4000000000e-001  9.7177470079e-001 -2.2766990350e+001
 7.5000000000e-001  9.6993993502e-001 -2.3166008087e+001
 7.6000000000e-001  9.6802979269e-001 -2.3563561860e+001
 7.7000000000e-001  9.6605563842e-001 -2.3958996617e+001
 7.8000000000e-001  9.6403191807e-001 -2.4351736614e+001
 7.9000000000e-001  9.6197605331e-001 -2.4741334145e+001
 8.0000000000e-001  9.5990810531e-001 -2.5127520631e+001
 8.1000000000e-001  9.5785018431e-001 -2.5510255604e+001
 8.2000000000e-001  9.5582560990e-001 -2.5889768189e+001
 8.3000000000e-001  9.5385786136e-001 -2.6266585474e+001
 8.4000000000e-001  9.5196939322e-001 -2.6641542829e+001
 8.5000000000e-001  9.5018042090e-001 -2.7015772981e+001
 8.6000000000e-001  9.4850779687e-001 -2.7390673173e+001
 8.7000000000e-001  9.4696409429e-001 -2.7767852695e+001
 8.8000000000e-001  9.4555699133e-001 -2.8149065819e+001
 8.9000000000e-001  9.4428900963e-001 -2.8536137089e+001
 9.0000000000e-001  9.4315761295e-001 -2.8930886686e+001
 9.1000000000e-001  9.4215562651e-001 -2.9335063005e+001
 9.2000000000e-001  9.4127190306e-001 -2.9750287940e+001
 9.3000000000e-001  9.4049214286e-001 -3.0178018133e+001
 9.4000000000e-001  9.3979977268e-001 -3.0619523050e+001
 9.5000000000e-001  9.3917680056e-001 -3.1075878735e+001
 9.6000000000e-001  9.3860458318e-001 -3.1547974684e+001
 9.7000000000e-001  9.3806446613e-001 -3.2036530515e+001
 9.8000000000e-001  9.3753827931e-001 -3.2542119025e+001
 9.9000000000e-001  9.3700868779e-001 -3.3065192511e+001
 1.0000000000e+000  9.3645941056e-001 -3.3606109844e+001
 1.0100000000e+000  9.3587532735e-001 -3.4165162433e+001
 1.0200000000e+000  9.3524249618e-001 -3.4742597876e+001
 1.0300000000e+000  9.3454810412e-001 -3.5338640648e+001
 1.0400000000e+000  9.3378037166e-001 -3.5953509585e+001
 1.0500000000e+000  9.3292842729e-001 -3.6587432249e+001
 1.0600000000e+000  9.3198216605e-001 -3.7240656407e+001
 1.0700000000e+000  9.3093210172e-001 -3.7913459006e+001
 1.0800000000e+000  9.2976921990e-001 -3.8606153009e+001
 1.0900000000e+000  9.2848483652e-001 -3.9319092501e+001
 1.1000000000e+000  9.2707046473e-001 -4.0052676412e+001
 1.1100000000e+000  9.2551769138e-001 -4.0807351169e+001
 1.1200000000e+000  9.2381806367e-001 -4.1583612543e+001
 1.1300000000e+000  9.2196298583e-001 -4.2382006904e+001
 1.1400000000e+000  9.1994362512e-001 -4.3203132062e+001
 1.1500000000e+000  9.1775082648e-001 -4.4047637821e+001
 1.1600000000e+000  9.1537503499e-001 -4.4916226348e+001
 1.1700000000e+000  9.1280622539e-001 -4.5809652428e+001
 1.1800000000e+000  9.1003383790e-001 -4.6728723658e+001
 1.1900000000e+000  9.0704671990e-001 -4.7674300610e+001
 1.2000000000e+000  9.0383307305e-001 -4.8647296980e+001
 1.2100000000e+000  9.0038040577e-001 -4.9648679723e+001
 1.2200000000e+000  8.9667549117e-001 -5.0679469179e+001
 1.2300000000e+000  8.9270433062e-001 -5.1740739183e+001
 1.2400000000e+000  8.8845212376e-001 -5.2833617124e+001
 1.2500000000e+000  8.8390324559e-001 -5.3959283955e+001
 1.2600000000e+000  8.7904123182e-001 -5.5118974130e+001
 1.2700000000e+000  8.7384877393e-001 -5.6313975438e+001
 1.2800000000e+000  8.6830772564e-001 -5.7545628724e+001
 1.2900000000e+000  8.6239912281e-001 -5.8815327484e+001
 1.3000000000e+000  8.5610321912e-001 -6.0124517322e+001
 1.3100000000e+000  8.4939954030e-001 -6.1474695276e+001
 1.3200000000e+000  8.4226695975e-001 -6.2867409026e+001
 1.3300000000e+000  8.3468379897e-001 -6.4304256027e+001
 1.3400000000e+000  8.2662795629e-001 -6.5786882618e+001
 1.3500000000e+000  8.1807706750e-001 -6.7316983210e+001
 1.3600000000e+000  8.0900870224e-001 -6.8896299682e+001
 1.3700000000e+000  7.9940059984e-001 -7.0526621169e+001
 1.3800000000e+000  7.8923094802e-001 -7.2209784489e+001
 1.3900000000e+000  7.7847870760e-001 -7.3947675531e+001
 1.4000000000e+000  7.6712398559e-001 -7.5742232023e+001
 1.4100000000e+000  7.5514845795e-001 -7.7595448178e+001
 1.4200000000e+000  7.4253584243e-001 -7.9509381886e+001
 1.4300000000e+000  7.2927241976e-001 -8.1486165206e+001
 1.4400000000e+000  7.1534760019e-001 -8.3528019120e+001
 1.4500000000e+000  7.0075452966e-001 -8.5637273653e+001
 1.4600000000e+000  6.8549072795e-001 -8.7816394666e+001
 1.4700000000e+000  6.6955874859e-001 -9.0068018831e+001
 1.4800000000e+000  6.5296684804e-001 -9.2394998510e+001
 1.4900000000e+000  6.3572964976e-001 -9.4800458443e+001
 1.5000000000e+000  6.1786878744e-001 -9.7287866374e+001
 1.5100000000e+000  5.9941351121e-001 -9.9861119856e+001
 1.5200000000e+000  5.8040124143e-001 -1.0252465160e+002
 1.5300000000e+000  5.6087805674e-001 -1.0528355567e+002
 1.5400000000e+000  5.4089910701e-001 -1.0814373659e+002
 1.5500000000e+000  5.2052894683e-001 -1.1111208292e+002
 1.5600000000e+000  4.9984179253e-001 -1.1419666566e+002
 1.5700000000e+000  4.7892171328e-001 -1.1740696001e+002
 1.5800000000e+000  4.5786277497e-001 -1.2075408560e+002
 1.5900000000e+000  4.3676916248e-001 -1.2425105481e+002
 1.6000000000e+000  4.1575530988e-001 -1.2791301024e+002
 1.6100000000e+000  3.9494606528e-001 -1.3175741861e+002
 1.6200000000e+000  3.7447690396e-001 -1.3580416823e+002
 1.6300000000e+000  3.5449417286e-001 -1.4007548773e+002
 1.6400000000e+000  3.3515529363e-001 -1.4459556436e+002
 1.6500000000e+000  3.1662876008e-001 -1.4938969200e+002
 1.6600000000e+000  2.9909363128e-001 -1.5448273118e+002
 1.6700000000e+000  2.8273804431e-001 -1.5989663936e+002
 1.6800000000e+000  2.6775607752e-001 -1.6564687339e+002
 1.6900000000e+000  2.5434215886e-001 -1.7173764832e+002
 1.7000000000e+000  2.4268227728e-001 -1.7815642735e+002
 1.7100000000e+000  2.3294171375e-001 1.7513137433e+002
 1.7200000000e+000  2.2525001387e-001 1.6818583017e+002
 1.7300000000e+000  2.1968537264e-001 1.6109215015e+002
 1.7400000000e+000  2.1626194033e-001 1.5395518049e+002
 1.7500000000e+000  2.1492387514e-001 1.4688902570e+002
 1.7600000000e+000  2.1554860117e-001 1.4000409966e+002
 1.7700000000e+000  2.1795900089e-001 1.3339512798e+002
 1.7800000000e+000  2.2194152989e-001 1.2713316578e+002
 1.7900000000e+000  2.2726590624e-001 1.2126289215e+002
 1.8000000000e+000  2.3370252236e-001 1.1580448990e+002
 1.8100000000e+000  2.4103536440e-001 1.1075831631e+002
 1.8200000000e+000  2.4906996146e-001 1.0611050367e+002
 1.8300000000e+000  2.5763705534e-001 1.0183817925e+002
 1.8400000000e+000  2.6659315997e-001 9.7913661431e+001
 1.8500000000e+000  2.7581917002e-001 9.4307490657e+001
 1.8600000000e+000  2.8521793823e-001 9.0990427528e+001
 1.8700000000e+000  2.9471145331e-001 8.7934650687e+001
 1.8800000000e+000  3.0423800517e-001 8.5114387956e+001
 1.8900000000e+000  3.1374954647e-001 8.2506173426e+001
 1.9000000000e+000  3.2320934426e-001 8.0088873432e+001
 1.9100000000e+000  3.3258994694e-001 7.7843580124e+001
 1.9200000000e+000  3.4187145507e-001 7.5753437294e+001
 1.9300000000e+000  3.5104006684e-001 7.3803438814e+001
 1.9400000000e+000  3.6008686303e-001 7.1980223627e+001
 1.9500000000e+000  3.6900679627e-001 7.0271880601e+001
 1.9600000000e+000  3.7779785198e-001 6.8667769895e+001
 1.9700000000e+000  3.8646035272e-001 6.7158363435e+001
 1.9800000000e+000  3.9499638171e-001 6.5735104807e+001
 1.9900000000e+000  4.0340930531e-001 6.4390287558e+001
 2.0000000000e+000  4.1170337773e-001 6.3116950316e+001
 2.0100000000e+000  4.1988341442e-001 6.1908786871e+001
 2.0200000000e+000  4.2795452296e-001 6.0760069363e+001
 2.0300000000e+000  4.3592188230e-001 5.9665582805e+001
 2.0400000000e+000  4.4379056309e-001 5.8620569318e+001
 2.0500000000e+000  4.5156538307e-001 5.7620680645e+001
 2.0600000000e+000  4.5925079253e-001 5.6661937671e+001
 2.0700000000e+000  4.6685078583e-001 5.5740695834e+001
 2.0800000000e+000  4.7436883559e-001 5.4853615473e+001
 2.0900000000e+000  4.8180784665e-001 5.3997636307e+001
 2.1000000000e+000  4.8917012737e-001 5.3169955304e+001
 2.1100000000e+000  4.9645737612e-001 5.2368007384e+001
 2.1200000000e+000  5.0367068097e-001 5.1589448415e+001
 2.1300000000e+000  5.1081053104e-001 5.0832140096e+001
 2.1400000000e+000  5.1787683765e-001 5.0094136366e+001
 2.1500000000e+000  5.2486896408e-001 4.9373671040e+001
 2.1600000000e+000  5.3178576236e-001 4.8669146454e+001
 2.1700000000e+000  5.3862561591e-001 4.7979122890e+001
 2.1800000000e+000  5.4538648672e-001 4.7302308673e+001
 2.1900000000e+000  5.5206596613e-001 4.6637550781e+001
 2.2000000000e+000  5.5866132788e-001 4.5983825912e+001
 2.2100000000e+000  5.6516958270e-001 4.5340231918e+001
 2.2200000000e+000  5.7158753349e-001 4.4705979574e+001
 2.2300000000e+000  5.7791183016e-001 4.4080384654e+001
 2.2400000000e+000  5.8413902368e-001 4.3462860285e+001
 2.2500000000e+000  5.9026561849e-001 4.2852909579e+001
 2.2600000000e+000  5.9628812296e-001 4.2250118540e+001
 2.2700000000e+000  6.0220309726e-001 4.1654149239e+001
 2.2800000000e+000  6.0800719858e-001 4.1064733280e+001
 2.2900000000e+000  6.1369722315e-001 4.0481665535e+001
 2.3000000000e+000  6.1927014516e-001 3.9904798176e+001
 2.3100000000e+000  6.2472315230e-001 3.9334034993e+001
 2.3200000000e+000  6.3005367791e-001 3.8769325999e+001
 2.3300000000e+000  6.3525942990e-001 3.8210662321e+001
 2.3400000000e+000  6.4033841623e-001 3.7658071379e+001
 2.3500000000e+000  6.4528896732e-001 3.7111612333e+001
 2.3600000000e+000  6.5010975533e-001 3.6571371789e+001
 2.3700000000e+000  6.5479981049e-001 3.6037459760e+001
 2.3800000000e+000  6.5935853462e-001 3.5510005860e+001
 2.3900000000e+000  6.6378571205e-001 3.4989155709e+001
 2.4000000000e+000  6.6808151789e-001 3.4475067543e+001
 2.4100000000e+000  6.7224652392e-001 3.3967908995e+001
 2.4200000000e+000  6.7628170218e-001 3.3467854045e+001
 2.4300000000e+000  6.8018842620e-001 3.2975080099e+001
 2.4400000000e+000  6.8396847006e-001 3.2489765202e+001
 2.4500000000e+000  6.8762400519e-001 3.2012085351e+001
 2.4600000000e+000  6.9115759489e-001 3.1542211900e+001
 2.4700000000e+000  6.9457218662e-001 3.1080309052e+001
 2.4800000000e+000  6.9787110184e-001 3.0626531420e+001
 2.4900000000e+000  7.0105802343e-001 3.0181021658e+001
 2.5000000000e+000  7.0413698049e-001 2.9743908161e+001
 2.5100000000e+000  7.0711233054e-001 2.9315302844e+001
 2.5200000000e+000  7.0998873886e-001 2.8895298997e+001
 2.5300000000e+000  7.1277115498e-001 2.8483969243e+001
 2.5400000000e+000  7.1546478621e-001 2.8081363608e+001
 2.5500000000e+000  7.1807506831e-001 2.7687507736e+001
 2.5600000000e+000  7.2060763306e-001 2.7302401258e+001
 2.5700000000e+000  7.2306827314e-001 2.6926016372e+001
 2.5800000000e+000  7.2546290422e-001 2.6558296634e+001
 2.5900000000e+000  7.2779752464e-001 2.6199156021e+001
 2.6000000000e+000  7.3007817293e-001 2.5848478280e+001
 2.6100000000e+000  7.3231088361e-001 2.5506116603e+001
 2.6200000000e+000  7.3450164177e-001 2.5171893649e+001
 2.6300000000e+000  7.3665633697e-001 2.4845601945e+001
 2.6400000000e+000  7.3878071704e-001 2.4527004669e+001
 2.6500000000e+000  7.4088034267e-001 2.4215836838e+001
 2.6600000000e+000  7.4296054334e-001 2.3911806885e+001
 2.6700000000e+000  7.4502637534e-001 2.3614598629e+001
 2.6800000000e+000  7.4708258282e-001 2.3323873606e+001
 2.6900000000e+000  7.4913356237e-001 2.3039273738e+001
 2.7000000000e+000  7.5118333193e-001 2.2760424295e+001
 2.7100000000e+000  7.5323550454e-001 2.2486937095e+001
 2.7200000000e+000  7.5529326744e-001 2.2218413906e+001
 2.7300000000e+000  7.5735936695e-001 2.1954449953e+001
 2.7400000000e+000  7.5943609918e-001 2.1694637493e+001
 2.7500000000e+000  7.6152530687e-001 2.1438569375e+001
 2.7600000000e+000  7.6362838213e-001 2.1185842519e+001
 2.7700000000e+000  7.6574627500e-001 2.0936061247e+001
 2.7800000000e+000  7.6787950733e-001 2.0688840410e+001
 2.7900000000e+000  7.7002819174e-001 2.0443808263e+001
 2.8000000000e+000  7.7219205492e-001 2.0200609027e+001
 2.8100000000e+000  7.7437046468e-001 1.9958905119e+001
 2.8200000000e+000  7.7656246009e-001 1.9718379027e+001
 2.8300000000e+000  7.7876678394e-001 1.9478734796e+001
 2.8400000000e+000  7.8098191674e-001 1.9239699149e+001
 2.8500000000e+000  7.8320611172e-001 1.9001022231e+001
 2.8600000000e+000  7.8543742983e-001 1.8762477991e+001
 2.8700000000e+000  7.8767377445e-001 1.8523864240e+001
 2.8800000000e+000  7.8991292496e-001 1.8285002389e+001
 2.8900000000e+000  7.9215256891e-001 1.8045736926e+001
 2.9000000000e+000  7.9439033217e-001 1.7805934646e+001
 2.9100000000e+000  7.9662380693e-001 1.7565483688e+001
 2.9200000000e+000  7.9885057717e-001 1.7324292405e+001
 2.9300000000e+000  8.0106824160e-001 1.7082288116e+001
 2.9400000000e+000  8.0327443376e-001 1.6839415762e+001
 2.9500000000e+000  8.0546683959e-001 1.6595636511e+001
 2.9600000000e+000  8.0764321218e-001 1.6350926339e+001
 2.9700000000e+000  8.0980138410e-001 1.6105274606e+001
 2.9800000000e+000  8.1193927723e-001 1.5858682661e+001
 2.9900000000e+000  8.1405491037e-001 1.5611162491e+001
 3.0000000000e+000  8.1614640481e-001 1.5362735420e+001
 3.0100000000e+000  8.1821198805e-001 1.5113430886e+001
 3.0200000000e+000  8.2024999585e-001 1.4863285293e+001
 3.0300000000e+000  8.2225887292e-001 1.4612340948e+001
 3.0400000000e+000  8.2423717229e-001 1.4360645088e+001
 3.0500000000e+000  8.2618355378e-001 1.4108248986e+001
 3.0600000000e+000  8.2809678147e-001 1.3855207162e+001
 3.0700000000e+000  8.2997572064e-001 1.3601576658e+001
 3.0800000000e+000  8.3181933409e-001 1.3347416413e+001
 3.0900000000e+000  8.3362667813e-001 1.3092786703e+001
 3.1000000000e+000  8.3539689820e-001 1.2837748661e+001
 3.1100000000e+000  8.3712922448e-001 1.2582363857e+001
 3.1200000000e+000  8.3882296726e-001 1.2326693947e+001
 3.1300000000e+000  8.4047751241e-001 1.2070800372e+001
 3.1400000000e+000  8.4209231686e-001 1.1814744108e+001
 3.1500000000e+000  8.4366690416e-001 1.1558585465e+001
 3.1600000000e+000  8.4520086025e-001 1.1302383924e+001
 3.1700000000e+000  8.4669382935e-001 1.1046198006e+001
 3.1800000000e+000  8.4814551006e-001 1.0790085176e+001
 3.1900000000e+000  8.4955565168e-001 1.0534101776e+001
 3.2000000000e+000  8.5092405073e-001 1.0278302975e+001
 3.2100000000e+000  8.5225054776e-001 1.0022742742e+001
 3.2200000000e+000  8.5353502431e-001 9.7674738371e+000
 3.2300000000e+000  8.5477740021e-001 9.5125478157e+000
 3.2400000000e+000  8.5597763097e-001 9.2580150406e+000
 3.2500000000e+000  8.5713570558e-001 9.0039247070e+000
 3.2600000000e+000  8.5825164434e-001 8.7503248727e+000
 3.2700000000e+000  8.5932549706e-001 8.4972624926e+000
 3.2800000000e+000  8.6035734135e-001 8.2447834566e+000
 3.2900000000e+000  8.6134728114e-001 7.9929326286e+000
 3.3000000000e+000  8.6229544540e-001 7.7417538856e+000
 3.3100000000e+000  8.6320198697e-001 7.4912901553e+000
 3.3200000000e+000  8.6406708153e-001 7.2415834509e+000
 3.3300000000e+000  8.6489092675e-001 6.9926749035e+000
 3.3400000000e+000  8.6567374149e-001 6.7446047892e+000
 3.3500000000e+000  8.6641576509e-001 6.4974125526e+000
 3.3600000000e+000  8.6711725671e-001 6.2511368248e+000
 3.3700000000e+000  8.6777849479e-001 6.0058154367e+000
 3.3800000000e+000  8.6839977639e-001 5.7614854275e+000
 3.3900000000e+000  8.6898141666e-001 5.5181830485e+000
 3.4000000000e+000  8.6952374822e-001 5.2759437635e+000
 3.4100000000e+000  8.7002712054e-001 5.0348022456e+000
 3.4200000000e+000  8.7049189923e-001 4.7947923728e+000
 3.4300000000e+000  8.7091846532e-001 4.5559472217e+000
 3.4400000000e+000  8.7130721444e-001 4.3182990628e+000
 3.4500000000e+000  8.7165855594e-001 4.0818793569e+000
 3.4600000000e+000  8.7197291197e-001 3.8467187557e+000
 3.4700000000e+000  8.7225071648e-001 3.6128471059e+000
 3.4800000000e+000  8.7249241418e-001 3.3802934611e+000
 3.4900000000e+000  8.7269845947e-001 3.1490860994e+000
 3.5000000000e+000  8.7286931535e-001 2.9192525507e+000
 3.5100000000e+000  8.7300545244e-001 2.6908196319e+000
 3.5200000000e+000  8.7310734792e-001 2.4638134920e+000
 3.5300000000e+000  8.7317548463e-001 2.2382596668e+000
 3.5400000000e+000  8.7321035026e-001 2.0141831422e+000
 3.5500000000e+000  8.7321243670e-001 1.7916084258e+000
 3.5600000000e+000  8.7318223953e-001 1.5705596262e+000
 3.5700000000e+000  8.7312025772e-001 1.3510605366e+000
 3.5800000000e+000  8.7302699353e-001 1.1331347237e+000
 3.5900000000e+000  8.7290295269e-001 9.1680561653e-001
 3.6000000000e+000  8.7274864477e-001 7.0209659546e-001
 3.6100000000e+000  8.7256458379e-001 4.8903107740e-001
 3.6200000000e+000  8.7235128916e-001 2.7763259498e-001
 3.6300000000e+000  8.7210928675e-001 6.7924867296e-002
 3.6400000000e+000  8.7183911024e-001 -1.4006814055e-001
 3.6500000000e+000  8.7154130260e-001 -3.4632217119e-001
 3.6600000000e+000  8.7121641787e-001 -5.5081264431e-001
 3.6700000000e+000  8.7086502287e-001 -7.5351464313e-001
 3.6800000000e+000  8.7048769922e-001 -9.5440291983e-001
 3.6900000000e+000  8.7008504525e-001 -1.1534519207e+000
 3.7000000000e+000  8.6965767797e-001 -1.3506358320e+000
 3.7100000000e+000  8.6920623509e-001 -1.5459286468e+000
 3.7200000000e+000  8.6873137682e-001 -1.7393042526e+000
 3.7300000000e+000  8.6823378769e-001 -1.9307365398e+000
 3.7400000000e+000  8.6771417811e-001 -2.1201995294e+000
 3.7500000000e+000  8.6717328581e-001 -2.3076675200e+000
 3.7600000000e+000  8.6661187700e-001 -2.4931152511e+000
 3.7700000000e+000  8.6603074728e-001 -2.6765180828e+000
 3.7800000000e+000  8.6543072225e-001 -2.8578521886e+000
 3.7900000000e+000  8.6481265785e-001 -3.0370947596e+000
 3.8000000000e+000  8.6417744028e-001 -3.2142242178e+000
 3.8100000000e+000  8.6352598566e-001 -3.3892204361e+000
 3.8200000000e+000  8.6285923926e-001 -3.5620649618e+000
 3.8300000000e+000  8.6217817440e-001 -3.7327412424e+000
 3.8400000000e+000  8.6148379097e-001 -3.9012348481e+000
 3.8500000000e+000  8.6077711357e-001 -4.0675336918e+000
 3.8600000000e+000  8.6005918930e-001 -4.2316282405e+000
 3.8700000000e+000  8.5933108526e-001 -4.3935117178e+000
 3.8800000000e+000  8.5859388559e-001 -4.5531802924e+000
 3.8900000000e+000  8.5784868839e-001 -4.7106332529e+000
 3.9000000000e+000  8.5709660215e-001 -4.8658731629e+000
 3.9100000000e+000  8.5633874214e-001 -5.0189059967e+000
