! IGNION VIRTUAL ANTENNA LIBRARY
!
! NN_RUN_B140x120_C120x11
! Virtual Antenna™ RUN mXTEND™: NN02-224 12.0 mm x 3.0 mm x 2.4 mm
! https://ignion.io/product/run-mxtend/
! Board: 140 mm x 120 mm
! Clearance Area: 120 mm x 11 mm
! Feeding line: L-shape; 11mm x 2mm and 5mm x 2mm
! Applications: Smart meter, Routers/Repeaters
! Frequency range 0.65GHz to 6GHz, step 10MHz
! Number of ports 9
!
! This product and its use is protected by at least one or more of the following patents and patent
! applications US 8,203,492 B2; US 8,237,615 B2; PCT/EP2013/064692; WO 2014/012842 A1; US 2019/190122 A1;
! US 62/072,671; and other domestic and international patents pending. Additional information about
! patents related to this product is available at https://ignion.io/files/Patent-list-NN.pdf, all
! rights reserved. Copyright, Ignion 2021.
!
! Need more help? Your platform is much different than these examples in the manual? Use our 
! Fast Track service (https://ignion.io/fast-track/), for free, and get a personalized antenna design in
! just 24 hours.
!
! 
! Touchstone port 1 = "Series Port"
! Touchstone port 2 = "Shunt Port"
! Touchstone port 3 = "Series Port"
! Touchstone port 4 = "Shunt Port"
! Touchstone port 5 = "Series Port"
! Touchstone port 6 = "Shunt Port"
! Touchstone port 7 = "Series Port"
! Touchstone port 8 = "Shunt Port"
! Touchstone port 9 = "Series Port"
!

! IE3D S-Parameters Output Version 2.0
# GHZ S MA R 50
! Nport = 9
!

6.50000000000000e-001 2.50148924643600e-001 1.52141847277909e+002 7.61803470912188e-001 -5.46997739699046e+000 4.66950928451845e-001 1.72163797565947e+002 2.93125638153347e-001 -8.15008885927966e+000
          1.74559762040320e-001 1.72057244438840e+002 1.18304223730571e-001 -9.72417289547757e+000 5.68832369494839e-002 1.75775992107886e+002 6.17324595523035e-002 -1.32715366301790e+001
          1.06551022882208e-002 -7.37540825454986e+001
          7.61803470912188e-001 -5.46997739699070e+000 2.42094406425632e-001 1.61156065767291e+002 4.70486451115722e-001 1.76966117724167e+002 2.94219855062894e-001 -2.31008451269159e+000
          1.76467659526132e-001 1.75132115513214e+002 1.17064216131029e-001 -5.65574711151719e+000 5.94885148829460e-002 1.76699052197125e+002 5.76542318612922e-002 -1.02680296647444e+001
          7.65754921525839e-003 -1.10696276804769e+002
          4.66950928451845e-001 1.72163797565947e+002 4.70486451115722e-001 1.76966117724167e+002 9.76497661019504e-002 4.60894951382596e+001 5.86342342316821e-001 -5.10698980059176e+000
          3.50427110893335e-001 1.73906214102456e+002 2.35137427414126e-001 -7.86103355886777e+000 1.16188638392780e-001 1.76536528579806e+002 1.19427561326588e-001 -1.24131663506768e+001
          1.85855853065150e-002 -8.92510662351792e+001
          2.93125638153348e-001 -8.15008885927958e+000 2.94219855062894e-001 -2.31008451269155e+000 5.86342342316821e-001 -5.10698980059183e+000 1.27446128146037e-001 1.53976194150858e+002
          5.29947231592482e-001 1.77342064223212e+002 3.50747428607630e-001 -3.16710506706756e+000 1.79220085291307e-001 1.77733488498585e+002 1.71740048095012e-001 -9.68417806330903e+000
          2.41913348246465e-002 -1.13897326804362e+002
          1.74559762040320e-001 1.72057244438839e+002 1.76467659526132e-001 1.75132115513214e+002 3.50427110893335e-001 1.73906214102456e+002 5.29947231592483e-001 1.77342064223212e+002
          1.29180973001419e-001 1.92099722139612e+001 5.85272773222597e-001 -4.88948559962592e+000 2.95212940773471e-001 1.77792651147911e+002 2.91080883138388e-001 -1.10150857561834e+001
          4.36132630205931e-002 -1.02796253371317e+002
          1.18304223730571e-001 -9.72417289547787e+000 1.17064216131029e-001 -5.65574711151720e+000 2.35137427414126e-001 -7.86103355886777e+000 3.50747428607630e-001 -3.16710506706748e+000
          5.85272773222597e-001 -4.88948559962587e+000 6.86904835122351e-002 1.55885126847184e+002 4.78608684258480e-001 -1.79849216468968e+002 4.57738824487570e-001 -7.80237579815434e+000
          6.69155806949576e-002 -1.11946558167730e+002
          5.68832369494840e-002 1.75775992107886e+002 5.94885148829461e-002 1.76699052197125e+002 1.16188638392780e-001 1.76536528579806e+002 1.79220085291307e-001 1.77733488498585e+002
          2.95212940773471e-001 1.77792651147911e+002 4.78608684258479e-001 -1.79849216468968e+002 2.26291892319303e-001 -2.46619096756647e+000 7.48279419543573e-001 -8.99478395113876e+000
          1.14014071038291e-001 -1.07808012007645e+002
          6.17324595523035e-002 -1.32715366301788e+001 5.76542318612922e-002 -1.02680296647442e+001 1.19427561326588e-001 -1.24131663506768e+001 1.71740048095012e-001 -9.68417806330912e+000
          2.91080883138388e-001 -1.10150857561836e+001 4.57738824487570e-001 -7.80237579815433e+000 7.48279419543573e-001 -8.99478395113862e+000 2.09403018688971e-001 -1.99830058498169e+001
          1.80476931325190e-001 -1.10416350539168e+002
          1.06551022882208e-002 -7.37540825454986e+001 7.65754921525841e-003 -1.10696276804769e+002 1.85855853065150e-002 -8.92510662351794e+001 2.41913348246466e-002 -1.13897326804362e+002
          4.36132630205931e-002 -1.02796253371318e+002 6.69155806949576e-002 -1.11946558167730e+002 1.14014071038291e-001 -1.07808012007645e+002 1.80476931325190e-001 -1.10416350539168e+002
          9.49787975899949e-001 -1.82003366425292e+001
         
6.60000000000000e-001 2.50606054803981e-001 1.51741973947312e+002 7.61726079880646e-001 -5.55409320584482e+000 4.66844188157164e-001 1.72044158731395e+002 2.93093375410291e-001 -8.27728808559338e+000
          1.74507368068096e-001 1.71940160678782e+002 1.18312468468373e-001 -9.88678754800964e+000 5.68449069897781e-002 1.75755336029682e+002 6.17946108043162e-002 -1.35360565985472e+001
          1.09257768296460e-002 -7.40367685098825e+001
          7.61726079880647e-001 -5.55409320584462e+000 2.42319317107232e-001 1.60876489954490e+002 4.70491543914318e-001 1.76919660146933e+002 2.94221921733662e-001 -2.34589419006308e+000
          1.76475937965251e-001 1.75058256854174e+002 1.17036501459490e-001 -5.74313518396748e+000 5.95261359287273e-002 1.76650274734548e+002 5.75917856587625e-002 -1.04335280379879e+001
          7.80007272948987e-003 -1.11292838068639e+002
          4.66844188157164e-001 1.72044158731395e+002 4.70491543914318e-001 1.76919660146933e+002 9.85913728225014e-002 4.64031790609954e+001 5.86282950385653e-001 -5.18635936282681e+000
          3.50361800647212e-001 1.73815570165624e+002 2.35115339901101e-001 -7.98863121119558e+000 1.16175010652882e-001 1.76505275747713e+002 1.19440539081855e-001 -1.26380070406067e+001
          1.89782946257061e-002 -8.95151695501007e+001
          2.93093375410291e-001 -8.27728808559353e+000 2.94221921733662e-001 -2.34589419006330e+000 5.86282950385653e-001 -5.18635936282662e+000 1.27758678875067e-001 1.53615303964552e+002
          5.29987529927372e-001 1.77301643050456e+002 3.50655889894582e-001 -3.21450949864388e+000 1.79349809981716e-001 1.77696619954147e+002 1.71525837551426e-001 -9.83537838466484e+000
          2.46277803142254e-002 -1.14492447670634e+002
          1.74507368068096e-001 1.71940160678781e+002 1.76475937965251e-001 1.75058256854174e+002 3.50361800647212e-001 1.73815570165624e+002 5.29987529927371e-001 1.77301643050456e+002
          1.29483763306112e-001 1.94561172088653e+001 5.85144380656903e-001 -4.96653603990014e+000 2.95314995846608e-001 1.77765573018470e+002 2.90889431010626e-001 -1.11994233650528e+001
          4.44101845358518e-002 -1.03187955526161e+002
          1.18312468468373e-001 -9.88678754800975e+000 1.17036501459490e-001 -5.74313518396775e+000 2.35115339901100e-001 -7.98863121119565e+000 3.50655889894582e-001 -3.21450949864417e+000
          5.85144380656903e-001 -4.96653603990017e+000 6.90580932287313e-002 1.55603116038970e+002 4.78966993856017e-001 -1.79849875215315e+002 4.57176311496784e-001 -7.92387344558171e+000
          6.81025355537397e-002 -1.12486588786821e+002
          5.68449069897780e-002 1.75755336029682e+002 5.95261359287271e-002 1.76650274734547e+002 1.16175010652882e-001 1.76505275747713e+002 1.79349809981715e-001 1.77696619954147e+002
          2.95314995846608e-001 1.77765573018470e+002 4.78966993856017e-001 -1.79849875215315e+002 2.25846769789132e-001 -2.51002179375527e+000 7.47521790214641e-001 -9.13963713316738e+000
          1.16014589530488e-001 -1.08264493152651e+002
          6.17946108043161e-002 -1.35360565985469e+001 5.75917856587623e-002 -1.04335280379877e+001 1.19440539081855e-001 -1.26380070406066e+001 1.71525837551426e-001 -9.83537838466478e+000
          2.90889431010626e-001 -1.11994233650525e+001 4.57176311496784e-001 -7.92387344558158e+000 7.47521790214641e-001 -9.13963713316737e+000 2.08209229142711e-001 -2.03802662122417e+001
          1.83640888705617e-001 -1.10919983060582e+002
          1.09257768296460e-002 -7.40367685098823e+001 7.80007272948987e-003 -1.11292838068639e+002 1.89782946257061e-002 -8.95151695501005e+001 2.46277803142254e-002 -1.14492447670634e+002
          4.44101845358518e-002 -1.03187955526161e+002 6.81025355537396e-002 -1.12486588786821e+002 1.16014589530488e-001 -1.08264493152651e+002 1.83640888705617e-001 -1.10919983060582e+002
          9.47280267543578e-001 -1.85244581841959e+001
         
6.70000000000000e-001 2.51069068984104e-001 1.51343300697653e+002 7.61647347200940e-001 -5.63819810591512e+000 4.66736041619934e-001 1.71924564429018e+002 2.93060117919991e-001 -8.40450844011662e+000
          1.74454805901917e-001 1.71823227420548e+002 1.18319640923110e-001 -1.00496570327340e+001 5.68078961230055e-002 1.75735673080950e+002 6.18549592697913e-002 -1.38018165869183e+001
          1.11972653048674e-002 -7.43325987785649e+001
          7.61647347200940e-001 -5.63819810591532e+000 2.42547451582582e-001 1.60597334939916e+002 4.70496928878324e-001 1.76873188749832e+002 2.94223909099976e-001 -2.38164992179350e+000
          1.76484640198275e-001 1.74984297448089e+002 1.17008042704180e-001 -5.83014906383671e+000 5.95648607478834e-002 1.76600428150672e+002 5.75274194588408e-002 -1.05974846660948e+001
          7.94128302770046e-003 -1.11897104842872e+002
          4.66736041619934e-001 1.71924564429018e+002 4.70496928878324e-001 1.76873188749832e+002 9.95374164839179e-002 4.67089201122092e+001 5.86222106067407e-001 -5.26571561838453e+000
          3.50296284529462e-001 1.73724984101828e+002 2.35091565560714e-001 -8.11625784889595e+000 1.16163281907707e-001 1.76474187225057e+002 1.19450508453814e-001 -1.28631870769497e+001
          1.93712803490579e-002 -8.97887065726825e+001
          2.93060117919991e-001 -8.40450844011658e+000 2.94223909099976e-001 -2.38164992179360e+000 5.86222106067407e-001 -5.26571561838453e+000 1.28075768124715e-001 1.53255657763001e+002
          5.30029126890058e-001 1.77261110149929e+002 3.50562394013469e-001 -3.26150791704032e+000 1.79482605843691e-001 1.77658653138862e+002 1.71306199835212e-001 -9.98500187090461e+000
          2.50608391013823e-002 -1.15093906071725e+002
          1.74454805901917e-001 1.71823227420548e+002 1.76484640198275e-001 1.74984297448089e+002 3.50296284529462e-001 1.73724984101828e+002 5.30029126890058e-001 1.77261110149929e+002
          1.29789266744683e-001 1.97011927092821e+001 5.85012258878349e-001 -5.04338925362762e+000 2.95421433983993e-001 1.77737971164398e+002 2.90690207933726e-001 -1.13831626164235e+001
          4.52034985230817e-002 -1.03585610967406e+002
          1.18319640923110e-001 -1.00496570327341e+001 1.17008042704181e-001 -5.83014906383683e+000 2.35091565560715e-001 -8.11625784889609e+000 3.50562394013469e-001 -3.26150791704053e+000
          5.85012258878349e-001 -5.04338925362784e+000 6.94338107305050e-002 1.55320677974208e+002 4.79333270794848e-001 -1.79851589365039e+002 4.56600040450107e-001 -8.04390187948663e+000
          6.92811318221332e-002 -1.13032197227873e+002
          5.68078961230055e-002 1.75735673080950e+002 5.95648607478834e-002 1.76600428150672e+002 1.16163281907707e-001 1.76474187225057e+002 1.79482605843691e-001 1.77658653138862e+002
          2.95421433983994e-001 1.77737971164398e+002 4.79333270794848e-001 -1.79851589365038e+002 2.25389575596330e-001 -2.55129397974876e+000 7.46743138521834e-001 -9.28342885325925e+000
          1.18002567203282e-001 -1.08726066825438e+002
          6.18549592697913e-002 -1.38018165869176e+001 5.75274194588406e-002 -1.05974846660942e+001 1.19450508453814e-001 -1.28631870769496e+001 1.71306199835212e-001 -9.98500187090443e+000
          2.90690207933725e-001 -1.13831626164234e+001 4.56600040450106e-001 -8.04390187948635e+000 7.46743138521835e-001 -9.28342885325932e+000 2.06980495706420e-001 -2.07752476519767e+001
          1.86783222095043e-001 -1.11428780158526e+002
          1.11972653048674e-002 -7.43325987785647e+001 7.94128302770046e-003 -1.11897104842872e+002 1.93712803490580e-002 -8.97887065726823e+001 2.50608391013823e-002 -1.15093906071725e+002
          4.52034985230817e-002 -1.03585610967406e+002 6.92811318221331e-002 -1.13032197227872e+002 1.18002567203282e-001 -1.08726066825438e+002 1.86783222095043e-001 -1.11428780158526e+002
          9.44691672856401e-001 -1.88468464273363e+001
         
6.80000000000000e-001 2.51537944675614e-001 1.50945834260957e+002 7.61567275313159e-001 -5.72229022589302e+000 4.66626506649944e-001 1.71805011902732e+002 2.93025870384540e-001 -8.53173919299273e+000
          1.74402085735805e-001 1.71706423043978e+002 1.18325746757822e-001 -1.02127210969566e+001 5.67721950091548e-002 1.75716816505110e+002 6.19135034730213e-002 -1.40685393563842e+001
          1.14691693475825e-002 -7.46395442743714e+001
          7.61567275313159e-001 -5.72229022589288e+000 2.42778789477220e-001 1.60318603005348e+002 4.70502595766061e-001 1.76826700342710e+002 2.94225852593930e-001 -2.41734786436148e+000
          1.76493728527387e-001 1.74910224309094e+002 1.16978919578068e-001 -5.91676183363100e+000 5.96045724361385e-002 1.76549433296831e+002 5.74613104809138e-002 -1.07597497104112e+001
          8.08094998713894e-003 -1.12507356872816e+002
          4.66626506649944e-001 1.71805011902732e+002 4.70502595766061e-001 1.76826700342710e+002 1.00487770253725e-001 4.70069251254222e+001 5.86159835858247e-001 -5.34505244432162e+000
          3.50230549019824e-001 1.73634442655077e+002 2.35066156533263e-001 -8.24387863987847e+000 1.16153373811544e-001 1.76443158114445e+002 1.19457568240806e-001 -1.30885406356354e+001
          1.97640605756084e-002 -9.00703494830910e+001
          2.93025870384540e-001 -8.53173919299277e+000 2.94225852593930e-001 -2.41734786436152e+000 5.86159835858247e-001 -5.34505244432163e+000 1.28397309652411e-001 1.52897233867880e+002
          5.30071912781041e-001 1.77220455411079e+002 3.50467168638011e-001 -3.30808035358249e+000 1.79618148825892e-001 1.77619528817034e+002 1.71081627243416e-001 -1.01329290305219e+001
          2.54899380489759e-002 -1.15700273473527e+002
          1.74402085735805e-001 1.71706423043978e+002 1.76493728527386e-001 1.74910224309094e+002 3.50230549019824e-001 1.73634442655077e+002 5.30071912781041e-001 1.77220455411079e+002
          1.30097628446515e-001 1.99452362446267e+001 5.84876651016241e-001 -5.12002274512676e+000 2.95531900418731e-001 1.77709779365279e+002 2.90483721508691e-001 -1.15661868357274e+001
          4.59923396904184e-002 -1.03988051412358e+002
          1.18325746757821e-001 -1.02127210969565e+001 1.16978919578068e-001 -5.91676183363115e+000 2.35066156533263e-001 -8.24387863987871e+000 3.50467168638011e-001 -3.30808035358244e+000
          5.84876651016241e-001 -5.12002274512688e+000 6.98172700914166e-002 1.55037510723812e+002 4.79706716456851e-001 -1.79854410432110e+002 4.56011214930814e-001 -8.16235521532115e+000
          7.04500048674740e-002 -1.13582103303800e+002
          5.67721950091547e-002 1.75716816505110e+002 5.96045724361384e-002 1.76549433296830e+002 1.16153373811544e-001 1.76443158114445e+002 1.79618148825892e-001 1.77619528817033e+002
          2.95531900418730e-001 1.77709779365278e+002 4.79706716456850e-001 -1.79854410432110e+002 2.24921364499259e-001 -2.58980061155421e+000 7.45945089875081e-001 -9.42605747934411e+000
          1.19975947668722e-001 -1.09191582261757e+002
          6.19135034730212e-002 -1.40685393563840e+001 5.74613104809138e-002 -1.07597497104115e+001 1.19457568240806e-001 -1.30885406356354e+001 1.71081627243416e-001 -1.01329290305218e+001
          2.90483721508691e-001 -1.15661868357275e+001 4.56011214930814e-001 -8.16235521532104e+000 7.45945089875081e-001 -9.42605747934389e+000 2.05719043749402e-001 -2.11673291543409e+001
          1.89900557525657e-001 -1.11941536883541e+002
          1.14691693475825e-002 -7.46395442743712e+001 8.08094998713892e-003 -1.12507356872817e+002 1.97640605756083e-002 -9.00703494830910e+001 2.54899380489759e-002 -1.15700273473527e+002
          4.59923396904184e-002 -1.03988051412358e+002 7.04500048674740e-002 -1.13582103303800e+002 1.19975947668722e-001 -1.09191582261757e+002 1.89900557525657e-001 -1.11941536883541e+002
          9.42027630058862e-001 -1.91671647057362e+001
         
6.90000000000000e-001 2.52012658941989e-001 1.50549580058330e+002 7.61485870558977e-001 -5.80636766677227e+000 4.66515596859297e-001 1.71685497880704e+002 2.92990647303878e-001 -8.65896951049931e+000
          1.74349205508904e-001 1.71589724663847e+002 1.18330814530764e-001 -1.03759184897288e+001 5.67377591501221e-002 1.75698577327086e+002 6.19702959919689e-002 -1.43359400435109e+001
          1.17411182940370e-002 -7.49553733424672e+001
          7.61485870558977e-001 -5.80636766677229e+000 2.43013308271677e-001 1.60040296651210e+002 4.70508529802659e-001 1.76780191865263e+002 2.94227791615921e-001 -2.45298523002289e+000
          1.76503157840151e-001 1.74836026203329e+002 1.16949222077497e-001 -6.00295241541361e+000 5.96451382999917e-002 1.76497228239769e+002 5.73936635268003e-002 -1.09201985936061e+001
          8.21886767225715e-003 -1.13121698528039e+002
          4.66515596859297e-001 1.71685497880704e+002 4.70508529802659e-001 1.76780191865262e+002 1.01442319290690e-001 4.72973936320452e+001 5.86096177538853e-001 -5.42436403863654e+000
          3.50164565067661e-001 1.73543932624083e+002 2.35039191754817e-001 -8.37146023042625e+000 1.16145167643505e-001 1.76412088521972e+002 1.19461882433156e-001 -1.33139058976387e+001
          2.01561873506651e-002 -9.03586064123773e+001
          2.92990647303878e-001 -8.65896951049940e+000 2.94227791615920e-001 -2.45298523002281e+000 5.86096177538853e-001 -5.42436403863654e+000 1.28723204347326e-001 1.52540014187204e+002
          5.30115760646231e-001 1.77179670525185e+002 3.50370463788981e-001 -3.35421254696583e+000 1.79756079355969e-001 1.77579204001354e+002 1.70852676206826e-001 -1.02790648309815e+001
          2.59145713524766e-002 -1.16309980598384e+002
          1.74349205508904e-001 1.71589724663847e+002 1.76503157840151e-001 1.74836026203329e+002 3.50164565067661e-001 1.73543932624083e+002 5.30115760646231e-001 1.77179670525185e+002
          1.30409015013182e-001 2.01882723346401e+001 5.84737842859881e-001 -5.19641762103203e+000 2.95645975756483e-001 1.77680942141377e+002 2.90270591249815e-001 -1.17483936142342e+001
          4.67759379003796e-002 -1.04393986383725e+002
          1.18330814530764e-001 -1.03759184897291e+001 1.16949222077497e-001 -6.00295241541378e+000 2.35039191754817e-001 -8.37146023042632e+000 3.50370463788981e-001 -3.35421254696597e+000
          5.84737842859881e-001 -5.19641762103207e+000 7.02080308988806e-002 1.54753361106644e+002 4.80086450302621e-001 -1.79858374765680e+002 4.55411189273182e-001 -8.27915036518244e+000
          7.16079637418809e-002 -1.14134905115875e+002
