! IGNION VIRTUAL ANTENNA LIBRARY
!
! NN_RUN_B90x90_C90x11
! Virtual Antenna™ RUN mXTEND™: NN02-224 12.0 mm x 3.0 mm x 2.4 mm
! https://ignion.io/product/run-mxtend/
! Board: 90 mm x 90 mm
! Clearance Area: 90 mm x 11 mm
! Feeding line: L-shape; 11mm x 2mm and 5mm x 2mm
! Applications: Fleet management, IoT
! Frequency range 0.65GHz to 6GHz, step 10MHz
! Number of ports 9
!
! This product and its use is protected by at least one or more of the following patents and patent
! applications US 8,203,492 B2; US 8,237,615 B2; PCT/EP2013/064692; WO 2014/012842 A1; US 2019/190122 A1;
! US 62/072,671; and other domestic and international patents pending. Additional information about
! patents related to this product is available at https://ignion.io/files/Patent-list-NN.pdf, all
! rights reserved. Copyright, Ignion 2021.
!
! Need more help? Your platform is much different than these examples in the manual? Use our 
! Fast Track service (https://ignion.io/fast-track/), for free, and get a personalized antenna design in
! just 24 hours.
!
!
! Touchstone port 1 = "Series Port"
! Touchstone port 2 = "Shunt Port"
! Touchstone port 3 = "Series Port"
! Touchstone port 4 = "Shunt Port"
! Touchstone port 5 = "Series Port"
! Touchstone port 6 = "Shunt Port"
! Touchstone port 7 = "Series Port"
! Touchstone port 8 = "Shunt Port"
! Touchstone port 9 = "Series Port"
!
! IE3D S-Parameters Output Version 2.0  
# GHZ S MA R 50
! Nport = 9
!

 6.5000000000e-001  2.4994004547e-001 1.5231007811e+002  7.6187647517e-001 -5.4251373602e+000  4.6697244127e-001 1.7218179905e+002  2.9318989364e-001 -8.1132095337e+000
          1.7452141139e-001 1.7204823153e+002  1.1842096750e-001 -9.6298084980e+000  5.6714684400e-002 1.7558376025e+002  6.1987114025e-002 -1.2894411294e+001
          1.0339660213e-002 -7.0247353491e+001
          7.6187647517e-001 -5.4251373602e+000  2.4198744000e-001 1.6127369873e+002  4.7043086140e-001 1.7695251755e+002  2.9426186037e-001 -2.3215621316e+000
          1.7638379083e-001 1.7511494401e+002  1.1719734549e-001 -5.6538229325e+000  5.9283450872e-002 1.7665779884e+002  5.7988076764e-002 -1.0182826135e+001
          7.4361922557e-003 -1.0696893375e+002
          4.6697244127e-001 1.7218179905e+002  4.7043086140e-001 1.7695251755e+002  9.7602197032e-002 4.6062236908e+001  5.8643466964e-001 -5.0942749708e+000
          3.5034232134e-001 1.7389879620e+002  2.3532670220e-001 -7.8193178998e+000  1.1591402927e-001 1.7644844309e+002  1.1985919432e-001 -1.2219850898e+001
          1.8167371722e-002 -8.6786275705e+001
          2.9318989364e-001 -8.1132095337e+000  2.9426186037e-001 -2.3215621316e+000  5.8643466964e-001 -5.0942749708e+000  1.2730616310e-001 1.5397037418e+002
          5.2974696933e-001 1.7733434436e+002  3.5108158905e-001 -3.1681948783e+000  1.7871836491e-001 1.7771909167e+002  1.7256827495e-001 -9.6376992814e+000
          2.3679414046e-002 -1.1101970308e+002
          1.7452141139e-001 1.7204823153e+002  1.7638379083e-001 1.7511494401e+002  3.5034232134e-001 1.7389879620e+002  5.2974696933e-001 1.7733434436e+002
          1.2944287466e-001 1.9203756434e+001  5.8573211365e-001 -4.8766079778e+000  2.9454027382e-001 1.7776037349e+002  2.9217660441e-001 -1.0926829467e+001
          4.2907946237e-002 -1.0056421952e+002
          1.1842096750e-001 -9.6298084980e+000  1.1719734549e-001 -5.6538229325e+000  2.3532670220e-001 -7.8193178998e+000  3.5108158905e-001 -3.1681948783e+000
          5.8573211365e-001 -4.8766079778e+000  6.7952315215e-002 1.5562436192e+002  4.7741802477e-001 -1.7985412855e+002  4.5971741155e-001 -7.7678583868e+000
          6.5794367068e-002 -1.0944918421e+002
          5.6714684400e-002 1.7558376025e+002  5.9283450872e-002 1.7665779884e+002  1.1591402927e-001 1.7644844309e+002  1.7871836491e-001 1.7771909167e+002
          2.9454027382e-001 1.7776037349e+002  4.7741802477e-001 -1.7985412855e+002  2.2803900247e-001 -2.4130764387e+000  7.5118054168e-001 -8.9468766670e+000
          1.1244284493e-001 -1.0562051804e+002
          6.1987114025e-002 -1.2894411294e+001  5.7988076764e-002 -1.0182826135e+001  1.1985919432e-001 -1.2219850898e+001  1.7256827495e-001 -9.6376992814e+000
          2.9217660441e-001 -1.0926829467e+001  4.5971741155e-001 -7.7678583868e+000  7.5118054168e-001 -8.9468766670e+000  2.1407685132e-001 -1.9533816916e+001
          1.7784975082e-001 -1.0809895094e+002
          1.0339660213e-002 -7.0247353491e+001  7.4361922557e-003 -1.0696893375e+002  1.8167371722e-002 -8.6786275705e+001  2.3679414046e-002 -1.1101970308e+002
          4.2907946237e-002 -1.0056421952e+002  6.5794367068e-002 -1.0944918421e+002  1.1244284493e-001 -1.0562051804e+002  1.7784975082e-001 -1.0809895094e+002
          9.6108393125e-001 -1.7963329836e+001
 6.6000000000e-001  2.5039054205e-001 1.5191163428e+002  7.6180307111e-001 -5.5085757247e+000  4.6686393026e-001 1.7206218021e+002  2.9316405461e-001 -8.2399119146e+000
          1.7446187587e-001 1.7193057331e+002  1.1844330174e-001 -9.7911265407e+000  5.6655539376e-002 1.7556132752e+002  6.2082806961e-002 -1.3151911782e+001
          1.0626994127e-002 -7.0348073677e+001
          7.6180307111e-001 -5.5085757247e+000  2.4220812598e-001 1.6099591432e+002  4.7043224836e-001 1.7690596687e+002  2.9426659332e-001 -2.3581425368e+000
          1.7638651275e-001 1.7504191256e+002  1.1717748556e-001 -5.7446013965e+000  5.9308992959e-002 1.7661843871e+002  5.7946689353e-002 -1.0362391433e+001
          7.5921856057e-003 -1.0737927358e+002
          4.6686393026e-001 1.7206218021e+002  4.7043224836e-001 1.7690596687e+002  9.8545920947e-002 4.6374768929e+001  5.8638285704e-001 -5.1736943419e+000
          3.5026732350e-001 1.7380823061e+002  2.3532196787e-001 -7.9474907534e+000  1.1587498378e-001 1.7641982177e+002  1.1991480636e-001 -1.2445849699e+001
          1.8580050995e-002 -8.6909484180e+001
          2.9316405461e-001 -8.2399119146e+000  2.9426659332e-001 -2.3581425368e+000  5.8638285704e-001 -5.1736943419e+000  1.2760888660e-001 1.5361161649e+002
          5.2977496369e-001 1.7729487702e+002  3.5100712763e-001 -3.2188573480e+000  1.7882139409e-001 1.7769121518e+002  1.7240208516e-001 -9.8027220323e+000
          2.4153206570e-002 -1.1146957697e+002
          1.7446187587e-001 1.7193057331e+002  1.7638651275e-001 1.7504191256e+002  3.5026732350e-001 1.7380823061e+002  5.2977496369e-001 1.7729487702e+002
          1.2975947908e-001 1.9442465801e+001  5.8563344504e-001 -4.9556486238e+000  2.9459824098e-001 1.7773926623e+002  2.9206334316e-001 -1.1118936822e+001
          4.3759582887e-002 -1.0084016875e+002
          1.1844330174e-001 -9.7911265407e+000  1.1717748556e-001 -5.7446013965e+000  2.3532196787e-001 -7.9474907534e+000  3.5100712763e-001 -3.2188573480e+000
          5.8563344504e-001 -4.9556486238e+000  6.8265866991e-002 1.5536540980e+002  4.7771567447e-001 -1.7984632306e+002  4.5926634175e-001 -7.9023347474e+000
          6.7079280504e-002 -1.0986519222e+002
          5.6655539376e-002 1.7556132752e+002  5.9308992959e-002 1.7661843871e+002  1.1587498378e-001 1.7641982177e+002  1.7882139409e-001 1.7769121518e+002
          2.9459824098e-001 1.7773926623e+002  4.7771567447e-001 -1.7984632306e+002  2.2769345864e-001 -2.4803450482e+000  7.5059922525e-001 -9.1023551547e+000
          1.1459809312e-001 -1.0596910003e+002
          6.2082806961e-002 -1.3151911782e+001  5.7946689353e-002 -1.0362391433e+001  1.1991480636e-001 -1.2445849699e+001  1.7240208516e-001 -9.8027220323e+000
          2.9206334316e-001 -1.1118936822e+001  4.5926634175e-001 -7.9023347474e+000  7.5059922525e-001 -9.1023551547e+000  2.1320175317e-001 -1.9974870725e+001
          1.8127106205e-001 -1.0848915639e+002
          1.0626994127e-002 -7.0348073677e+001  7.5921856057e-003 -1.0737927358e+002  1.8580050995e-002 -8.6909484180e+001  2.4153206570e-002 -1.1146957697e+002
          4.3759582887e-002 -1.0084016875e+002  6.7079280504e-002 -1.0986519222e+002  1.1459809312e-001 -1.0596910003e+002  1.8127106205e-001 -1.0848915639e+002
          9.5934725660e-001 -1.8312787727e+001
 6.7000000000e-001  2.5084663170e-001 1.5151433067e+002  7.6172851079e-001 -5.5920168734e+000  4.6675366157e-001 1.7194261048e+002  2.9313761104e-001 -8.3667255237e+000
          1.7440154002e-001 1.7181321373e+002  1.1846550984e-001 -9.9532031735e+000  5.6596370455e-002 1.7554156636e+002  6.2179180210e-002 -1.3412774017e+001
          1.0920099413e-002 -7.0464852260e+001
          7.6172851079e-001 -5.5920168734e+000  2.4243196697e-001 1.6071857840e+002  4.7043379591e-001 1.7685943556e+002  2.9427114404e-001 -2.3947496050e+000
          1.7638962010e-001 1.7496897210e+002  1.1715672588e-001 -5.8354959899e+000  5.9335850181e-002 1.7657944897e+002  5.7903266938e-002 -1.0542871845e+001
          7.7501540776e-003 -1.0779998468e+002
          4.6675366157e-001 1.7194261048e+002  4.7043379591e-001 1.7685943556e+002  9.9494120945e-002 4.6679105609e+001  5.8632985599e-001 -5.2531680319e+000
          3.5019155847e-001 1.7371785241e+002  2.3531625576e-001 -8.0760771011e+000  1.1583685513e-001 1.7639255924e+002  1.1996951327e-001 -1.2673903482e+001
          1.8999116535e-002 -8.7043201911e+001
          2.9313761104e-001 -8.3667255237e+000  2.9427114404e-001 -2.3947496050e+000  5.8632985599e-001 -5.2531680319e+000  1.2791599890e-001 1.5325453152e+002
          5.2980440240e-001 1.7725546112e+002  3.5092989551e-001 -3.2695206938e+000  1.7892853868e-001 1.7766342303e+002  1.7222939299e-001 -9.9682653113e+000
          2.4632073947e-002 -1.1192841096e+002
          1.7440154002e-001 1.7181321373e+002  1.7638962010e-001 1.7496897210e+002  3.5019155847e-001 1.7371785241e+002  5.2980440240e-001 1.7725546112e+002
          1.3007810084e-001 1.9679205550e+001  5.8553087335e-001 -5.0348433962e+000  2.9466083964e-001 1.7771867326e+002  2.9194307848e-001 -1.1312140287e+001
          4.4620056045e-002 -1.0112415337e+002
          1.1846550984e-001 -9.9532031735e+000  1.1715672588e-001 -5.8354959899e+000  2.3531625576e-001 -8.0760771011e+000  3.5092989551e-001 -3.2695206938e+000
          5.8553087335e-001 -5.0348433962e+000  6.8586919437e-002 1.5511068401e+002  4.7802424871e-001 -1.7983851797e+002  4.5879836638e-001 -8.0372342107e+000
          6.8376561213e-002 -1.1028949811e+002
          5.6596370455e-002 1.7554156636e+002  5.9335850181e-002 1.7657944897e+002  1.1583685513e-001 1.7639255924e+002  1.7892853868e-001 1.7766342303e+002
          2.9466083964e-001 1.7771867326e+002  4.7802424871e-001 -1.7983851797e+002  2.2733312585e-001 -2.5485293974e+000  7.4999420592e-001 -9.2584888203e+000
          1.1677230191e-001 -1.0632540823e+002
          6.2179180210e-002 -1.3412774017e+001  5.7903266938e-002 -1.0542871845e+001  1.1996951327e-001 -1.2673903482e+001  1.7222939299e-001 -9.9682653113e+000
          2.9194307848e-001 -1.1312140287e+001  4.5879836638e-001 -8.0372342107e+000  7.4999420592e-001 -9.2584888203e+000  2.1229416436e-001 -2.0423385283e+001
          1.8472298050e-001 -1.0888731369e+002
          1.0920099413e-002 -7.0464852260e+001  7.7501540776e-003 -1.0779998468e+002  1.8999116535e-002 -8.7043201911e+001  2.4632073947e-002 -1.1192841096e+002
          4.4620056045e-002 -1.0112415337e+002  6.8376561213e-002 -1.1028949811e+002  1.1677230191e-001 -1.0632540823e+002  1.8472298050e-001 -1.0888731369e+002
          9.5753396524e-001 -1.8665757525e+001
 6.8000000000e-001  2.5130826182e-001 1.5111817739e+002  7.6165278636e-001 -5.6754610659e+000  4.6664163672e-001 1.7182309234e+002  2.9311053852e-001 -8.4936532763e+000
          1.7434042784e-001 1.7169616343e+002  1.1848753620e-001 -1.0116058315e+001  5.6537277285e-002 1.7552454806e+002  6.2276123572e-002 -1.3677087121e+001
          1.1219018262e-002 -7.0597864287e+001
          7.6165278636e-001 -5.6754610659e+000  2.4265895756e-001 1.6044169580e+002  4.7043551660e-001 1.7681292390e+002  2.9427549621e-001 -2.4313816304e+000
          1.7639313850e-001 1.7489612116e+002  1.1713502648e-001 -5.9264974972e+000  5.9364084692e-002 1.7654080112e+002  5.7857709111e-002 -1.0724241991e+001
          7.9101034676e-003 -1.0823144023e+002
          4.6664163672e-001 1.7182309234e+002  4.7043551660e-001 1.7681292390e+002  1.0044661599e-001 4.6975441985e+001  5.8627563086e-001 -5.3326966053e+000
          3.5011506826e-001 1.7362766616e+002  2.3530948320e-001 -8.2050833244e+000  1.1579977860e-001 1.7636667462e+002  1.2002313853e-001 -1.2904053542e+001
          1.9424623392e-002 -8.7187730019e+001
          2.9311053852e-001 -8.4936532763e+000  2.9427549621e-001 -2.4313816304e+000  5.8627563086e-001 -5.3326966053e+000  1.2822751454e-001 1.5289912449e+002
          5.2983535317e-001 1.7721609363e+002  3.5084979587e-001 -3.3201719801e+000  1.7903995278e-001 1.7763567936e+002  1.7204993800e-001 -1.0134289269e+001
          2.5116015547e-002 -1.1239652820e+002
          1.7434042784e-001 1.7169616343e+002  1.7639313850e-001 1.7489612116e+002  3.5011506826e-001 1.7362766616e+002  5.2983535317e-001 1.7721609363e+002
          1.3039860322e-001 1.9914002171e+001  5.8542423117e-001 -5.1141874377e+000  2.9472833063e-001 1.7769857944e+002  2.9181540922e-001 -1.1506436272e+001
          4.5489370091e-002 -1.0141645459e+002
          1.1848753620e-001 -1.0116058315e+001  1.1713502648e-001 -5.9264974972e+000  2.3530948320e-001 -8.2050833244e+000  3.5084979587e-001 -3.3201719801e+000
          5.8542423117e-001 -5.1141874377e+000  6.8915726362e-002 1.5486011655e+002  4.7834412028e-001 -1.7983074990e+002  4.5831284339e-001 -8.1725155609e+000
          6.9686173709e-002 -1.1072239660e+002
          5.6537277285e-002 1.7552454806e+002  5.9364084692e-002 1.7654080112e+002  1.1579977860e-001 1.7636667462e+002  1.7903995278e-001 1.7763567936e+002
          2.9472833063e-001 1.7769857944e+002  4.7834412028e-001 -1.7983074990e+002  2.2695739825e-001 -2.6175568215e+000  7.4936448017e-001 -9.4152515532e+000
          1.1896537561e-001 -1.0668971353e+002
          6.2276123572e-002 -1.3677087121e+001  5.7857709111e-002 -1.0724241991e+001  1.2002313853e-001 -1.2904053542e+001  1.7204993800e-001 -1.0134289269e+001
          2.9181540922e-001 -1.1506436272e+001  4.5831284339e-001 -8.1725155609e+000  7.4936448017e-001 -9.4152515532e+000  2.1135269723e-001 -2.0879490890e+001
          1.8820535531e-001 -1.0929370269e+002
          1.1219018262e-002 -7.0597864287e+001  7.9101034676e-003 -1.0823144023e+002  1.9424623392e-002 -8.7187730019e+001  2.5116015547e-002 -1.1239652820e+002
          4.5489370091e-002 -1.0141645459e+002  6.9686173709e-002 -1.1072239660e+002  1.1896537561e-001 -1.0668971353e+002  1.8820535531e-001 -1.0929370269e+002
          9.5564031942e-001 -1.9022253906e+001
 6.9000000000e-001  2.5177537966e-001 1.5072318446e+002  7.6157588924e-001 -5.7589085483e+000  4.6652785827e-001 1.7170362835e+002  2.9308281077e-001 -8.6206979747e+000
          1.7427856587e-001 1.7157943303e+002  1.1850932084e-001 -1.0279711350e+001  5.6478366985e-002 1.7551034158e+002  6.2373517060e-002 -1.3944938608e+001
          1.1523783173e-002 -7.0747284787e+001
          7.6157588924e-001 -5.7589085483e+000  2.4288909251e-001 1.6016527122e+002  4.7043742376e-001 1.7676643212e+002  2.9427963325e-001 -2.4680366474e+000
          1.7639709457e-001 1.7482335780e+002  1.1711234639e-001 -6.0175952067e+000  5.9393760221e-002 1.7650246214e+002  5.7809912012e-002 -1.0906469960e+001
          8.0720334360e-003 -1.0867401837e+002
          4.6652785827e-001 1.7170362835e+002  4.7043742376e-001 1.7676643212e+002  1.0140322900e-001 4.7263969659e+001  5.8622014413e-001 -5.4122804745e+000
          3.5003789799e-001 1.7353767624e+002  2.3530156270e-001 -8.3345150370e+000  1.1576389707e-001 1.7634218423e+002  1.2007549386e-001 -1.3136338631e+001
          1.9856613711e-002 -8.7343371120e+001
          2.9308281077e-001 -8.6206979747e+000  2.9427963325e-001 -2.4680366474e+000  5.8622014413e-001 -5.4122804745e+000  1.2854345004e-001 1.5254539912e+002
          5.2986788550e-001 1.7717677096e+002  3.5076673106e-001 -3.3707968006e+000  1.7915579245e-001 1.7760794408e+002  1.7186345349e-001 -1.0300747429e+001
          2.5605013481e-002 -1.1287425594e+002
          1.7427856587e-001 1.7157943303e+002  1.7639709457e-001 1.7482335780e+002  3.5003789799e-001 1.7353767624e+002  5.2986788550e-001 1.7717677096e+002
          1.3072084903e-001 2.0146886054e+001  5.8531334595e-001 -5.1936747976e+000  2.9480098269e-001 1.7767896622e+002  2.9167991775e-001 -1.1701816874e+001
          4.6367501281e-002 -1.0171735635e+002
          1.1850932084e-001 -1.0279711350e+001  1.1711234639e-001 -6.0175952066e+000  2.3530156270e-001 -8.3345150370e+000  3.5076673106e-001 -3.3707968006e+000
          5.8531334595e-001 -5.1936747976e+000  6.9252553666e-002 1.5461362510e+002  4.7867566484e-001 -1.7982305943e+002  4.5780911733e-001 -8.3081312409e+000
          7.1008037235e-002 -1.1116418570e+002
          5.6478366985e-002 1.7551034158e+002  5.9393760221e-002 1.7650246214e+002  1.1576389707e-001 1.7634218423e+002  1.7915579245e-001 1.7760794408e+002
          2.9480098269e-001 1.7767896622e+002  4.7867566484e-001 -1.7982305943e+002  2.2656565739e-001 -2.6873428413e+000  7.4870901659e-001 -9.5726119010e+000
          1.2117714536e-001 -1.0706228940e+002
          6.2373517060e-002 -1.3944938608e+001  5.7809912012e-002 -1.0906469960e+001  1.2007549386e-001 -1.3136338631e+001  1.7186345349e-001 -1.0300747429e+001
          2.9167991775e-001 -1.1701816874e+001  4.5780911733e-001 -8.3081312409e+000  7.4870901659e-001 -9.5726119010e+000  2.1037590937e-001 -2.1343306205e+001
          1.9171791718e-001 -1.0970860608e+002
          1.1523783173e-002 -7.0747284787e+001  8.0720334360e-003 -1.0867401837e+002  1.9856613711e-002 -8.7343371120e+001  2.5605013481e-002 -1.1287425594e+002
          4.6367501281e-002 -1.0171735635e+002  7.1008037235e-002 -1.1116418570e+002  1.2117714536e-001 -1.0706228940e+002  1.9171791718e-001 -1.0970860608e+002
          9.5366243033e-001 -1.9382280642e+001
 7.0000000000e-001  2.5224793236e-001 1.5032936178e+002  7.6149781015e-001 -5.8423595488e+000  4.6641232988e-001 1.7158422117e+002  2.9305439961e-001 -8.7478622758e+000
          1.7421598344e-001 1.7146303315e+002  1.1853079924e-001 -1.0444180953e+001  5.6419754425e-002 1.7549901284e+002  6.2471230381e-002 -1.4216413707e+001
          1.1834415700e-002 -7.0913287265e+001
          7.6149781015e-001 -5.8423595488e+000  2.4312236682e-001 1.5988930919e+002  4.7043953151e-001 1.7671996035e+002  2.9428353830e-001 -2.5047124086e+000
          1.7640151589e-001 1.7475067945e+002  1.1708864372e-001 -6.1087767746e+000  5.9424941862e-002 1.7646439407e+002  5.7759768545e-002 -1.1089516604e+001
          8.2359367308e-003 -1.0912810086e+002
          4.6641232988e-001 1.7158422117e+002  4.7043953151e-001 1.7671996035e+002  1.0236378676e-001 4.7544876850e+001  5.8616335632e-001 -5.4919198772e+000
          3.4996009599e-001 1.7344788680e+002  2.3529240186e-001 -8.4643769533e+000  1.1572936114e-001 1.7631910110e+002  1.2012637882e-001 -1.3370794419e+001
          2.0295115044e-002 -8.7510427964e+001
          2.9305439961e-001 -8.7478622758e+000  2.9428353830e-001 -2.5047124086e+000  5.8616335632e-001 -5.4919198772e+000  1.2886382380e-001 1.5219335753e+002
          5.2990207049e-001 1.7713748899e+002  3.5068060311e-001 -3.4213791697e+000  1.7927621489e-001 1.7758017258e+002  1.7166966741e-001 -1.0467586063e+001
          2.6099030516e-002 -1.1336192422e+002
          1.7421598344e-001 1.7146303315e+002  1.7640151589e-001 1.7475067945e+002  3.4996009599e-001 1.7344788680e+002  5.2990207049e-001 1.7713748899e+002
          1.3104470110e-001 2.0377891671e+001  5.8519804041e-001 -5.2732983251e+000  2.9487907177e-001 1.7765981132e+002  2.9153617045e-001 -1.1898269367e+001
          4.7254394445e-002 -1.0202714407e+002
