! IGNION VIRTUAL ANTENNA LIBRARY
!
! NN_RUN_B105x45_C45x11
! Virtual Antenna™ RUN mXTEND™: NN02-224 12.0 mm x 3.0 mm x 2.4 mm
! https://ignion.io/product/run-mxtend/
! Board: 105 mm x 45 mm
! Clearance Area: 45 mm x 11 mm
! Feeding line: L-shape; 11mm x 2mm and 5mm x 2mm
! Applications: Fleet management, IoT
! Frequency range 0.65GHz to 6GHz, step 10MHz
! Number of ports 1
!
! This product and its use is protected by at least one or more of the following patents and patent
! applications US 8,203,492 B2; US 8,237,615 B2; PCT/EP2013/064692; WO 2014/012842 A1; US 2019/190122 A1;
! US 62/072,671; and other domestic and international patents pending. Additional information about
! patents related to this product is available at https://ignion.io/files/Patent-list-NN.pdf, all
! rights reserved. Copyright, Ignion 2021.
!
! Need more help? Your platform is much different than these examples in the manual? Use our 
! Fast Track service (https://ignion.io/fast-track/), for free, and get a personalized antenna design in
! just 24 hours.
!
! 
! Touchstone port 1 = "Series Port"
!
! IE3D S-Parameters Output Version 2.0  
# GHZ S MA R 50
! Nport = 1
!

 6.5000000000e-001  9.8770892725e-001 -1.7426761787e+001
 6.6000000000e-001  9.8701077032e-001 -1.7780667220e+001
 6.7000000000e-001  9.8626348932e-001 -1.8139423503e+001
 6.8000000000e-001  9.8546323066e-001 -1.8503156554e+001
 6.9000000000e-001  9.8460584061e-001 -1.8871988842e+001
 7.0000000000e-001  9.8368684561e-001 -1.9246037944e+001
 7.1000000000e-001  9.8270143249e-001 -1.9625414862e+001
 7.2000000000e-001  9.8164442899e-001 -2.0010222035e+001
 7.3000000000e-001  9.8051028505e-001 -2.0400551023e+001
 7.4000000000e-001  9.7929305563e-001 -2.0796479813e+001
 7.5000000000e-001  9.7798638569e-001 -2.1198069699e+001
 7.6000000000e-001  9.7658349858e-001 -2.1605361689e+001
 7.7000000000e-001  9.7507718879e-001 -2.2018372388e+001
 7.8000000000e-001  9.7345982099e-001 -2.2437089298e+001
 7.9000000000e-001  9.7172333678e-001 -2.2861465504e+001
 8.0000000000e-001  9.6985927174e-001 -2.3291413686e+001
 8.1000000000e-001  9.6785878505e-001 -2.3726799438e+001
 8.2000000000e-001  9.6571270490e-001 -2.4167433875e+001
 8.3000000000e-001  9.6341159298e-001 -2.4613065545e+001
 8.4000000000e-001  9.6094583190e-001 -2.5063371679e+001
 8.5000000000e-001  9.5830573961e-001 -2.5517948891e+001
 8.6000000000e-001  9.5548171528e-001 -2.5976303462e+001
 8.7000000000e-001  9.5246442087e-001 -2.6437841463e+001
 8.8000000000e-001  9.4924500266e-001 -2.6901859016e+001
 8.9000000000e-001  9.4581535621e-001 -2.7367533173e+001
 9.0000000000e-001  9.4216843705e-001 -2.7833913952e+001
 9.1000000000e-001  9.3829861789e-001 -2.8299918286e+001
 9.2000000000e-001  9.3420209018e-001 -2.8764326740e+001
 9.3000000000e-001  9.2987730492e-001 -2.9225784035e+001
 9.4000000000e-001  9.2532544280e-001 -2.9682804537e+001
 9.5000000000e-001  9.2055089901e-001 -3.0133783930e+001
 9.6000000000e-001  9.1556176194e-001 -3.0577018337e+001
 9.7000000000e-001  9.1037025877e-001 -3.1010732000e+001
 9.8000000000e-001  9.0499313532e-001 -3.1433114418e+001
 9.9000000000e-001  8.9945193257e-001 -3.1842367376e+001
 1.0000000000e+000  8.9377311937e-001 -3.2236761677e+001
 1.0100000000e+000  8.8798804183e-001 -3.2614702578e+001
 1.0200000000e+000  8.8213265386e-001 -3.2974801904e+001
 1.0300000000e+000  8.7624700328e-001 -3.3315953775e+001
 1.0400000000e+000  8.7037446247e-001 -3.3637409808e+001
 1.0500000000e+000  8.6456071143e-001 -3.3938848829e+001
 1.0600000000e+000  8.5885250352e-001 -3.4220435605e+001
 1.0700000000e+000  8.5329626681e-001 -3.4482863165e+001
 1.0800000000e+000  8.4793661460e-001 -3.4727373903e+001
 1.0900000000e+000  8.4281485340e-001 -3.4955756026e+001
 1.1000000000e+000  8.3796758394e-001 -3.5170313738e+001
 1.1100000000e+000  8.3342548708e-001 -3.5373811884e+001
 1.1200000000e+000  8.2921237361e-001 -3.5569398056e+001
 1.1300000000e+000  8.2534455470e-001 -3.5760507300e+001
 1.1400000000e+000  8.2183056186e-001 -3.5950756055e+001
 1.1500000000e+000  8.1867121552e-001 -3.6143832734e+001
 1.1600000000e+000  8.1586001330e-001 -3.6343392234e+001
 1.1700000000e+000  8.1338378621e-001 -3.6552960797e+001
 1.1800000000e+000  8.1122355630e-001 -3.6775856158e+001
 1.1900000000e+000  8.0935552215e-001 -3.7015126074e+001
 1.2000000000e+000  8.0775210024e-001 -3.7273506490e+001
 1.2100000000e+000  8.0638295743e-001 -3.7553398892e+001
 1.2200000000e+000  8.0521598220e-001 -3.7856865050e+001
 1.2300000000e+000  8.0421815579e-001 -3.8185636463e+001
 1.2400000000e+000  8.0335629913e-001 -3.8541135345e+001
 1.2500000000e+000  8.0259768393e-001 -3.8924503891e+001
 1.2600000000e+000  8.0191050714e-001 -3.9336638788e+001
 1.2700000000e+000  8.0126423624e-001 -3.9778228298e+001
 1.2800000000e+000  8.0062983778e-001 -4.0249789760e+001
 1.2900000000e+000  7.9997990532e-001 -4.0751705881e+001
 1.3000000000e+000  7.9928870347e-001 -4.1284258644e+001
 1.3100000000e+000  7.9853214508e-001 -4.1847660141e+001
 1.3200000000e+000  7.9768771714e-001 -4.2442079936e+001
 1.3300000000e+000  7.9673436914e-001 -4.3067668887e+001
 1.3400000000e+000  7.9565237593e-001 -4.3724579505e+001
 1.3500000000e+000  7.9442318478e-001 -4.4412983091e+001
 1.3600000000e+000  7.9302925452e-001 -4.5133083959e+001
 1.3700000000e+000  7.9145389289e-001 -4.5885131101e+001
 1.3800000000e+000  7.8968109679e-001 -4.6669427627e+001
 1.3900000000e+000  7.8769539881e-001 -4.7486338360e+001
 1.4000000000e+000  7.8548172253e-001 -4.8336295883e+001
 1.4100000000e+000  7.8302524829e-001 -4.9219805344e+001
 1.4200000000e+000  7.8031129059e-001 -5.0137448274e+001
 1.4300000000e+000  7.7732518803e-001 -5.1089885649e+001
 1.4400000000e+000  7.7405220624e-001 -5.2077860388e+001
 1.4500000000e+000  7.7047745443e-001 -5.3102199462e+001
 1.4600000000e+000  7.6658581597e-001 -5.4163815758e+001
 1.4700000000e+000  7.6236189363e-001 -5.5263709827e+001
 1.4800000000e+000  7.5778997010e-001 -5.6402971631e+001
 1.4900000000e+000  7.5285398477e-001 -5.7582782409e+001
 1.5000000000e+000  7.4753752780e-001 -5.8804416744e+001
 1.5100000000e+000  7.4182385286e-001 -6.0069244967e+001
 1.5200000000e+000  7.3569591008e-001 -6.1378736011e+001
 1.5300000000e+000  7.2913640115e-001 -6.2734460836e+001
 1.5400000000e+000  7.2212785858e-001 -6.4138096614e+001
 1.5500000000e+000  7.1465275146e-001 -6.5591431851e+001
 1.5600000000e+000  7.0669362032e-001 -6.7096372693e+001
 1.5700000000e+000  6.9823324359e-001 -6.8654950716e+001
 1.5800000000e+000  6.8925483860e-001 -7.0269332553e+001
 1.5900000000e+000  6.7974229965e-001 -7.1941831823e+001
 1.6000000000e+000  6.6968047600e-001 -7.3674923914e+001
 1.6100000000e+000  6.5905549194e-001 -7.5471264295e+001
 1.6200000000e+000  6.4785511128e-001 -7.7333711194e+001
 1.6300000000e+000  6.3606914774e-001 -7.9265353652e+001
 1.6400000000e+000  6.2368992227e-001 -8.1269546164e+001
 1.6500000000e+000  6.1071276775e-001 -8.3349951384e+001
 1.6600000000e+000  5.9713658065e-001 -8.5510592601e+001
 1.6700000000e+000  5.8296441870e-001 -8.7755918056e+001
 1.6800000000e+000  5.6820414286e-001 -9.0090879463e+001
 1.6900000000e+000  5.5286910174e-001 -9.2521027453e+001
 1.7000000000e+000  5.3697885664e-001 -9.5052626997e+001
 1.7100000000e+000  5.2055994614e-001 -9.7692796075e+001
 1.7200000000e+000  5.0364669050e-001 -1.0044967098e+002
 1.7300000000e+000  4.8628203885e-001 -1.0333260135e+002
 1.7400000000e+000  4.6851846541e-001 -1.0635237705e+002
 1.7500000000e+000  4.5041892528e-001 -1.0952148732e+002
 1.7600000000e+000  4.3205788544e-001 -1.1285440828e+002
 1.7700000000e+000  4.1352245010e-001 -1.1636790873e+002
 1.7800000000e+000  3.9491360098e-001 -1.2008135188e+002
 1.7900000000e+000  3.7634756687e-001 -1.2401695216e+002
 1.8000000000e+000  3.5795731702e-001 -1.2819991608e+002
 1.8100000000e+000  3.3989412841e-001 -1.3265835128e+002
 1.8200000000e+000  3.2232909162e-001 -1.3742276535e+002
 1.8300000000e+000  3.0545427379e-001 -1.4252489668e+002
 1.8400000000e+000  2.8948302924e-001 -1.4799553973e+002
 1.8500000000e+000  2.7464863480e-001 -1.5386098793e+002
 1.8600000000e+000  2.6120007344e-001 -1.6013780518e+002
 1.8700000000e+000  2.4939354457e-001 -1.6682598416e+002
 1.8800000000e+000  2.3947844254e-001 -1.7390127835e+002
 1.8900000000e+000  2.3167752185e-001 1.7869143594e+002
 1.9000000000e+000  2.2616300333e-001 1.7104094277e+002
 1.9100000000e+000  2.2303305937e-001 1.6326580818e+002
 1.9200000000e+000  2.2229504925e-001 1.5550283295e+002
 1.9300000000e+000  2.2386127620e-001 1.4789006253e+002
 1.9400000000e+000  2.2755933897e-001 1.4054935411e+002
 1.9500000000e+000  2.3315409948e-001 1.3357374192e+002
 1.9600000000e+000  2.4037482686e-001 1.2702235873e+002
 1.9700000000e+000  2.4894087272e-001 1.2092235362e+002
 1.9800000000e+000  2.5858157070e-001 1.1527515459e+002
 1.9900000000e+000  2.6904900949e-001 1.1006416121e+002
 2.0000000000e+000  2.8012445337e-001 1.0526183184e+002
 2.0100000000e+000  2.9162010562e-001 1.0083522545e+002
 2.0200000000e+000  3.0337795332e-001 9.6749851183e+001
 2.0300000000e+000  3.1526706655e-001 9.2972079487e+001
 2.0400000000e+000  3.2718027820e-001 8.9470488036e+001
 2.0500000000e+000  3.3903079752e-001 8.6216489727e+001
 2.0600000000e+000  3.5074904809e-001 8.3184512637e+001
 2.0700000000e+000  3.6227985678e-001 8.0351921392e+001
 2.0800000000e+000  3.7358002636e-001 7.7698803823e+001
 2.0900000000e+000  3.8461627606e-001 7.5207699496e+001
 2.1000000000e+000  3.9536351282e-001 7.2863314813e+001
 2.1100000000e+000  4.0580338891e-001 7.0652249139e+001
 2.1200000000e+000  4.1592310271e-001 6.8562743895e+001
 2.1300000000e+000  4.2571440293e-001 6.6584459274e+001
 2.1400000000e+000  4.3517276243e-001 6.4708279133e+001
 2.1500000000e+000  4.4429669260e-001 6.2926142472e+001
 2.1600000000e+000  4.5308717423e-001 6.1230898921e+001
 2.1700000000e+000  4.6154718504e-001 5.9616185360e+001
 2.1800000000e+000  4.6968130735e-001 5.8076320791e+001
 2.1900000000e+000  4.7749540250e-001 5.6606216846e+001
 2.2000000000e+000  4.8499634076e-001 5.5201301551e+001
 2.2100000000e+000  4.9219177772e-001 5.3857454316e+001
 2.2200000000e+000  4.9908996929e-001 5.2570950369e+001
 2.2300000000e+000  5.0569961929e-001 5.1338413173e+001
 2.2400000000e+000  5.1202975416e-001 5.0156773539e+001
 2.2500000000e+000  5.1808962050e-001 4.9023234399e+001
 2.2600000000e+000  5.2388860174e-001 4.7935240347e+001
 2.2700000000e+000  5.2943615087e-001 4.6890451201e+001
 2.2800000000e+000  5.3474173661e-001 4.5886718983e+001
 2.2900000000e+000  5.3981480081e-001 4.4922067777e+001
 2.3000000000e+000  5.4466472533e-001 4.3994676054e+001
 2.3100000000e+000  5.4930080661e-001 4.3102861076e+001
 2.3200000000e+000  5.5373223687e-001 4.2245065085e+001
 2.3300000000e+000  5.5796809051e-001 4.1419843023e+001
 2.3400000000e+000  5.6201731493e-001 4.0625851545e+001
 2.3500000000e+000  5.6588872487e-001 3.9861839168e+001
 2.3600000000e+000  5.6959099950e-001 3.9126637375e+001
 2.3700000000e+000  5.7313268167e-001 3.8419152557e+001
 2.3800000000e+000  5.7652217880e-001 3.7738358675e+001
 2.3900000000e+000  5.7976776482e-001 3.7083290553e+001
 2.4000000000e+000  5.8287758295e-001 3.6453037707e+001
 2.4100000000e+000  5.8585964865e-001 3.5846738667e+001
 2.4200000000e+000  5.8872185278e-001 3.5263575712e+001
 2.4300000000e+000  5.9147196430e-001 3.4702769981e+001
 2.4400000000e+000  5.9411763259e-001 3.4163576930e+001
 2.4500000000e+000  5.9666638895e-001 3.3645282084e+001
 2.4600000000e+000  5.9912564718e-001 3.3147197080e+001
 2.4700000000e+000  6.0150270305e-001 3.2668655976e+001
 2.4800000000e+000  6.0380473258e-001 3.2209011798e+001
 2.4900000000e+000  6.0603878889e-001 3.1767633349e+001
 2.5000000000e+000  6.0821179770e-001 3.1343902242e+001
 2.5100000000e+000  6.1033055136e-001 3.0937210178e+001
 2.5200000000e+000  6.1240170133e-001 3.0546956462e+001
 2.5300000000e+000  6.1443174926e-001 3.0172545768e+001
 2.5400000000e+000  6.1642703661e-001 2.9813386149e+001
 2.5500000000e+000  6.1839373300e-001 2.9468887310e+001
 2.5600000000e+000  6.2033782323e-001 2.9138459148e+001
 2.5700000000e+000  6.2226509333e-001 2.8821510556e+001
 2.5800000000e+000  6.2418111572e-001 2.8517448521e+001
 2.5900000000e+000  6.2609123364e-001 2.8225677493e+001
 2.6000000000e+000  6.2800054521e-001 2.7945599047e+001
 2.6100000000e+000  6.2991388727e-001 2.7676611828e+001
 2.6200000000e+000  6.3183581941e-001 2.7418111784e+001
 2.6300000000e+000  6.3377060830e-001 2.7169492660e+001
 2.6400000000e+000  6.3572221276e-001 2.6930146772e+001
 2.6500000000e+000  6.3769426987e-001 2.6699466018e+001
 2.6600000000e+000  6.3969008230e-001 2.6476843118e+001
 2.6700000000e+000  6.4171260719e-001 2.6261673066e+001
 2.6800000000e+000  6.4376444690e-001 2.6053354747e+001
 2.6900000000e+000  6.4584784175e-001 2.5851292720e+001
 2.7000000000e+000  6.4796466494e-001 2.5654899099e+001
 2.7100000000e+000  6.5011641996e-001 2.5463595525e+001
 2.7200000000e+000  6.5230424035e-001 2.5276815184e+001
 2.7300000000e+000  6.5452889209e-001 2.5094004826e+001
 2.7400000000e+000  6.5679077858e-001 2.4914626773e+001
 2.7500000000e+000  6.5908994806e-001 2.4738160849e+001
 2.7600000000e+000  6.6142610360e-001 2.4564106235e+001
 2.7700000000e+000  6.6379861542e-001 2.4391983191e+001
 2.7800000000e+000  6.6620653538e-001 2.4221334639e+001
 2.7900000000e+000  6.6864861357e-001 2.4051727570e+001
 2.8000000000e+000  6.7112331661e-001 2.3882754266e+001
 2.8100000000e+000  6.7362884762e-001 2.3714033323e+001
 2.8200000000e+000  6.7616316741e-001 2.3545210461e+001
 2.8300000000e+000  6.7872401679e-001 2.3375959114e+001
 2.8400000000e+000  6.8130893964e-001 2.3205980816e+001
 2.8500000000e+000  6.8391530646e-001 2.3035005356e+001
 2.8600000000e+000  6.8654033818e-001 2.2862790746e+001
 2.8700000000e+000  6.8918112998e-001 2.2689122974e+001
 2.8800000000e+000  6.9183467487e-001 2.2513815588e+001
 2.8900000000e+000  6.9449788675e-001 2.2336709098e+001
 2.9000000000e+000  6.9716762285e-001 2.2157670240e+001
 2.9100000000e+000  6.9984070536e-001 2.1976591090e+001
 2.9200000000e+000  7.0251394201e-001 2.1793388071e+001
 2.9300000000e+000  7.0518414563e-001 2.1608000861e+001
 2.9400000000e+000  7.0784815239e-001 2.1420391218e+001
 2.9500000000e+000  7.1050283889e-001 2.1230541748e+001
 2.9600000000e+000  7.1314513782e-001 2.1038454627e+001
 2.9700000000e+000  7.1577205232e-001 2.0844150294e+001
 2.9800000000e+000  7.1838066894e-001 2.0647666135e+001
 2.9900000000e+000  7.2096816929e-001 2.0449055163e+001
 3.0000000000e+000  7.2353184033e-001 2.0248384714e+001
 3.0100000000e+000  7.2606908339e-001 2.0045735170e+001
 3.0200000000e+000  7.2857742194e-001 1.9841198702e+001
 3.0300000000e+000  7.3105450827e-001 1.9634878070e+001
 3.0400000000e+000  7.3349812896e-001 1.9426885455e+001
 3.0500000000e+000  7.3590620938e-001 1.9217341353e+001
 3.0600000000e+000  7.3827681733e-001 1.9006373512e+001
 3.0700000000e+000  7.4060816569e-001 1.8794115935e+001
 3.0800000000e+000  7.4289861436e-001 1.8580707936e+001
 3.0900000000e+000  7.4514667151e-001 1.8366293255e+001
 3.1000000000e+000  7.4735099423e-001 1.8151019228e+001
 3.1100000000e+000  7.4951038856e-001 1.7935036017e+001
 3.1200000000e+000  7.5162380915e-001 1.7718495883e+001
 3.1300000000e+000  7.5369035844e-001 1.7501552522e+001
 3.1400000000e+000  7.5570928553e-001 1.7284360439e+001
 3.1500000000e+000  7.5767998478e-001 1.7067074370e+001
 3.1600000000e+000  7.5960199412e-001 1.6849848740e+001
 3.1700000000e+000  7.6147499317e-001 1.6632837164e+001
 3.1800000000e+000  7.6329880124e-001 1.6416191969e+001
 3.1900000000e+000  7.6507337510e-001 1.6200063755e+001
 3.2000000000e+000  7.6679880675e-001 1.5984600976e+001
 3.2100000000e+000  7.6847532094e-001 1.5769949534e+001
 3.2200000000e+000  7.7010327269e-001 1.5556252402e+001
 3.2300000000e+000  7.7168314469e-001 1.5343649250e+001
 3.2400000000e+000  7.7321554452e-001 1.5132276084e+001
 3.2500000000e+000  7.7470120187e-001 1.4922264897e+001
 3.2600000000e+000  7.7614096549e-001 1.4713743312e+001
 3.2700000000e+000  7.7753580011e-001 1.4506834244e+001
 3.2800000000e+000  7.7888678302e-001 1.4301655548e+001
 3.2900000000e+000  7.8019510061e-001 1.4098319676e+001
 3.3000000000e+000  7.8146204450e-001 1.3896933332e+001
 3.3100000000e+000  7.8268900750e-001 1.3697597122e+001
 3.3200000000e+000  7.8387747922e-001 1.3500405210e+001
 3.3300000000e+000  7.8502904132e-001 1.3305444971e+001
 3.3400000000e+000  7.8614536239e-001 1.3112796646e+001
 3.3500000000e+000  7.8722819244e-001 1.2922533010e+001
 3.3600000000e+000  7.8827935694e-001 1.2734719035e+001
 3.3700000000e+000  7.8930075039e-001 1.2549411575e+001
 3.3800000000e+000  7.9029432945e-001 1.2366659062e+001
 3.3900000000e+000  7.9126210558e-001 1.2186501218e+001
 3.4000000000e+000  7.9220613722e-001 1.2008968800e+001
 3.4100000000e+000  7.9312852142e-001 1.1834083363e+001
 3.4200000000e+000  7.9403138517e-001 1.1661857064e+001
 3.4300000000e+000  7.9491687613e-001 1.1492292499e+001
 3.4400000000e+000  7.9578715314e-001 1.1325382591e+001
 3.4500000000e+000  7.9664437625e-001 1.1161110521e+001
 3.4600000000e+000  7.9749069660e-001 1.0999449714e+001
 3.4700000000e+000  7.9832824602e-001 1.0840363879e+001
 3.4800000000e+000  7.9915912650e-001 1.0683807118e+001
 3.4900000000e+000  7.9998539967e-001 1.0529724089e+001
 3.5000000000e+000  8.0080907630e-001 1.0378050244e+001
 3.5100000000e+000  8.0163210600e-001 1.0228712123e+001
 3.5200000000e+000  8.0245636708e-001 1.0081627729e+001
 3.5300000000e+000  8.0328365696e-001 9.9367069509e+000
 3.5400000000e+000  8.0411568282e-001 9.7938520714e+000
 3.5500000000e+000  8.0495405308e-001 9.6529583177e+000
 3.5600000000e+000  8.0580026934e-001 9.5139144795e+000
 3.5700000000e+000  8.0665571924e-001 9.3766035742e+000
 3.5800000000e+000  8.0752167012e-001 9.2409035585e+000
 3.5900000000e+000  8.0839926358e-001 9.1066880782e+000
 3.6000000000e+000  8.0928951112e-001 8.9738272477e+000
 3.6100000000e+000  8.1019329069e-001 8.8421884520e+000
 3.6200000000e+000  8.1111134447e-001 8.7116371618e+000
 3.6300000000e+000  8.1204427755e-001 8.5820377523e+000
 3.6400000000e+000  8.1299255788e-001 8.4532543177e+000
 3.6500000000e+000  8.1395651714e-001 8.3251514712e+000
 3.6600000000e+000  8.1493635275e-001 8.1975951234e+000
 3.6700000000e+000  8.1593213084e-001 8.0704532291e+000
 3.6800000000e+000  8.1694379015e-001 7.9435964971e+000
 3.6900000000e+000  8.1797114681e-001 7.8168990546e+000
 3.7000000000e+000  8.1901389993e-001 7.6902390615e+000
 3.7100000000e+000  8.2007163784e-001 7.5634992690e+000
 3.7200000000e+000  8.2114384497e-001 7.4365675192e+000
 3.7300000000e+000  8.2222990925e-001 7.3093371823e+000
 3.7400000000e+000  8.2332912990e-001 7.1817075310e+000
 3.7500000000e+000  8.2444072549e-001 7.0535840488e+000
 3.7600000000e+000  8.2556384229e-001 6.9248786754e+000
 3.7700000000e+000  8.2669756265e-001 6.7955099880e+000
 3.7800000000e+000  8.2784091347e-001 6.6654033217e+000
 3.7900000000e+000  8.2899287453e-001 6.5344908309e+000
 3.8000000000e+000  8.3015238674e-001 6.4027114958e+000
 3.8100000000e+000  8.3131836014e-001 6.2700110765e+000
 3.8200000000e+000  8.3248968165e-001 6.1363420201e+000
 3.8300000000e+000  8.3366522246e-001 6.0016633249e+000
 3.8400000000e+000  8.3484384506e-001 5.8659403651e+000
 3.8500000000e+000  8.3602440987e-001 5.7291446834e+000
 3.8600000000e+000  8.3720578142e-001 5.5912537525e+000
 3.8700000000e+000  8.3838683406e-001 5.4522507142e+000
 3.8800000000e+000  8.3956645718e-001 5.3121240968e+000
 3.8900000000e+000  8.4074356005e-001 5.1708675180e+000
 3.9000000000e+000  8.4191707604e-001 5.0284793756e+000
 3.9100000000e+000  8.4308596646e-001 4.8849625303e+000
