! IGNION VIRTUAL ANTENNA LIBRARY
!
! NN_RUN_B90x70_C70x11
! Virtual Antenna™ RUN mXTEND™: NN02-224 12.0 mm x 3.0 mm x 2.4 mm
! https://ignion.io/product/run-mxtend/
! Board: 90 mm x 70 mm
! Clearance Area: 70 mm x 11 mm
! Feeding line: L-shape; 11mm x 2mm and 5mm x 2mm
! Applications: Fleet management, IoT
! Frequency range 0.65GHz to 6GHz, step 10MHz
! Number of ports 9
!
! This product and its use is protected by at least one or more of the following patents and patent
! applications US 8,203,492 B2; US 8,237,615 B2; PCT/EP2013/064692; WO 2014/012842 A1; US 2019/190122 A1;
! US 62/072,671; and other domestic and international patents pending. Additional information about
! patents related to this product is available at https://ignion.io/files/Patent-list-NN.pdf, all
! rights reserved. Copyright, Ignion 2021.
!
! Need more help? Your platform is much different than these examples in the manual? Use our 
! Fast Track service (https://ignion.io/fast-track/), for free, and get a personalized antenna design in
! just 24 hours.
!
!
! Touchstone port 1 = "Series Port"
! Touchstone port 2 = "Shunt Port"
! Touchstone port 3 = "Series Port"
! Touchstone port 4 = "Shunt Port"
! Touchstone port 5 = "Series Port"
! Touchstone port 6 = "Shunt Port"
! Touchstone port 7 = "Series Port"
! Touchstone port 8 = "Shunt Port"
! Touchstone port 9 = "Series Port"
!
! IE3D S-Parameters Output Version 2.0  
# GHZ S MA R 50
! Nport = 9
!

 6.5000000000e-001  2.4994214596e-001 1.5230730157e+002  7.6187992269e-001 -5.4244927828e+000  4.6696829561e-001 1.7217982480e+002  2.9319959742e-001 -8.1092921788e+000
          1.7450864759e-001 1.7203798500e+002  1.1844411875e-001 -9.6074264042e+000  5.6674250016e-002 1.7551367856e+002  6.2038487554e-002 -1.2784544491e+001
          1.0225767131e-002 -6.9301370980e+001
          7.6187992269e-001 -5.4244927828e+000  2.4198524806e-001 1.6127212255e+002  4.7042488853e-001 1.7695124514e+002  2.9427359221e-001 -2.3182868677e+000
          1.7636880529e-001 1.7510715910e+002  1.1722408786e-001 -5.6360445881e+000  5.9241458579e-002 1.7660488140e+002  5.8047665368e-002 -1.0088702000e+001
          7.2763125115e-003 -1.0638157961e+002
          4.6696829561e-001 1.7217982480e+002  4.7042488853e-001 1.7695124514e+002  9.7623144290e-002 4.6065929559e+001  5.8645140768e-001 -5.0915370580e+000
          3.5032038044e-001 1.7389190117e+002  2.3536529325e-001 -7.8043256107e+000  1.1584977507e-001 1.7640245586e+002  1.1994379677e-001 -1.2142951411e+001
          1.7957282427e-002 -8.6163764918e+001
          2.9319959742e-001 -8.1092921788e+000  2.9427359221e-001 -2.3182868677e+000  5.8645140768e-001 -5.0915370580e+000  1.2728890359e-001 1.5395220479e+002
          5.2970268161e-001 1.7732909750e+002  3.5115986821e-001 -3.1551925944e+000  1.7859994218e-001 1.7768143797e+002  1.7274023808e-001 -9.5650239474e+000
          2.3293170438e-002 -1.1053688705e+002
          1.7450864759e-001 1.7203798500e+002  1.7636880529e-001 1.7510715910e+002  3.5032038044e-001 1.7389190117e+002  5.2970268161e-001 1.7732909750e+002
          1.2952830615e-001 1.9224939255e+001  5.8583696766e-001 -4.8648740415e+000  2.9437564945e-001 1.7772585741e+002  2.9240578734e-001 -1.0863047866e+001
          4.2400637129e-002 -1.0007598242e+002
          1.1844411875e-001 -9.6074264042e+000  1.1722408786e-001 -5.6360445881e+000  2.3536529325e-001 -7.8043256107e+000  3.5115986821e-001 -3.1551925944e+000
          5.8583696766e-001 -4.8648740415e+000  6.7840321253e-002 1.5541934109e+002  4.7711509616e-001 -1.7988575543e+002  4.6016004025e-001 -7.7057673951e+000
          6.4894148952e-002 -1.0899024881e+002
          5.6674250016e-002 1.7551367856e+002  5.9241458579e-002 1.7660488140e+002  1.1584977507e-001 1.7640245586e+002  1.7859994218e-001 1.7768143797e+002
          2.9437564945e-001 1.7772585741e+002  4.7711509616e-001 -1.7988575543e+002  2.2847372287e-001 -2.3073624735e+000  7.5182440678e-001 -8.8884088729e+000
          1.1113719547e-001 -1.0517710985e+002
          6.2038487554e-002 -1.2784544491e+001  5.8047665368e-002 -1.0088702000e+001  1.1994379677e-001 -1.2142951411e+001  1.7274023808e-001 -9.5650239474e+000
          2.9240578734e-001 -1.0863047866e+001  4.6016004025e-001 -7.7057673951e+000  7.5182440678e-001 -8.8884088729e+000  2.1491027647e-001 -1.9149940872e+001
          1.7563928680e-001 -1.0765783631e+002
          1.0225767131e-002 -6.9301370980e+001  7.2763125115e-003 -1.0638157961e+002  1.7957282427e-002 -8.6163764918e+001  2.3293170438e-002 -1.1053688705e+002
          4.2400637129e-002 -1.0007598242e+002  6.4894148952e-002 -1.0899024881e+002  1.1113719547e-001 -1.0517710985e+002  1.7563928680e-001 -1.0765783631e+002
          9.6321437039e-001 -1.7757831021e+001
 6.6000000000e-001  2.5039260361e-001 1.5190870928e+002  7.6180687951e-001 -5.5079052493e+000  4.6685926956e-001 1.7206011453e+002  2.9317471722e-001 -8.2358452855e+000
          1.7444779202e-001 1.7191990800e+002  1.1846873695e-001 -9.7678643481e+000  5.6611297163e-002 1.7548867600e+002  6.2139412854e-002 -1.3037628552e+001
          1.0511530907e-002 -6.9365575271e+001
          7.6180687951e-001 -5.5079052493e+000  2.4220569394e-001 1.6099427061e+002  4.7042572782e-001 1.7690464735e+002  2.9427923575e-001 -2.3547874182e+000
          1.7637028252e-001 1.7503389561e+002  1.1720635332e-001 -5.7263306921e+000  5.9263706399e-002 1.7656418190e+002  5.8011219729e-002 -1.0265248056e+001
          7.4264532602e-003 -1.0675413101e+002
          4.6685926956e-001 1.7206011453e+002  4.7042572782e-001 1.7690464735e+002  9.8568100323e-002 4.6378269083e+001  5.8640104219e-001 -5.1708711988e+000
          3.5024338900e-001 1.7380109185e+002  2.3536395004e-001 -7.9319859565e+000  1.1580526859e-001 1.7637241075e+002  1.2000716856e-001 -1.2366104274e+001
          1.8364504134e-002 -8.6255246414e+001
          2.9317471722e-001 -8.2358452855e+000  2.9427923575e-001 -2.3547874182e+000  5.8640104219e-001 -5.1708711988e+000  1.2758992995e-001 1.5359278622e+002
          5.2972730215e-001 1.7728951317e+002  3.5109110796e-001 -3.2056220562e+000  1.7869432863e-001 1.7765292595e+002  1.7258734147e-001 -9.7281728810e+000
          2.3753596444e-002 -1.1095584077e+002
          1.7444779202e-001 1.7191990800e+002  1.7637028252e-001 1.7503389561e+002  3.5024338900e-001 1.7380109185e+002  5.2972730215e-001 1.7728951317e+002
          1.2985034805e-001 1.9463411969e+001  5.8574633103e-001 -4.9436384625e+000  2.9442118677e-001 1.7770402743e+002  2.9231106925e-001 -1.1053262778e+001
          4.3237110572e-002 -1.0032388193e+002
          1.1846873695e-001 -9.7678643481e+000  1.1720635332e-001 -5.7263306921e+000  2.3536395004e-001 -7.9319859565e+000  3.5109110796e-001 -3.2056220562e+000
          5.8574633103e-001 -4.9436384625e+000  6.8142989980e-002 1.5515437381e+002  4.7739142969e-001 -1.7987832112e+002  4.5974204743e-001 -7.8388383841e+000
          6.6149559730e-002 -1.0937804669e+002
          5.6611297163e-002 1.7548867600e+002  5.9263706399e-002 1.7656418190e+002  1.1580526859e-001 1.7637241075e+002  1.7869432863e-001 1.7765292595e+002
          2.9442118677e-001 1.7770402743e+002  4.7739142969e-001 -1.7987832112e+002  2.2815944783e-001 -2.3726141415e+000  7.5129210739e-001 -9.0424494616e+000
          1.1325239218e-001 -1.0549946366e+002
          6.2139412854e-002 -1.3037628552e+001  5.8011219729e-002 -1.0265248056e+001  1.2000716856e-001 -1.2366104274e+001  1.7258734147e-001 -9.7281728810e+000
          2.9231106925e-001 -1.1053262778e+001  4.5974204743e-001 -7.8388383841e+000  7.5129210739e-001 -9.0424494616e+000  2.1410284384e-001 -1.9576718502e+001
          1.7899035027e-001 -1.0802136463e+002
          1.0511530907e-002 -6.9365575271e+001  7.4264532602e-003 -1.0675413101e+002  1.8364504134e-002 -8.6255246414e+001  2.3753596444e-002 -1.1095584077e+002
          4.3237110572e-002 -1.0032388193e+002  6.6149559730e-002 -1.0937804669e+002  1.1325239218e-001 -1.0549946366e+002  1.7899035027e-001 -1.0802136463e+002
          9.6165156448e-001 -1.8100459798e+001
 6.7000000000e-001  2.5084863242e-001 1.5151124828e+002  7.6173271391e-001 -5.5913199918e+000  4.6674842875e-001 1.7194044978e+002  2.9314931847e-001 -8.3625079354e+000
          1.7438601028e-001 1.7180212015e+002  1.1849343495e-001 -9.9290492831e+000  5.6547990164e-002 1.7546634125e+002  6.2241506307e-002 -1.3293985743e+001
          1.0803362050e-002 -6.9444506531e+001
          7.6173271391e-001 -5.5913199918e+000  2.4242927209e-001 1.6071686550e+002  4.7042668158e-001 1.7685806868e+002  2.9428476029e-001 -2.3913176982e+000
          1.7637205059e-001 1.7496072622e+002  1.1718787138e-001 -5.8167469763e+000  5.9287036544e-002 1.7652390814e+002  5.7973113657e-002 -1.0442727425e+001
          7.5784731781e-003 -1.0713484808e+002
          4.6674842875e-001 1.7194044978e+002  4.7042668158e-001 1.7685806868e+002  9.9517596652e-002 4.6682380554e+001  5.8634960380e-001 -5.2502604085e+000
          3.5016545959e-001 1.7371046796e+002  2.3536190583e-001 -8.0600612191e+000  1.1576124757e-001 1.7634374830e+002  1.2007030055e-001 -1.2591281178e+001
          1.8778317385e-002 -8.6355739289e+001
          2.9314931847e-001 -8.3625079354e+000  2.9428476029e-001 -2.3913176982e+000  5.8634960380e-001 -5.2502604085e+000  1.2789519641e-001 1.5323503417e+002
          5.2975313652e-001 1.7724998855e+002  3.5101994045e-001 -3.2560785003e+000  1.7879227686e-001 1.7762457899e+002  1.7242886715e-001 -9.8919155273e+000
          2.4218968075e-002 -1.1138195903e+002
          1.7438601028e-001 1.7180212015e+002  1.7637205059e-001 1.7496072622e+002  3.5016545959e-001 1.7371046796e+002  5.2975313652e-001 1.7724998855e+002
          1.3017469572e-001 1.9699803567e+001  5.8565234841e-001 -5.0225730792e+000  2.9447050813e-001 1.7768277017e+002  2.9221073337e-001 -1.1244606575e+001
          4.4082597997e-002 -1.0057831618e+002
          1.1849343495e-001 -9.9290492831e+000  1.1718787138e-001 -5.8167469763e+000  2.3536190583e-001 -8.0600612191e+000  3.5101994045e-001 -3.2560785003e+000
          5.8565234841e-001 -5.0225730792e+000  6.8452237807e-002 1.5489370109e+002  4.7767738774e-001 -1.7987079979e+002  4.5930936405e-001 -7.9724214923e+000
          6.7417263434e-002 -1.0977254524e+002
          5.6547990164e-002 1.7546634125e+002  5.9287036544e-002 1.7652390814e+002  1.1576124757e-001 1.7634374830e+002  1.7879227686e-001 1.7762457899e+002
          2.9447050813e-001 1.7768277017e+002  4.7767738774e-001 -1.7987079979e+002  2.2783239588e-001 -2.4389851338e+000  7.5073949079e-001 -9.1972138069e+000
          1.1538682420e-001 -1.0582810043e+002
          6.2241506307e-002 -1.3293985743e+001  5.7973113657e-002 -1.0442727425e+001  1.2007030055e-001 -1.2591281178e+001  1.7242886715e-001 -9.8919155273e+000
          2.9221073337e-001 -1.1244606575e+001  4.5930936405e-001 -7.9724214923e+000  7.5073949079e-001 -9.1972138069e+000  2.1326806067e-001 -2.0010732589e+001
          1.8237213487e-001 -1.0839135090e+002
          1.0803362050e-002 -6.9444506531e+001  7.5784731781e-003 -1.0713484808e+002  1.8778317385e-002 -8.6355739289e+001  2.4218968075e-002 -1.1138195903e+002
          4.4082597997e-002 -1.0057831618e+002  6.7417263434e-002 -1.0977254524e+002  1.1538682420e-001 -1.0582810043e+002  1.8237213487e-001 -1.0839135090e+002
          9.6002534480e-001 -1.8446591704e+001
 6.8000000000e-001  2.5131017628e-001 1.5111492824e+002  7.6165742076e-001 -5.6747373599e+000  4.6663576905e-001 1.7182083309e+002  2.9312338333e-001 -8.4892837675e+000
          1.7432331573e-001 1.7168463338e+002  1.1851817318e-001 -1.0091005195e+001  5.6484404416e-002 1.7544676318e+002  6.2344697727e-002 -1.3553719442e+001
          1.1101354983e-002 -6.9538325470e+001
          7.6165742076e-001 -5.6747373599e+000  2.4265597526e-001 1.6043991220e+002  4.7042775906e-001 1.7681150967e+002  2.9429015275e-001 -2.4278768447e+000
          1.7637412933e-001 1.7488765126e+002  1.1716861041e-001 -5.9072890186e+000  5.9311498791e-002 1.7648404688e+002  5.7933269670e-002 -1.0621134807e+001
          7.7323953587e-003 -1.0752400600e+002
          4.6663576905e-001 1.7182083309e+002  4.7042775906e-001 1.7681150967e+002  1.0047145386e-001 4.6978455540e+001  5.8629706456e-001 -5.3297058800e+000
          3.5008662146e-001 1.7362003529e+002  2.3535909702e-001 -8.1885612596e+000  1.1571781914e-001 1.7631650046e+002  1.2013306581e-001 -1.2818536392e+001
          1.9198838192e-002 -8.6465503178e+001
          2.9312338333e-001 -8.4892837675e+000  2.9429015275e-001 -2.4278768447e+000  5.8629706456e-001 -5.3297058800e+000  1.2820470675e-001 1.5287895673e+002
          5.2978024100e-001 1.7721052245e+002  3.5094628396e-001 -3.3065539046e+000  1.7889391771e-001 1.7759637585e+002  1.7226460269e-001 -1.0056233269e+001
          2.4689337432e-002 -1.1181548746e+002
          1.7432331573e-001 1.7168463338e+002  1.7637412933e-001 1.7488765126e+002  3.5008662146e-001 1.7362003529e+002  5.2978024100e-001 1.7721052245e+002
          1.3050121861e-001 1.9934126973e+001  5.8555488129e-001 -5.1016769667e+000  2.9452383217e-001 1.7766208308e+002  2.9210446250e-001 -1.1437091633e+001
          4.4937212193e-002 -1.0083951086e+002
          1.1851817318e-001 -1.0091005195e+001  1.1716861041e-001 -5.9072890186e+000  2.3535909702e-001 -8.1885612596e+000  3.5094628396e-001 -3.3065539046e+000
          5.8555488129e-001 -5.1016769667e+000  6.8768256616e-002 1.5463729650e+002  4.7797329555e-001 -1.7986321406e+002  4.5886145462e-001 -8.1064963365e+000
          6.8697371839e-002 -1.1017397317e+002
          5.6484404416e-002 1.7544676318e+002  5.9311498791e-002 1.7648404688e+002  1.1571781914e-001 1.7631650046e+002  1.7889391771e-001 1.7759637585e+002
          2.9452383217e-001 1.7766208308e+002  4.7797329555e-001 -1.7986321406e+002  2.2749205110e-001 -2.5064442220e+000  7.5016572929e-001 -9.3526940284e+000
          1.1754065085e-001 -1.0616323463e+002
          6.2344697727e-002 -1.3553719442e+001  5.7933269670e-002 -1.0621134807e+001  1.2013306581e-001 -1.2818536392e+001  1.7226460269e-001 -1.0056233269e+001
          2.9210446250e-001 -1.1437091633e+001  4.5886145462e-001 -8.1064963365e+000  7.5016572929e-001 -9.3526940284e+000  2.1240487219e-001 -2.0452163830e+001
          1.8578488247e-001 -1.0876801458e+002
          1.1101354983e-002 -6.9538325470e+001  7.7323953587e-003 -1.0752400600e+002  1.9198838192e-002 -8.6465503178e+001  2.4689337432e-002 -1.1181548746e+002
          4.4937212193e-002 -1.0083951086e+002  6.8697371839e-002 -1.1017397317e+002  1.1754065085e-001 -1.0616323463e+002  1.8578488247e-001 -1.0876801458e+002
          9.5833280995e-001 -1.8796279983e+001
 6.9000000000e-001  2.5177717848e-001 1.5071975869e+002  7.6158099438e-001 -5.7581577100e+000  4.6652128685e-001 1.7170126712e+002  2.9309689242e-001 -8.6161764494e+000
          1.7425972367e-001 1.7156745998e+002  1.1854290852e-001 -1.0253756354e+001  5.6420621828e-002 1.7543003148e+002  6.2448909513e-002 -1.3816934642e+001
          1.1405600622e-002 -6.9647199580e+001
          7.6158099438e-001 -5.7581577100e+000  2.4288579631e-001 1.6016341560e+002  4.7042897019e-001 1.7676497085e+002  2.9429539973e-001 -2.4644638407e+000
          1.7637653947e-001 1.7481467079e+002  1.1714853776e-001 -5.9979515426e+000  5.9337144587e-002 1.7644458229e+002  5.7891607242e-002 -1.0800461477e+001
          7.8882401365e-003 -1.0792188548e+002
          4.6652128685e-001 1.7170126712e+002  4.7042897019e-001 1.7676497085e+002  1.0142949612e-001 4.7266681881e+001  5.8624339478e-001 -5.4092087532e+000
          3.5000690638e-001 1.7352979970e+002  2.3535545581e-001 -8.3174957500e+000  1.1567509740e-001 1.7629069833e+002  1.2019532797e-001 -1.3047924119e+001
          1.9626177892e-002 -8.6584803437e+001
          2.9309689242e-001 -8.6161764494e+000  2.9429539973e-001 -2.4644638407e+000  5.8624339478e-001 -5.4092087532e+000  1.2851846628e-001 1.5252456097e+002
          5.2980867391e-001 1.7717111340e+002  3.5087005510e-001 -3.3570393283e+000  1.7899938526e-001 1.7756829262e+002  1.7209432892e-001 -1.0221103675e+001
          2.5164748522e-002 -1.1225667683e+002
          1.7425972367e-001 1.7156745998e+002  1.7637653947e-001 1.7481467079e+002  3.5000690638e-001 1.7352979970e+002  5.2980867391e-001 1.7717111340e+002
          1.3082978398e-001 2.0166397813e+001  5.8545378565e-001 -5.1809486074e+000  2.9458138632e-001 1.7764196172e+002  2.9199192433e-001 -1.1630728374e+001
          4.5801053637e-002 -1.0110769679e+002
          1.1854290852e-001 -1.0253756354e+001  1.1714853776e-001 -5.9979515426e+000  2.3535545581e-001 -8.3174957500e+000  3.5087005510e-001 -3.3570393283e+000
          5.8545378565e-001 -5.1809486074e+000  6.9091248799e-002 1.5438512506e+002  4.7827948545e-001 -1.7985558911e+002  4.5839776753e-001 -8.2410388096e+000
          6.9989975052e-002 -1.1058256394e+002
          5.6420621828e-002 1.7543003148e+002  5.9337144587e-002 1.7644458229e+002  1.1567509740e-001 1.7629069833e+002  1.7899938526e-001 1.7756829262e+002
          2.9458138632e-001 1.7764196172e+002  4.7827948545e-001 -1.7985558911e+002  2.2713788141e-001 -2.5749534695e+000  7.4956996548e-001 -9.5088792927e+000
          1.1971399635e-001 -1.0650508523e+002
          6.2448909513e-002 -1.3816934642e+001  5.7891607242e-002 -1.0800461477e+001  1.2019532797e-001 -1.3047924119e+001  1.7209432892e-001 -1.0221103675e+001
          2.9199192433e-001 -1.1630728374e+001  4.5839776753e-001 -8.2410388096e+000  7.4956996548e-001 -9.5088792927e+000  2.1151217963e-001 -2.0901191809e+001
          1.8922877720e-001 -1.0915157957e+002
          1.1405600622e-002 -6.9647199580e+001  7.8882401365e-003 -1.0792188548e+002  1.9626177892e-002 -8.6584803437e+001  2.5164748522e-002 -1.1225667683e+002
          4.5801053637e-002 -1.0110769679e+002  6.9989975052e-002 -1.1058256394e+002  1.1971399635e-001 -1.0650508523e+002  1.8922877720e-001 -1.0915157957e+002
          9.5657092899e-001 -1.9149573530e+001
 7.0000000000e-001  2.5224958175e-001 1.5032574909e+002  7.6150342851e-001 -5.8415814039e+000  4.6640497920e-001 1.7158175467e+002  2.9306982476e-001 -8.7431896631e+000
          1.7419525151e-001 1.7145061259e+002  1.1856759402e-001 -1.0417327241e+001  5.6356731245e-002 1.7541623639e+002  6.2554056091e-002 -1.4083737714e+001
          1.1716185677e-002 -6.9771302893e+001
          7.6150342851e-001 -5.8415814039e+000  2.4311872824e-001 1.5988738046e+002  4.7043032553e-001 1.7671845273e+002  2.9430048749e-001 -2.5010775030e+000
          1.7637930265e-001 1.7474178459e+002  1.1712761979e-001 -6.0887283404e+000  5.9364026999e-002 1.7640549569e+002  5.7848042819e-002 -1.0980694904e+001
          8.0460247080e-003 -1.0832877237e+002
          4.6640497920e-001 1.7158175467e+002  4.7043032553e-001 1.7671845273e+002  1.0239155106e-001 4.7547243729e+001  5.8618856298e-001 -5.4887701030e+000
          3.4992634879e-001 1.7343976707e+002  2.3535091004e-001 -8.4468741086e+000  1.1563320367e-001 1.7626637196e+002  1.2025694062e-001 -1.3279498270e+001
          2.0060442258e-002 -8.6713910878e+001
          2.9306982476e-001 -8.7431896631e+000  2.9430048749e-001 -2.5010775030e+000  5.8618856298e-001 -5.4887701030e+000  1.2883648182e-001 1.5217185297e+002
          5.2983849557e-001 1.7713175960e+002  3.5079116894e-001 -3.4075248424e+000  1.7910881652e-001 1.7754030262e+002  1.7191782012e-001 -1.0386500139e+001
          2.5645236209e-002 -1.1270578266e+002
          1.7419525151e-001 1.7145061259e+002  1.7637930265e-001 1.7474178459e+002  3.4992634879e-001 1.7343976707e+002  5.2983849557e-001 1.7713175960e+002
          1.3116025706e-001 2.0396634555e+001  5.8534891200e-001 -5.2603858271e+000  2.9464340684e-001 1.7762239957e+002  2.9187277111e-001 -1.1825525001e+001
          4.6674208797e-002 -1.0138310960e+002
