! IGNION VIRTUAL ANTENNA LIBRARY
!
! NN_RUN_B105x45_C45x11
! Virtual Antenna™ RUN mXTEND™: NN02-224 12.0 mm x 3.0 mm x 2.4 mm
! https://ignion.io/product/run-mxtend/
! Board: 105 mm x 45 mm
! Clearance Area: 45 mm x 11 mm
! Feeding line: L-shape; 11mm x 2mm and 5mm x 2mm
! Applications: Fleet management, IoT
! Frequency range 0.65GHz to 6GHz, step 10MHz
! Number of ports 9
!
! This product and its use is protected by at least one or more of the following patents and patent
! applications US 8,203,492 B2; US 8,237,615 B2; PCT/EP2013/064692; WO 2014/012842 A1; US 2019/190122 A1;
! US 62/072,671; and other domestic and international patents pending. Additional information about
! patents related to this product is available at https://ignion.io/files/Patent-list-NN.pdf, all
! rights reserved. Copyright, Ignion 2021.
!
! Need more help? Your platform is much different than these examples in the manual? Use our 
! Fast Track service (https://ignion.io/fast-track/), for free, and get a personalized antenna design in
! just 24 hours.
!
! 
! Touchstone port 1 = "Series Port"
! Touchstone port 2 = "Shunt Port"
! Touchstone port 3 = "Series Port"
! Touchstone port 4 = "Shunt Port"
! Touchstone port 5 = "Series Port"
! Touchstone port 6 = "Shunt Port"
! Touchstone port 7 = "Series Port"
! Touchstone port 8 = "Shunt Port"
! Touchstone port 9 = "Series Port"
!
! IE3D S-Parameters Output Version 2.0  
# GHZ S MA R 50
! Nport = 9
!

 6.5000000000e-001  2.5011110794e-001 1.5216307899e+002  7.6184274236e-001 -5.4560107210e+000  4.6692442846e-001 1.7215568476e+002  2.9320020491e-001 -8.1340530549e+000
          1.7446896677e-001 1.7201603693e+002  1.1847742888e-001 -9.6339017968e+000  5.6607416506e-002 1.7550807558e+002  6.2135389249e-002 -1.2820244923e+001
          1.0335615111e-002 -6.8654275735e+001
          7.6184274236e-001 -5.4560107210e+000  2.4204226538e-001 1.6119344914e+002  4.7044650263e-001 1.7696525644e+002  2.9428312963e-001 -2.2999314241e+000
          1.7637971819e-001 1.7511547916e+002  1.1721356958e-001 -5.6106955449e+000  5.9259761285e-002 1.7658163864e+002  5.8008729382e-002 -1.0024989004e+001
          7.2014548524e-003 -1.0690848167e+002
          4.6692442846e-001 1.7215568476e+002  4.7044650263e-001 1.7696525644e+002  9.7718920109e-002 4.6083659899e+001  5.8644990495e-001 -5.0964986849e+000
          3.5028897608e-001 1.7388489171e+002  2.3538640040e-001 -7.8092805529e+000  1.1580052694e-001 1.7639371924e+002  1.2000621256e-001 -1.2144485206e+001
          1.7971126712e-002 -8.5824999441e+001
          2.9320020491e-001 -8.1340530549e+000  2.9428312963e-001 -2.2999314241e+000  5.8644990495e-001 -5.0964986849e+000  1.2731559925e-001 1.5392950602e+002
          5.2970921458e-001 1.7732906927e+002  3.5114080075e-001 -3.1435760382e+000  1.7862248575e-001 1.7766030996e+002  1.7267458922e-001 -9.5214779904e+000
          2.3131376771e-002 -1.1084878978e+002
          1.7446896677e-001 1.7201603693e+002  1.7637971819e-001 1.7511547916e+002  3.5028897608e-001 1.7388489171e+002  5.2970921458e-001 1.7732906927e+002
          1.2956610682e-001 1.9235747380e+001  5.8583865433e-001 -4.8611255563e+000  2.9434780062e-001 1.7771255498e+002  2.9240819428e-001 -1.0843315445e+001
          4.2241494708e-002 -1.0004554205e+002
          1.1847742888e-001 -9.6339017968e+000  1.1721356958e-001 -5.6106955449e+000  2.3538640040e-001 -7.8092805529e+000  3.5114080075e-001 -3.1435760382e+000
          5.8583865433e-001 -4.8611255563e+000  6.7920943744e-002 1.5533005070e+002  4.7713680053e-001 -1.7990433002e+002  4.6005216308e-001 -7.6712092246e+000
          6.4527339737e-002 -1.0918641322e+002
          5.6607416506e-002 1.7550807558e+002  5.9259761285e-002 1.7658163864e+002  1.1580052694e-001 1.7639371924e+002  1.7862248575e-001 1.7766030996e+002
          2.9434780062e-001 1.7771255498e+002  4.7713680053e-001 -1.7990433002e+002  2.2847428433e-001 -2.2561397298e+000  7.5172633832e-001 -8.8620804633e+000
          1.1063191198e-001 -1.0526647169e+002
          6.2135389249e-002 -1.2820244923e+001  5.8008729382e-002 -1.0024989004e+001  1.2000621256e-001 -1.2144485206e+001  1.7267458922e-001 -9.5214779904e+000
          2.9240819428e-001 -1.0843315445e+001  4.6005216308e-001 -7.6712092246e+000  7.5172633832e-001 -8.8620804633e+000  2.1453592717e-001 -1.8986994820e+001
          1.7474307676e-001 -1.0781779847e+002
          1.0335615111e-002 -6.8654275735e+001  7.2014548524e-003 -1.0690848167e+002  1.7971126712e-002 -8.5824999441e+001  2.3131376771e-002 -1.1084878978e+002
          4.2241494708e-002 -1.0004554205e+002  6.4527339737e-002 -1.0918641322e+002  1.1063191198e-001 -1.0526647169e+002  1.7474307676e-001 -1.0781779847e+002
          9.6254544220e-001 -1.7676153776e+001
 6.6000000000e-001  2.5056570992e-001 1.5176271391e+002  7.6176858779e-001 -5.5399310259e+000  4.6681345505e-001 1.7203567392e+002  2.9317527791e-001 -8.2611933295e+000
          1.7440645607e-001 1.7189810216e+002  1.1850305373e-001 -9.7960044663e+000  5.6542434792e-002 1.7548715569e+002  6.2239716911e-002 -1.3079620297e+001
          1.0633358307e-002 -6.8743405613e+001
          7.6176858779e-001 -5.5399310259e+000  2.4226463665e-001 1.6091450911e+002  4.7044815271e-001 1.7691890260e+002  2.9428863918e-001 -2.3361290456e+000
          1.7638203223e-001 1.7504238582e+002  1.1719450382e-001 -5.7004734921e+000  5.9283989313e-002 1.7654038648e+002  5.7968536370e-002 -1.0200268869e+001
          7.3510219829e-003 -1.0731763859e+002
          4.6681345505e-001 1.7203567392e+002  4.7044815271e-001 1.7691890260e+002  9.8665506074e-002 4.6394981124e+001  5.8639908768e-001 -5.1759935342e+000
          3.5021102973e-001 1.7379421453e+002  2.3538491227e-001 -7.9375619919e+000  1.1575556605e-001 1.7636529341e+002  1.2007003944e-001 -1.2370340046e+001
          1.8387125981e-002 -8.5928034685e+001
          2.9317527791e-001 -8.2611933295e+000  2.9428863918e-001 -2.3361290456e+000  5.8639908768e-001 -5.1759935342e+000  1.2761848878e-001 1.5356991184e+002
          5.2973535074e-001 1.7728952720e+002  3.5106896979e-001 -3.1937130926e+000  1.7872115250e-001 1.7763134727e+002  1.7251333108e-001 -9.6837173505e+000
          2.3591597912e-002 -1.1129507543e+002
          1.7440645607e-001 1.7189810216e+002  1.7638203223e-001 1.7504238582e+002  3.5021102973e-001 1.7379421453e+002  5.2973535074e-001 1.7728952720e+002
          1.2988739818e-001 1.9473732824e+001  5.8574504424e-001 -4.9399689747e+000  2.9439668096e-001 1.7769104808e+002  2.9230648490e-001 -1.1034100904e+001
          4.3082766430e-002 -1.0030773876e+002
          1.1850305373e-001 -9.7960044663e+000  1.1719450382e-001 -5.7004734921e+000  2.3538491227e-001 -7.9375619919e+000  3.5106896979e-001 -3.1937130926e+000
          5.8574504424e-001 -4.9399689747e+000  6.8231658655e-002 1.5506552234e+002  4.7742228281e-001 -1.7989723913e+002  4.5961597325e-001 -7.8036135067e+000
          6.5782931208e-002 -1.0959639199e+002
          5.6542434792e-002 1.7548715569e+002  5.9283989313e-002 1.7654038648e+002  1.1575556605e-001 1.7636529341e+002  1.7872115250e-001 1.7763134727e+002
          2.9439668096e-001 1.7769104808e+002  4.7742228281e-001 -1.7989723913e+002  2.2814777371e-001 -2.3210500935e+000  7.5116992709e-001 -9.0159283597e+000
          1.1274978595e-001 -1.0560615991e+002
          6.2239716911e-002 -1.3079620297e+001  5.7968536370e-002 -1.0200268869e+001  1.2007003944e-001 -1.2370340046e+001  1.7251333108e-001 -9.6837173505e+000
          2.9230648490e-001 -1.1034100904e+001  4.5961597325e-001 -7.8036135067e+000  7.5116992709e-001 -9.0159283597e+000  2.1367943924e-001 -1.9413111952e+001
          1.7809443861e-001 -1.0820147361e+002
          1.0633358307e-002 -6.8743405613e+001  7.3510219829e-003 -1.0731763859e+002  1.8387125981e-002 -8.5928034685e+001  2.3591597912e-002 -1.1129507543e+002
          4.3082766430e-002 -1.0030773876e+002  6.5782931208e-002 -1.0959639199e+002  1.1274978595e-001 -1.0560615991e+002  1.7809443861e-001 -1.0820147361e+002
          9.6087552963e-001 -1.8018835819e+001
 6.7000000000e-001  2.5102584672e-001 1.5136350297e+002  7.6169327703e-001 -5.6238564429e+000  4.6670059669e-001 1.7191571937e+002  2.9314978465e-001 -8.3884644243e+000
          1.7434300422e-001 1.7178051375e+002  1.1852867668e-001 -9.9589845594e+000  5.6477227604e-002 1.7546934138e+002  6.2345088635e-002 -1.3342869991e+001
          1.0937919828e-002 -6.8850372587e+001
          7.6169327703e-001 -5.6238564429e+000  2.4249018606e-001 1.6063602048e+002  4.7044995946e-001 1.7687257092e+002  2.9429398147e-001 -2.3723508503e+000
          1.7638471688e-001 1.7496938623e+002  1.1717455596e-001 -5.7903532474e+000  5.9309497764e-002 1.7649949220e+002  5.7926328120e-002 -1.0376381106e+001
          7.5024553734e-003 -1.0773775001e+002
          4.6670059669e-001 1.7191571937e+002  4.7044995946e-001 1.7687257092e+002  9.9616552316e-002 4.6698037291e+001  5.8634711048e-001 -5.2555507874e+000
          3.5013219247e-001 1.7370374829e+002  2.3538254526e-001 -8.0663077423e+000  1.1571134403e-001 1.7633840957e+002  1.2013325666e-001 -1.2598476393e+001
          1.8810372636e-002 -8.6042142025e+001
          2.9314978465e-001 -8.3884644243e+000  2.9429398147e-001 -2.3723508503e+000  5.8634711048e-001 -5.2555507874e+000  1.2792577600e-001 1.5321198398e+002
          5.2976289574e-001 1.7725004311e+002  3.5099441091e-001 -3.2438477311e+000  1.7882386189e-001 1.7760248428e+002  1.7234563286e-001 -9.8464472281e+000
          2.4056764869e-002 -1.1175078566e+002
          1.7434300422e-001 1.7178051375e+002  1.7638471688e-001 1.7496938623e+002  3.5013219247e-001 1.7370374829e+002  5.2976289574e-001 1.7725004311e+002
          1.3021073341e-001 1.9709634054e+001  5.8564763177e-001 -5.0189838038e+000  2.9444999690e-001 1.7767012866e+002  2.9219804790e-001 -1.1226055593e+001
          4.3933427840e-002 -1.0057814939e+002
          1.1852867668e-001 -9.9589845594e+000  1.1717455596e-001 -5.7903532474e+000  2.3538254526e-001 -8.0663077423e+000  3.5099441091e-001 -3.2438477311e+000
          5.8564763177e-001 -5.0189838038e+000  6.8549804594e-002 1.5480527808e+002  4.7771851496e-001 -1.7989011905e+002  4.5916307389e-001 -7.9364395368e+000
          6.7050794364e-002 -1.1001502898e+002
          5.6477227604e-002 1.7546934138e+002  5.9309497764e-002 1.7649949220e+002  1.1571134403e-001 1.7633840957e+002  1.7882386189e-001 1.7760248428e+002
          2.9444999690e-001 1.7767012866e+002  4.7771851496e-001 -1.7989011905e+002  2.2780677861e-001 -2.3869840253e+000  7.5059021158e-001 -9.1704570774e+000
          1.1488698727e-001 -1.0595381649e+002
          6.2345088635e-002 -1.3342869991e+001  5.7926328120e-002 -1.0376381106e+001  1.2013325666e-001 -1.2598476393e+001  1.7234563286e-001 -9.8464472281e+000
          2.9219804790e-001 -1.1226055593e+001  4.5916307389e-001 -7.9364395368e+000  7.5059021158e-001 -9.1704570774e+000  2.1279024370e-001 -1.9846430188e+001
          1.8147634097e-001 -1.0859342209e+002
          1.0937919828e-002 -6.8850372587e+001  7.5024553734e-003 -1.0773775001e+002  1.8810372636e-002 -8.6042142025e+001  2.4056764869e-002 -1.1175078566e+002
          4.3933427840e-002 -1.0057814939e+002  6.7050794364e-002 -1.1001502898e+002  1.1488698727e-001 -1.0595381649e+002  1.8147634097e-001 -1.0859342209e+002
          9.5912963215e-001 -1.8365006535e+001
 6.8000000000e-001  2.5149145483e-001 1.5096545723e+002  7.6161680124e-001 -5.7077875312e+000  4.6658584909e-001 1.7179582489e+002  2.9312369736e-001 -8.5158713641e+000
          1.7427863374e-001 1.7166328854e+002  1.1855423573e-001 -1.0122874940e+001  5.6411907249e-002 1.7545475097e+002  6.2451386425e-002 -1.3610140486e+001
          1.1249413935e-002 -6.8975574283e+001
          7.6161680124e-001 -5.7077875312e+000  2.4271890851e-001 1.6035798807e+002  4.7045193685e-001 1.7682626206e+002  2.9429913927e-001 -2.4085949754e+000
          1.7638779983e-001 1.7489647955e+002  1.1715368329e-001 -5.8803249682e+000  5.9336353321e-002 1.7645892782e+002  5.7881996506e-002 -1.0553297298e+001
          7.6557603649e-003 -1.0816929487e+002
          4.6658584909e-001 1.7179582489e+002  4.7045193685e-001 1.7682626206e+002  1.0057186819e-001 4.6993020463e+001  5.8629393304e-001 -5.3351718502e+000
          3.5005250780e-001 1.7361350049e+002  2.3537920703e-001 -8.1955296577e+000  1.1566801197e-001 1.7631310596e+002  1.2019567118e-001 -1.2828962055e+001
          1.9240995196e-002 -8.6167764850e+001
          2.9312369736e-001 -8.5158713641e+000  2.9429913927e-001 -2.4085949754e+000  5.8629393304e-001 -5.3351718502e+000  1.2823747933e-001 1.5285572766e+002
          5.2979192495e-001 1.7721061455e+002  3.5091701830e-001 -3.2939665848e+000  1.7893078397e-001 1.7757368570e+002  1.7217120987e-001 -1.0009626178e+001
          2.4526881949e-002 -1.1221633447e+002
          1.7427863374e-001 1.7166328854e+002  1.7638779983e-001 1.7489647955e+002  3.5005250780e-001 1.7361350049e+002  5.2979192495e-001 1.7721061455e+002
          1.3053595523e-001 1.9943472032e+001  5.8554623063e-001 -5.0981668010e+000  2.9450803934e-001 1.7764978800e+002  2.9208244164e-001 -1.1419184788e+001
          4.4793548467e-002 -1.0085713901e+002
          1.1855423573e-001 -1.0122874940e+001  1.1715368329e-001 -5.8803249682e+000  2.3537920703e-001 -8.1955296577e+000  3.5091701830e-001 -3.2939665848e+000
          5.8554623063e-001 -5.0981668010e+000  6.8875658120e-002 1.5454925824e+002  4.7802591380e-001 -1.7988300535e+002  4.5869275867e-001 -8.0696459989e+000
          6.8330917022e-002 -1.1044270025e+002
          5.6411907249e-002 1.7545475097e+002  5.9336353321e-002 1.7645892782e+002  1.1566801197e-001 1.7631310596e+002  1.7893078397e-001 1.7757368570e+002
          2.9450803934e-001 1.7764978800e+002  4.7802591380e-001 -1.7988300535e+002  2.2745062488e-001 -2.4538774691e+000  7.4998608530e-001 -9.3256433155e+000
          1.1704349207e-001 -1.0630978605e+002
          6.2451386425e-002 -1.3610140486e+001  5.7881996506e-002 -1.0553297298e+001  1.2019567118e-001 -1.2828962055e+001  1.7217120987e-001 -1.0009626178e+001
          2.9208244164e-001 -1.1419184788e+001  4.5869275867e-001 -8.0696459989e+000  7.4998608530e-001 -9.3256433155e+000  2.1186677042e-001 -2.0287075044e+001
          1.8488869558e-001 -1.0899399997e+002
          1.1249413935e-002 -6.8975574283e+001  7.6557603649e-003 -1.0816929487e+002  1.9240995196e-002 -8.6167764850e+001  2.4526881949e-002 -1.1221633447e+002
          4.4793548467e-002 -1.0085713901e+002  6.8330917022e-002 -1.1044270025e+002  1.1704349207e-001 -1.0630978605e+002  1.8488869558e-001 -1.0899399997e+002
          9.5730360580e-001 -1.8714686615e+001
 6.9000000000e-001  2.5196246988e-001 1.5056858780e+002  7.6153915048e-001 -5.7917248593e+000  4.6646920910e-001 1.7167599451e+002  2.9309698532e-001 -8.6434192098e+000
          1.7421337095e-001 1.7154644402e+002  1.1857966194e-001 -1.0287708910e+001  5.6346598020e-002 1.7544350386e+002  6.2558477169e-002 -1.3881581257e+001
          1.1567947206e-002 -6.9119430435e+001
          7.6153915048e-001 -5.7917248593e+000  2.4295079913e-001 1.6008041653e+002  4.7045410002e-001 1.7677997664e+002  2.9430409490e-001 -2.4448592557e+000
          1.7639131030e-001 1.7482366445e+002  1.1713184159e-001 -5.9703770905e+000  5.9364625198e-002 1.7641866028e+002  5.7835428507e-002 -1.0730981494e+001
          7.8109354263e-003 -1.0861276880e+002
          4.6646920910e-001 1.7167599451e+002  4.7045410002e-001 1.7677997664e+002  1.0153126553e-001 4.7280119288e+001  5.8623951192e-001 -5.4148580172e+000
          3.4997202383e-001 1.7352347871e+002  2.3537479762e-001 -8.3252391412e+000  1.1562573315e-001 1.7628941904e+002  1.2025707204e-001 -1.3061864146e+001
          1.9679111997e-002 -8.6305364692e+001
          2.9309698532e-001 -8.6434192098e+000  2.9430409490e-001 -2.4448592557e+000  5.8623951192e-001 -5.4148580172e+000  1.2855361984e-001 1.5250114646e+002
          5.2982251706e-001 1.7717123850e+002  3.5083668393e-001 -3.3440545717e+000  1.7904209334e-001 1.7754491142e+002  1.7198976718e-001 -1.0173205096e+001
          2.5001934169e-002 -1.1269215013e+002
          1.7421337095e-001 1.7154644402e+002  1.7639131030e-001 1.7482366445e+002  3.4997202383e-001 1.7352347871e+002  5.2982251706e-001 1.7717123850e+002
          1.3086290273e-001 2.0175271995e+001  5.8544064556e-001 -5.1775135874e+000  2.9457111345e-001 1.7763001388e+002  2.9195919867e-001 -1.1613489556e+001
          4.5663170519e-002 -1.0114508615e+002
          1.1857966194e-001 -1.0287708910e+001  1.1713184159e-001 -5.9703770905e+000  2.3537479762e-001 -8.3252391412e+000  3.5083668393e-001 -3.3440545717e+000
          5.8544064556e-001 -5.1775135874e+000  6.9209512763e-002 1.5429738760e+002  4.7834490586e-001 -1.7987593813e+002  4.5820429733e-001 -8.2031843186e+000
          6.9623236888e-002 -1.1087979442e+002
          5.6346598020e-002 1.7544350386e+002  5.9364625198e-002 1.7641866028e+002  1.1562573315e-001 1.7628941904e+002  1.7904209334e-001 1.7754491142e+002
          2.9457111345e-001 1.7763001388e+002  4.7834490586e-001 -1.7987593813e+002  2.2707861373e-001 -2.5216535045e+000  7.4935639516e-001 -9.4814578718e+000
          1.1921919801e-001 -1.0667442456e+002
          6.2558477169e-002 -1.3881581257e+001  5.7835428507e-002 -1.0730981494e+001  1.2025707204e-001 -1.3061864146e+001  1.7198976718e-001 -1.0173205096e+001
          2.9195919867e-001 -1.1613489556e+001  4.5820429733e-001 -8.2031843186e+000  7.4935639516e-001 -9.4814578718e+000  2.1090736474e-001 -2.0735157333e+001
          1.8833128279e-001 -1.0940357488e+002
          1.1567947206e-002 -6.9119430435e+001  7.8109354263e-003 -1.0861276880e+002  1.9679111997e-002 -8.6305364692e+001  2.5001934169e-002 -1.1269215013e+002
          4.5663170519e-002 -1.0114508615e+002  6.9623236888e-002 -1.1087979442e+002  1.1921919801e-001 -1.0667442456e+002  1.8833128279e-001 -1.0940357488e+002
          9.5539308087e-001 -1.9067884666e+001
 7.0000000000e-001  2.5243882675e-001 1.5017290593e+002  7.6146031360e-001 -5.8756690012e+000  4.6635067503e-001 1.7155623249e+002  2.9306961460e-001 -8.7711130229e+000
          1.7414724637e-001 1.7142999828e+002  1.1860487880e-001 -1.0453520025e+001  5.6281437228e-002 1.7543571974e+002  6.2666211114e-002 -1.4157344206e+001
          1.1893616678e-002 -6.9282382829e+001
          7.6146031360e-001 -5.8756690012e+000  2.4318585340e-001 1.5980331036e+002  4.7045646542e-001 1.7673371522e+002  2.9430883027e-001 -2.4811411930e+000
          1.7639527905e-001 1.7475093899e+002  1.1710898521e-001 -6.0604961351e+000  5.9394384996e-002 1.7637865089e+002  5.7786506303e-002 -1.0909389216e+001
          7.9679710857e-003 -1.0906868351e+002
          4.6635067503e-001 1.7155623249e+002  4.7045646542e-001 1.7673371522e+002  1.0249455836e-001 4.7559519117e+001  5.8618380041e-001 -5.4946104422e+000
          3.4989079369e-001 1.7343369053e+002  2.3536920899e-001 -8.4554469874e+000  1.1558468382e-001 1.7626738300e+002  1.2031722899e-001 -1.3297248505e+001
          2.0124828908e-002 -8.6455421134e+001
          2.9306961460e-001 -8.7711130229e+000  2.9430883027e-001 -2.4811411930e+000  5.8618380041e-001 -5.4946104422e+000  1.2887422129e-001 1.5214824220e+002
          5.2985475398e-001 1.7713191131e+002  3.5075329807e-001 -3.3940947306e+000  1.7915796855e-001 1.7751611605e+002  1.7180100025e-001 -1.0337126316e+001
          2.5481884350e-002 -1.1317867459e+002
          1.7414724637e-001 1.7142999828e+002  1.7639527905e-001 1.7475093899e+002  3.4989079369e-001 1.7343369053e+002  5.2985475398e-001 1.7713191131e+002
          1.3119141172e-001 2.0405063809e+001  5.8533067240e-001 -5.2570184974e+000  2.9463953867e-001 1.7761079018e+002  2.9182782512e-001 -1.1808966073e+001
          4.6542304408e-002 -1.0144238236e+002
