! IGNION VIRTUAL ANTENNA LIBRARY
!
! NN_RUN_B130x60_C20x11
! Virtual Antenna™ RUN mXTEND™: NN02-224 12.0 mm x 3.0 mm x 2.4 mm
! https://ignion.io/product/run-mxtend/
! Board: 130 mm x 60 mm
! Clearance Area: 20 mm x 11 mm
! Feeding line: L-shape; 11mm x 2mm and 5mm x 2mm
! Applications: Smartphone, Fleet management, IoT
! Frequency range 0.65GHz to 6GHz, step 10MHz
! Number of ports 9
!
! This product and its use is protected by at least one or more of the following patents and patent
! applications US 8,203,492 B2; US 8,237,615 B2; PCT/EP2013/064692; WO 2014/012842 A1; US 2019/190122 A1;
! US 62/072,671; and other domestic and international patents pending. Additional information about
! patents related to this product is available at https://ignion.io/files/Patent-list-NN.pdf, all
! rights reserved. Copyright, Ignion 2021.
!
! Need more help? Your platform is much different than these examples in the manual? Use our 
! Fast Track service (https://ignion.io/fast-track/), for free, and get a personalized antenna design in
! just 24 hours.
!
!
! Touchstone port 1 = "Series Port"
! Touchstone port 2 = "Shunt Port"
! Touchstone port 3 = "Series Port"
! Touchstone port 4 = "Shunt Port"
! Touchstone port 5 = "Series Port"
! Touchstone port 6 = "Shunt Port"
! Touchstone port 7 = "Series Port"
! Touchstone port 8 = "Shunt Port"
! Touchstone port 9 = "Series Port"
! 
! IE3D S-Parameters Output Version 2.0
# GHZ S MA R 50
! Nport = 9
!

6.50000000000000e-001 2.49983325923338e-001 1.52252561016314e+002 7.61854448349362e-001 -5.44542177821964e+000 4.66941783591187e-001 1.72183920383619e+002 2.93175992948567e-001 -8.13592343576614e+000
          1.74509594741707e-001 1.72089151637782e+002 1.18402107652819e-001 -9.74450940415410e+000 5.67565457183589e-002 1.75935576521171e+002 6.19814454080774e-002 -1.34385677609188e+001
          1.11311560451050e-002 -7.28331744707622e+001
          7.61854448349362e-001 -5.44542177821970e+000 2.42038691810300e-001 1.61218512617098e+002 4.70445931743008e-001 1.76956746282038e+002 2.94232384367739e-001 -2.32955648007940e+000
          1.76422108036701e-001 1.75139582867933e+002 1.17122990600335e-001 -5.71120427551655e+000 5.93998213933754e-002 1.76837192290577e+002 5.78256618235978e-002 -1.05013190539576e+001
          7.98109083735895e-003 -1.08328407891000e+002
          4.66941783591187e-001 1.72183920383620e+002 4.70445931743008e-001 1.76956746282038e+002 9.75803632362578e-002 4.60402259505360e+001 5.86392886440689e-001 -5.10935924254540e+000
          3.50367562195461e-001 1.73928809083680e+002 2.35243215901684e-001 -7.90169297147446e+000 1.16059239613232e-001 1.76695629596758e+002 1.19721418593688e-001 -1.26328640233520e+001
          1.94371044973393e-002 -8.84536814132190e+001
          2.93175992948567e-001 -8.13592343576615e+000 2.94232384367740e-001 -2.32955648007974e+000 5.86392886440689e-001 -5.10935924254551e+000 1.27357960380792e-001 1.54025896015329e+002
          5.29884483359889e-001 1.77360128262364e+002 3.50832818222627e-001 -3.21651140637832e+000 1.79103634480502e-001 1.77885784964527e+002 1.72030736188861e-001 -9.93200232960576e+000
          2.52641658519719e-002 -1.12250862810068e+002
          1.74509594741707e-001 1.72089151637782e+002 1.76422108036701e-001 1.75139582867933e+002 3.50367562195461e-001 1.73928809083680e+002 5.29884483359889e-001 1.77360128262364e+002
          1.29136475632014e-001 1.90661915809923e+001 5.85406508228987e-001 -4.93684879030356e+000 2.95063225115617e-001 1.77950978173313e+002 2.91530521711217e-001 -1.12601804354718e+001
          4.56381711811423e-002 -1.01854335115180e+002
          1.18402107652819e-001 -9.74450940415387e+000 1.17122990600335e-001 -5.71120427551644e+000 2.35243215901684e-001 -7.90169297147437e+000 3.50832818222627e-001 -3.21651140637819e+000
          5.85406508228987e-001 -4.93684879030343e+000 6.82618808548310e-002 1.56459623354412e+002 4.78468425100589e-001 -1.79693364129357e+002 4.58267197832013e-001 -8.05772696338726e+000
          6.99640889710773e-002 -1.10656626083840e+002
          5.67565457183590e-002 1.75935576521171e+002 5.93998213933753e-002 1.76837192290578e+002 1.16059239613232e-001 1.76695629596758e+002 1.79103634480502e-001 1.77885784964527e+002
          2.95063225115617e-001 1.77950978173313e+002 4.78468425100589e-001 -1.79693364129357e+002 2.26565435251358e-001 -3.00262842604872e+000 7.49106816761828e-001 -9.24951777506902e+000
          1.19205469113367e-001 -1.06821097778175e+002
          6.19814454080773e-002 -1.34385677609184e+001 5.78256618235977e-002 -1.05013190539571e+001 1.19721418593688e-001 -1.26328640233519e+001 1.72030736188861e-001 -9.93200232960571e+000
          2.91530521711217e-001 -1.12601804354720e+001 4.58267197832013e-001 -8.05772696338730e+000 7.49106816761828e-001 -9.24951777506901e+000 2.11800197714618e-001 -2.13425299044732e+001
          1.88681581506801e-001 -1.09291663806004e+002
          1.11311560451050e-002 -7.28331744707622e+001 7.98109083735895e-003 -1.08328407891000e+002 1.94371044973393e-002 -8.84536814132190e+001 2.52641658519719e-002 -1.12250862810068e+002
          4.56381711811423e-002 -1.01854335115180e+002 6.99640889710773e-002 -1.10656626083840e+002 1.19205469113367e-001 -1.06821097778175e+002 1.88681581506801e-001 -1.09291663806004e+002
          9.55142586732807e-001 -1.90130353574297e+001
         
6.60000000000000e-001 2.50433466451907e-001 1.51853785377390e+002 7.61779489433659e-001 -5.52923846445845e+000 4.66832138703533e-001 1.72064666632196e+002 2.93147441040055e-001 -8.26342170953248e+000
          1.74451593001300e-001 1.71973546331311e+002 1.18418846521282e-001 -9.91039250700034e+000 5.67065038517663e-002 1.75927626688318e+002 6.20662064188052e-002 -1.37179773718424e+001
          1.14421867173081e-002 -7.30487058268946e+001
          7.61779489433659e-001 -5.52923846445839e+000 2.42261481155176e-001 1.60939885949541e+002 4.70448865883176e-001 1.76910313920379e+002 2.94235361534513e-001 -2.36597570481964e+000
          1.76427682867068e-001 1.75066682780986e+002 1.17098562952009e-001 -5.80140396623059e+000 5.94324498806185e-002 1.76796716910143e+002 5.77731046181710e-002 -1.06798843688755e+001
          8.13912984746095e-003 -1.08819167334248e+002
          4.66832138703533e-001 1.72064666632197e+002 4.70448865883176e-001 1.76910313920379e+002 9.85210497907362e-002 4.63518983494376e+001 5.86337124369791e-001 -5.18911883812819e+000
          3.50296211995221e-001 1.73839275203348e+002 2.35229862051062e-001 -8.03197311603491e+000 1.16033829573590e-001 1.76673531096672e+002 1.19759187721039e-001 -1.28701671136838e+001
          1.98794055397637e-002 -8.86516290871028e+001
          2.93147441040055e-001 -8.26342170953235e+000 2.94235361534514e-001 -2.36597570481959e+000 5.86337124369791e-001 -5.18911883812825e+000 1.27665473906161e-001 1.53667005275718e+002
          5.29920648066214e-001 1.77320777957718e+002 3.50745866415225e-001 -3.26651694299605e+000 1.79226405496691e-001 1.77856811915851e+002 1.71833798510639e-001 -1.00961905700265e+001
          2.57482732094648e-002 -1.12766425333521e+002
          1.74451593001300e-001 1.71973546331311e+002 1.76427682867068e-001 1.75066682780986e+002 3.50296211995221e-001 1.73839275203348e+002 5.29920648066213e-001 1.77320777957719e+002
          1.29438590646357e-001 1.93049863101667e+001 5.85288178809279e-001 -5.01638401709869e+000 2.95151976905344e-001 1.77931740268806e+002 2.91373113054752e-001 -1.14566244975677e+001
          4.65285870680820e-002 -1.02185457183473e+002
          1.18418846521282e-001 -9.91039250700057e+000 1.17098562952009e-001 -5.80140396623079e+000 2.35229862051062e-001 -8.03197311603503e+000 3.50745866415224e-001 -3.26651694299634e+000
          5.85288178809279e-001 -5.01638401709890e+000 6.86038006012512e-002 1.56201776094115e+002 4.78816644307238e-001 -1.79686405238412e+002 4.57738329230110e-001 -8.19201822001320e+000
          7.12830902736781e-002 -1.11130132489049e+002
          5.67065038517663e-002 1.75927626688318e+002 5.94324498806185e-002 1.76796716910143e+002 1.16033829573589e-001 1.76673531096672e+002 1.79226405496691e-001 1.77856811915851e+002
          2.95151976905344e-001 1.77931740268805e+002 4.78816644307237e-001 -1.79686405238412e+002 2.26144284625694e-001 -3.07308337645162e+000 7.48408147247608e-001 -9.40662608890832e+000
          1.21430368980161e-001 -1.07221124278019e+002
          6.20662064188052e-002 -1.37179773718422e+001 5.77731046181710e-002 -1.06798843688752e+001 1.19759187721038e-001 -1.28701671136837e+001 1.71833798510638e-001 -1.00961905700266e+001
          2.91373113054752e-001 -1.14566244975676e+001 4.57738329230110e-001 -8.19201822001331e+000 7.48408147247608e-001 -9.40662608890829e+000 2.10770528809919e-001 -2.18066625037261e+001
          1.92195874046829e-001 -1.09735494455623e+002
          1.14421867173081e-002 -7.30487058268946e+001 8.13912984746094e-003 -1.08819167334248e+002 1.98794055397637e-002 -8.86516290871028e+001 2.57482732094648e-002 -1.12766425333521e+002
          4.65285870680820e-002 -1.02185457183473e+002 7.12830902736781e-002 -1.11130132489049e+002 1.21430368980161e-001 -1.07221124278019e+002 1.92195874046829e-001 -1.09735494455623e+002
          9.53005597170502e-001 -1.93743348270709e+001
         
6.70000000000000e-001 2.50889108704669e-001 1.51456221572061e+002 7.61703197750443e-001 -5.61305988592511e+000 4.66720851927342e-001 1.71945499996166e+002 2.93117860971085e-001 -8.39104301682420e+000
          1.74393263670270e-001 1.71858341230599e+002 1.18434490073804e-001 -1.00771345347485e+001 5.66579225711249e-002 1.75922652450566e+002 6.21494242472221e-002 -1.40013829064810e+001
          1.17583013622956e-002 -7.32899748100554e+001
          7.61703197750443e-001 -5.61305988592505e+000 2.42487498456567e-001 1.60661691164989e+002 4.70452126840160e-001 1.76863895205013e+002 2.94238116081884e-001 -2.40237048860598e+000
          1.76433825599641e-001 1.74993790208726e+002 1.17073083217899e-001 -5.89143147190080e+000 5.94666532209095e-002 1.76755814646222e+002 5.77179950115342e-002 -1.08580192343710e+001
          8.29740293561757e-003 -1.09323939752340e+002
          4.66720851927342e-001 1.71945499996166e+002 4.70452126840160e-001 1.76863895205013e+002 9.94658635175933e-002 4.66554283774928e+001 5.86279761672472e-001 -5.26892047609644e+000
          3.50224641500466e-001 1.73749946071413e+002 2.35214556014264e-001 -8.16262021233512e+000 1.16010805072007e-001 1.76652659892074e+002 1.19793719891740e-001 -1.31094484317660e+001
          2.03270736528452e-002 -8.88657461653864e+001
          2.93117860971085e-001 -8.39104301682419e+000 2.94238116081884e-001 -2.40237048860590e+000 5.86279761672472e-001 -5.26892047609642e+000 1.27977706103106e-001 1.53309552780644e+002
          5.29958652700042e-001 1.77281403703784e+002 3.50655930456188e-001 -3.31627549131031e+000 1.79353778662342e-001 1.77827245934031e+002 1.71629320645199e-001 -1.02597430019529e+001
          2.62332339393898e-002 -1.13293784906823e+002
          1.74393263670270e-001 1.71858341230599e+002 1.76433825599641e-001 1.74993790208726e+002 3.50224641500466e-001 1.73749946071413e+002 5.29958652700042e-001 1.77281403703784e+002
          1.29742171139640e-001 1.95422294112874e+001 5.85164901159685e-001 -5.09592581918340e+000 2.95247013933807e-001 1.77912607101293e+002 2.91205765823259e-001 -1.16535575489322e+001
          4.74235932892373e-002 -1.02527405352766e+002
          1.18434490073804e-001 -1.00771345347489e+001 1.17073083217899e-001 -5.89143147190098e+000 2.35214556014264e-001 -8.16262021233503e+000 3.50655930456188e-001 -3.31627549131018e+000
          5.85164901159686e-001 -5.09592581918348e+000 6.89550760489586e-002 1.55945671043811e+002 4.79176889720078e-001 -1.79680044829103e+002 4.57190141770846e-001 -8.32571940062337e+000
          7.26046787947623e-002 -1.11614235292628e+002
          5.66579225711250e-002 1.75922652450566e+002 5.94666532209095e-002 1.76755814646222e+002 1.16010805072007e-001 1.76652659892073e+002 1.79353778662342e-001 1.77827245934031e+002
          2.95247013933808e-001 1.77912607101293e+002 4.79176889720079e-001 -1.79680044829103e+002 2.25705630134675e-001 -3.14287840188169e+000 7.47680911218796e-001 -9.56357552595279e+000
          1.23660754883320e-001 -1.07630889434945e+002
          6.21494242472220e-002 -1.40013829064810e+001 5.77179950115340e-002 -1.08580192343713e+001 1.19793719891740e-001 -1.31094484317665e+001 1.71629320645199e-001 -1.02597430019531e+001
          2.91205765823259e-001 -1.16535575489323e+001 4.57190141770846e-001 -8.32571940062348e+000 7.47680911218796e-001 -9.56357552595274e+000 2.09698927491715e-001 -2.22744819659224e+001
          1.95716486484643e-001 -1.10189283088129e+002
          1.17583013622955e-002 -7.32899748100555e+001 8.29740293561754e-003 -1.09323939752340e+002 2.03270736528451e-002 -8.88657461653865e+001 2.62332339393898e-002 -1.13293784906823e+002
          4.74235932892372e-002 -1.02527405352766e+002 7.26046787947622e-002 -1.11614235292628e+002 1.23660754883320e-001 -1.07630889434945e+002 1.95716486484643e-001 -1.10189283088129e+002
          9.50768423391396e-001 -1.97370048921454e+001
         
6.80000000000000e-001 2.51350215605252e-001 1.51059887864306e+002 7.61625545785446e-001 -5.69688520987960e+000 4.66607965567922e-001 1.71826425039547e+002 2.93087180426030e-001 -8.51878294165826e+000
          1.74334706323713e-001 1.71743540411099e+002 1.18448866396194e-001 -1.02447169199969e+001 5.66110733197389e-002 1.75920595559981e+002 6.22306948770764e-002 -1.42887275298285e+001
          1.20791231957951e-002 -7.35574248122743e+001
          7.61625545785446e-001 -5.69688520987949e+000 2.42716736611386e-001 1.60383929744418e+002 4.70455739283533e-001 1.76817487725570e+002 2.94240652495922e-001 -2.43873279477897e+000
          1.76440555450071e-001 1.74920888521430e+002 1.17046552133944e-001 -5.98123862801961e+000 5.95024389735904e-002 1.76714346976359e+002 5.76603066407062e-002 -1.10354946069578e+001
          8.45561903374813e-003 -1.09842618805632e+002
          4.66607965567922e-001 1.71826425039547e+002 4.70455739283533e-001 1.76817487725570e+002 1.00414598335937e-001 4.69510331992450e+001 5.86220734838516e-001 -5.34875922607957e+000
          3.50152954471720e-001 1.73660818219065e+002 2.35197139473189e-001 -8.29361063895382e+000 1.15990412776674e-001 1.76632944322930e+002 1.19824623694321e-001 -1.33506219765915e+001
          2.07797012486303e-002 -8.90964639864514e+001
          2.93087180426030e-001 -8.51878294165825e+000 2.94240652495922e-001 -2.43873279477899e+000 5.86220734838516e-001 -5.34875922607966e+000 1.28294658395198e-001 1.52953505845338e+002
          5.29998532866538e-001 1.77241990113231e+002 3.50563044652623e-001 -3.36574413731216e+000 1.79485739777544e-001 1.77796965776843e+002 1.71417280545177e-001 -1.04224548392207e+001
          2.67183130988624e-002 -1.13832864528466e+002
          1.74334706323714e-001 1.71743540411099e+002 1.76440555450071e-001 1.74920888521429e+002 3.50152954471720e-001 1.73660818219065e+002 5.29998532866538e-001 1.77241990113231e+002
          1.30047131006516e-001 1.97780093294927e+001 5.85036561979587e-001 -5.17544295406182e+000 2.95348532517678e-001 1.77893488171970e+002 2.91028107033438e-001 -1.18508471590670e+001
          4.83222537375689e-002 -1.02880276614355e+002
          1.18448866396194e-001 -1.02447169199973e+001 1.17046552133944e-001 -5.98123862801990e+000 2.35197139473189e-001 -8.29361063895368e+000 3.50563044652622e-001 -3.36574413731203e+000
          5.85036561979587e-001 -5.17544295406174e+000 6.93158682899383e-002 1.55690865472537e+002 4.79549117444465e-001 -1.79674393107302e+002 4.56622579045101e-001 -8.45864537522711e+000
          7.39270953252927e-002 -1.12108864224304e+002
          5.66110733197389e-002 1.75920595559981e+002 5.95024389735904e-002 1.76714346976359e+002 1.15990412776674e-001 1.76632944322930e+002 1.79485739777544e-001 1.77796965776843e+002
          2.95348532517678e-001 1.77893488171970e+002 4.79549117444464e-001 -1.79674393107302e+002 2.25249275258289e-001 -3.21168968659549e+000 7.46924727234409e-001 -9.72021034643461e+000
          1.25894051042828e-001 -1.08050357007408e+002
          6.22306948770765e-002 -1.42887275298286e+001 5.76603066407061e-002 -1.10354946069576e+001 1.19824623694321e-001 -1.33506219765914e+001 1.71417280545177e-001 -1.04224548392207e+001
          2.91028107033438e-001 -1.18508471590669e+001 4.56622579045101e-001 -8.45864537522702e+000 7.46924727234410e-001 -9.72021034643470e+000 2.08584433887112e-001 -2.27453168378970e+001
          1.99239005331180e-001 -1.10652953751776e+002
          1.20791231957951e-002 -7.35574248122743e+001 8.45561903374813e-003 -1.09842618805632e+002 2.07797012486303e-002 -8.90964639864514e+001 2.67183130988625e-002 -1.13832864528466e+002
          4.83222537375689e-002 -1.02880276614355e+002 7.39270953252928e-002 -1.12108864224304e+002 1.25894051042828e-001 -1.08050357007408e+002 1.99239005331180e-001 -1.10652953751776e+002
          9.48428541516141e-001 -2.01006431765925e+001
         
6.90000000000000e-001 2.51816756402933e-001 1.50664802780200e+002 7.61546504938333e-001 -5.78071326961462e+000 4.66493529637457e-001 1.71707445978766e+002 2.93055324644638e-001 -8.64663486943503e+000
          1.74276028995107e-001 1.71629143877160e+002 1.18461796253043e-001 -1.04131087171353e+001 5.65662376593492e-002 1.75921356514619e+002 6.23095910384335e-002 -1.45799018500295e+001
          1.24041852333198e-002 -7.38513361747496e+001
          7.61546504938333e-001 -5.78071326961459e+000 2.42949186811447e-001 1.60106602680224e+002 4.70459727207955e-001 1.76771088490256e+002 2.94242981471372e-001 -2.47505405901806e+000
          1.76447885944522e-001 1.74847958965889e+002 1.17018984120428e-001 -6.07077346278491e+000 5.95397952068799e-002 1.76672164138125e+002 5.76000433810317e-002 -1.12120583081160e+001
          8.61344891486122e-003 -1.10374891673888e+002
          4.66493529637457e-001 1.71707445978766e+002 4.70459727207955e-001 1.76771088490256e+002 1.01367054986225e-001 4.72389302183130e+001 5.86159982541068e-001 -5.42862898309646e+000
          3.50081258298769e-001 1.73571885664435e+002 2.35177456660100e-001 -8.42491394070330e+000 1.15972895430482e-001 1.76614291632944e+002 1.19851505633904e-001 -1.35935703443574e+001
          2.12367843853108e-002 -8.93441007697526e+001
          2.93055324644638e-001 -8.64663486943500e+000 2.94242981471372e-001 -2.47505405901804e+000 5.86159982541068e-001 -5.42862898309647e+000 1.28616321723434e-001 1.52598826671121e+002
          5.30040307283619e-001 1.77202520196779e+002 3.50467281341906e-001 -3.41487750511230e+000 1.79622221524969e-001 1.77765842497167e+002 1.71197739225319e-001 -1.05841037130919e+001
          2.72026801109386e-002 -1.14383417548335e+002
          1.74276028995107e-001 1.71629143877159e+002 1.76447885944522e-001 1.74847958965888e+002 3.50081258298769e-001 1.73571885664435e+002 5.30040307283619e-001 1.77202520196779e+002
          1.30353409936187e-001 2.00124227861074e+001 5.84903084367525e-001 -5.25490047759201e+000 2.95456677494556e-001 1.77874281998934e+002 2.90839834721981e-001 -1.20483408354285e+001
          4.92234842752976e-002 -1.03244048676050e+002
          1.18461796253043e-001 -1.04131087171357e+001 1.17018984120429e-001 -6.07077346278542e+000 2.35177456660099e-001 -8.42491394070318e+000 3.50467281341906e-001 -3.41487750511232e+000
          5.84903084367524e-001 -5.25490047759198e+000 6.96862770777848e-002 1.55436871860330e+002 4.79933154863406e-001 -1.79669566775389e+002 4.56035784580323e-001 -8.59059560807122e+000
          7.52483542412271e-002 -1.12613799128036e+002
