! IGNION VIRTUAL ANTENNA LIBRARY
!
! NN_ALL_B145x130_C45x24
! Virtual Antenna™ ALL mXTEND™: NN02-220 24.0 mm x 12.0 mm x 2.0 mm
! https://ignion.io/product/all-mxtend/
! Board: 145 mm x 130 mm
! Clearance Area: 45 mm x 24 mm
! Feeding line: straight line; 12mm x 2mm
! Applications: Smart meter, Routers/Repeaters
! Frequency range 0.65GHz to 6GHz, step 10MHz
! Number of ports 9
!
! This product and its use are protected by at least one or more of the following patents and
! patent applications PAT. US 9,130,259 B2; PAT. US 8,237,615 B2; and other domestic and
! international patents pending.  Additional information about patents related to this product
! is available at https://ignion.io/files/Patent-list-NN.pdf, all rights reserved. Copyright, Ignion 2021.
!
! Need more help? Your platform is much different than these examples in the manual? Use our 
! Fast Track service (https://ignion.io/fast-track/), for free, and get a personalized antenna design in
! just 24 hours.
!
! 
! Touchstone port 1 = "Series Port"
! Touchstone port 2 = "Shunt Port"
! Touchstone port 3 = "Series Port"
! Touchstone port 4 = "Shunt Port"
! Touchstone port 5 = "Series Port"
! Touchstone port 6 = "Shunt Port"
! Touchstone port 7 = "Series Port"
! Touchstone port 8 = "Shunt Port"
! Touchstone port 9 = "Series Port"
!
! IE3D S-Parameters Output Version 2.0 
# GHZ S MA R 50
! Nport = 9

6.50000000000000e-001 2.47990013919864e-001 1.53770525905226e+002 7.61930186361781e-001 1.74728226805692e+002 4.67270304537827e-001 1.72746280953263e+002 2.93103543976365e-001 1.72239719633415e+002
          1.74851642920531e-001 1.72988151890034e+002 1.17795915815971e-001 1.69520268189683e+002 5.81314841439297e-002 -1.79948309540635e+002 6.11262977769628e-002 1.61204964196582e+002
          1.99858673839932e-002 -9.15903613473332e+001
          7.61930186361781e-001 1.74728226805692e+002 2.41906356395544e-001 1.61604546843888e+002 4.70529972018252e-001 -3.12570338189148e+000 2.93530223672865e-001 -2.49767853565340e+000
          1.77154201465919e-001 -4.76407245057368e+000 1.15522554463204e-001 -6.43053844084010e+000 6.18208255998631e-002 -1.61551305690397e+000 5.42773401535867e-002 -1.40470398401034e+001
          1.48894135871492e-002 5.20588490316816e+001
          4.67270304537827e-001 1.72746280953263e+002 4.70529972018252e-001 -3.12570338189138e+000 9.42043209043565e-002 4.48254196520105e+001 5.85789425507705e-001 1.74988069936276e+002
          3.51434282124808e-001 1.74417679436459e+002 2.33130999777746e-001 1.71363630077001e+002 1.19706904453654e-001 1.79452234381966e+002 1.15582069017013e-001 1.62869127674190e+002
          3.41617321564373e-002 -1.06217222927229e+002
          2.93103543976365e-001 1.72239719633415e+002 2.93530223672865e-001 -2.49767853565358e+000 5.85789425507705e-001 1.74988069936276e+002 1.29858710806639e-001 1.53148573846114e+002
          5.31872558049894e-001 -3.03444260991924e+000 3.46031266778338e-001 -4.48501178771439e+000 1.86148005922347e-001 -9.10954732384126e-001 1.61673358108984e-001 -1.35504141981862e+001
          4.55593394637983e-002 5.06365341724536e+001
          1.74851642920531e-001 1.72988151890034e+002 1.77154201465919e-001 -4.76407245057362e+000 3.51434282124809e-001 1.74417679436459e+002 5.31872558049894e-001 -3.03444260991896e+000
          1.26611272678869e-001 1.99262246329666e+001 5.78620757374879e-001 1.73999234437001e+002 3.05659027945911e-001 1.79719350008407e+002 2.77281017224896e-001 1.64751160875301e+002
          7.94893155203175e-002 -1.18823974667925e+002
          1.17795915815971e-001 1.69520268189683e+002 1.15522554463204e-001 -6.43053844084006e+000 2.33130999777746e-001 1.71363630077001e+002 3.46031266778338e-001 -4.48501178771441e+000
          5.78620757374879e-001 1.73999234437000e+002 7.93008254369326e-002 1.61394827183409e+002 4.98828570855100e-001 1.67746252291781e+000 4.28570687743298e-001 -1.10895758278172e+001
          1.23202084220205e-001 5.09330766277281e+001
          5.81314841439297e-002 -1.79948309540635e+002 6.18208255998631e-002 -1.61551305690377e+000 1.19706904453654e-001 1.79452234381966e+002 1.86148005922347e-001 -9.10954732384146e-001
          3.05659027945910e-001 1.79719350008407e+002 4.98828570855099e-001 1.67746252291778e+000 1.98280433929126e-001 -9.51513815793765e+000 7.05239617923641e-001 1.67354907754605e+002
          2.04750748010235e-001 -1.24452794783243e+002
          6.11262977769627e-002 1.61204964196582e+002 5.42773401535867e-002 -1.40470398401032e+001 1.15582069017013e-001 1.62869127674190e+002 1.61673358108984e-001 -1.35504141981860e+001
          2.77281017224896e-001 1.64751160875301e+002 4.28570687743298e-001 -1.10895758278171e+001 7.05239617923641e-001 1.67354907754606e+002 1.69366798714782e-001 -4.82491044804245e+001
          3.27206392839096e-001 5.29476325657171e+001
          1.99858673839931e-002 -9.15903613473332e+001 1.48894135871492e-002 5.20588490316814e+001 3.41617321564373e-002 -1.06217222927229e+002 4.55593394637983e-002 5.06365341724536e+001
          7.94893155203175e-002 -1.18823974667925e+002 1.23202084220205e-001 5.09330766277283e+001 2.04750748010235e-001 -1.24452794783242e+002 3.27206392839096e-001 5.29476325657171e+001
          8.21019425282749e-001 -3.30190658609605e+001
         
6.60000000000000e-001 2.48387735519569e-001 1.53393671142932e+002 7.61850531527491e-001 1.74646834500636e+002 4.67185928383988e-001 1.72637552730317e+002 2.93046332469282e-001 1.72116451020215e+002
          1.74844493823965e-001 1.72893791039251e+002 1.17726470023612e-001 1.69331100255462e+002 5.82395555288142e-002 -1.79869083327076e+002 6.10315917003676e-002 1.60756805856029e+002
          2.05013660489402e-002 -9.25549777579553e+001
          7.61850531527491e-001 1.74646834500635e+002 2.42133900888022e-001 1.61331064614237e+002 4.70549593045844e-001 -3.17352387355991e+000 2.93499774538081e-001 -2.53382415285774e+000
          1.77207836620016e-001 -4.83987106359343e+000 1.15413757266434e-001 -6.51526581842139e+000 6.19838625010073e-002 -1.68576196246947e+000 5.40141429252897e-002 -1.42285033832601e+001
          1.51956718323999e-002 5.07640003517261e+001
          4.67185928383988e-001 1.72637552730317e+002 4.70549593045844e-001 -3.17352387355988e+000 9.50457048079854e-002 4.51558472907204e+001 5.85678310066044e-001 1.74910312089603e+002
          3.51457796687853e-001 1.74337221182863e+002 2.32954477570211e-001 1.71223324145066e+002 1.19952427082024e-001 1.79458168555149e+002 1.15249000526417e-001 1.62535214635684e+002
          3.49101391489004e-002 -1.07176246938334e+002
          2.93046332469281e-001 1.72116451020215e+002 2.93499774538081e-001 -2.53382415285764e+000 5.85678310066044e-001 1.74910312089603e+002 1.30287643428673e-001 1.52777856677122e+002
          5.32039666774517e-001 -3.08515475341562e+000 3.45706337586438e-001 -4.53582240481093e+000 1.86635433682793e-001 -9.78536934534775e-001 1.60878535407425e-001 -1.37095604580396e+001
          4.64529965326660e-002 4.93659332640618e+001
          1.74844493823965e-001 1.72893791039251e+002 1.77207836620016e-001 -4.83987106359346e+000 3.51457796687853e-001 1.74337221182863e+002 5.32039666774517e-001 -3.08515475341560e+000
          1.26741665574212e-001 2.02312487673000e+001 5.78110269905361e-001 1.73914883081469e+002 3.06365118286578e-001 1.79686636962024e+002 2.76174786282013e-001 1.64515305976263e+002
          8.10306114841631e-002 -1.19902358515893e+002
          1.17726470023612e-001 1.69331100255462e+002 1.15413757266434e-001 -6.51526581842150e+000 2.32954477570211e-001 1.71223324145066e+002 3.45706337586438e-001 -4.53582240481091e+000
          5.78110269905361e-001 1.73914883081469e+002 8.02854883727993e-002 1.61065283157588e+002 5.00157828144196e-001 1.64157380064165e+000 4.26427157077819e-001 -1.11963943970495e+001
          1.25548147167010e-001 4.96911641079010e+001
          5.82395555288143e-002 -1.79869083327076e+002 6.19838625010074e-002 -1.68576196246933e+000 1.19952427082024e-001 1.79458168555149e+002 1.86635433682793e-001 -9.78536934535146e-001
          3.06365118286577e-001 1.79686636962024e+002 5.00157828144196e-001 1.64157380064147e+000 1.96258289041234e-001 -9.56913793188542e+000 7.01991898638766e-001 1.67198701295331e+002
          2.08561163199651e-001 -1.25603855595385e+002
          6.10315917003676e-002 1.60756805856029e+002 5.40141429252897e-002 -1.42285033832599e+001 1.15249000526417e-001 1.62535214635684e+002 1.60878535407425e-001 -1.37095604580399e+001
          2.76174786282013e-001 1.64515305976263e+002 4.26427157077819e-001 -1.11963943970495e+001 7.01991898638766e-001 1.67198701295331e+002 1.65431085150737e-001 -4.96629270222064e+001
          3.33328274713882e-001 5.17495704041183e+001
          2.05013660489402e-002 -9.25549777579552e+001 1.51956718323999e-002 5.07640003517260e+001 3.49101391489004e-002 -1.07176246938334e+002 4.64529965326660e-002 4.93659332640618e+001
          8.10306114841631e-002 -1.19902358515894e+002 1.25548147167010e-001 4.96911641079009e+001 2.08561163199651e-001 -1.25603855595385e+002 3.33328274713882e-001 5.17495704041183e+001
          8.09657932152364e-001 -3.36857484331289e+001
         
6.70000000000000e-001 2.48791253832235e-001 1.53017930210954e+002 7.61769096791719e-001 1.74565478996138e+002 4.67101604856704e-001 1.72528864499166e+002 2.92986585394345e-001 1.71993369471446e+002
          1.74840094508176e-001 1.72799218586035e+002 1.17651628292793e-001 1.69142881129983e+002 5.83560099367929e-002 -1.79794636295734e+002 6.09243897300772e-002 1.60310204687389e+002
          2.10109635118711e-002 -9.35353426980135e+001
          7.61769096791719e-001 1.74565478996138e+002 2.42364817429606e-001 1.61057876535664e+002 4.70570067244331e-001 -3.22146448651666e+000 2.93469025349080e-001 -2.56958102333502e+000
          1.77262748697817e-001 -4.91655742851980e+000 1.15303432777338e-001 -6.59745114784264e+000 6.21490578996623e-002 -1.76336730355462e+000 5.37452123736653e-002 -1.43978287979117e+001
          1.54953474633403e-002 4.94539467017441e+001
          4.67101604856703e-001 1.72528864499166e+002 4.70570067244331e-001 -3.22146448651666e+000 9.58911376648980e-002 4.54798503499467e+001 5.85564015370370e-001 1.74832824503708e+002
          3.51484818067837e-001 1.74256281574323e+002 2.32771076360391e-001 1.71084554896669e+002 1.20207595649587e-001 1.79458641146712e+002 1.14898021941648e-001 1.62206460795235e+002
          3.56461322487494e-002 -1.08150138601232e+002
          2.92986585394345e-001 1.71993369471446e+002 2.93469025349080e-001 -2.56958102333499e+000 5.85564015370370e-001 1.74832824503708e+002 1.30723717681419e-001 1.52407056264154e+002
          5.32209874617359e-001 -3.13677853990276e+000 3.45378326737011e-001 -4.58404025184835e+000 1.87127633006645e-001 -1.05337460194710e+000 1.60069049483121e-001 -1.38562703290917e+001
          4.73261689176330e-002 4.80812456875937e+001
          1.74840094508176e-001 1.72799218586036e+002 1.77262748697817e-001 -4.91655742851948e+000 3.51484818067837e-001 1.74256281574323e+002 5.32209874617359e-001 -3.13677853990254e+000
          1.26875679549531e-001 2.05412418280873e+001 5.77589770524292e-001 1.73832632351602e+002 3.07084367358333e-001 1.79647573963273e+002 2.75036351514958e-001 1.64288286682203e+002
          8.25369630151405e-002 -1.20994080747065e+002
          1.17651628292793e-001 1.69142881129983e+002 1.15303432777338e-001 -6.59745114784239e+000 2.32771076360391e-001 1.71084554896669e+002 3.45378326737011e-001 -4.58404025184841e+000
          5.77589770524293e-001 1.73832632351602e+002 8.12894911964100e-002 1.60716015046929e+002 5.01496189203137e-001 1.59838163130778e+000 4.24250299389393e-001 -1.12902102915784e+001
          1.27837909998837e-001 4.84357932502951e+001
          5.83560099367928e-002 -1.79794636295734e+002 6.21490578996623e-002 -1.76336730355488e+000 1.20207595649587e-001 1.79458641146712e+002 1.87127633006645e-001 -1.05337460194708e+000
          3.07084367358333e-001 1.79647573963272e+002 5.01496189203137e-001 1.59838163130774e+000 1.94197359058990e-001 -9.59668427562437e+000 6.98678967888941e-001 1.67053686439703e+002
          2.12276589637797e-001 -1.26767845005481e+002
          6.09243897300771e-002 1.60310204687389e+002 5.37452123736652e-002 -1.43978287979117e+001 1.14898021941648e-001 1.62206460795234e+002 1.60069049483121e-001 -1.38562703290918e+001
          2.75036351514958e-001 1.64288286682203e+002 4.24250299389393e-001 -1.12902102915784e+001 6.98678967888941e-001 1.67053686439703e+002 1.61359636109466e-001 -5.10942576475653e+001
          3.39298882193154e-001 5.05383977315080e+001
          2.10109635118710e-002 -9.35353426980136e+001 1.54953474633403e-002 4.94539467017441e+001 3.56461322487493e-002 -1.08150138601232e+002 4.73261689176330e-002 4.80812456875935e+001
          8.25369630151405e-002 -1.20994080747065e+002 1.27837909998837e-001 4.84357932502950e+001 2.12276589637797e-001 -1.26767845005481e+002 3.39298882193154e-001 5.05383977315080e+001
          7.97908285105242e-001 -3.43354578480753e+001
         
6.80000000000000e-001 2.49200560704135e-001 1.52643294392441e+002 7.61685931932789e-001 1.74484164885331e+002 4.67017303360471e-001 1.72420201141331e+002 2.92924439794516e-001 1.71870506441393e+002
          1.74838280895000e-001 1.72704347222539e+002 1.17571718787036e-001 1.68955808482989e+002 5.84802039839578e-002 -1.79725577322481e+002 6.08053040956292e-002 1.59866090990703e+002
          2.15136777580759e-002 -9.45272531125849e+001
          7.61685931932789e-001 1.74484164885331e+002 2.42599045792404e-001 1.60784981975173e+002 4.70591295694352e-001 -3.26953300241810e+000 2.93438155156661e-001 -2.60494519250607e+000
          1.77318683034318e-001 -4.99415797612787e+000 1.15192028609575e-001 -6.67704989404136e+000 6.23157150960770e-002 -1.84836278168814e+000 5.34715897108602e-002 -1.45544660871254e+001
          1.57877869433547e-002 4.81321129035518e+001
          4.67017303360471e-001 1.72420201141331e+002 4.70591295694352e-001 -3.26953300241800e+000 9.67407190477463e-002 4.57975781168894e+001 5.85446820727629e-001 1.74755624055426e+002
          3.51514981530465e-001 1.74174808957697e+002 2.32581469401168e-001 1.70947436725656e+002 1.20471238554390e-001 1.79453371175383e+002 1.14530501053337e-001 1.61883536809923e+002
          3.63682422601656e-002 -1.09135406635671e+002
          2.92924439794516e-001 1.71870506441393e+002 2.93438155156661e-001 -2.60494519250576e+000 5.85446820727629e-001 1.74755624055426e+002 1.31166525907090e-001 1.52036109991349e+002
          5.32382425851677e-001 -3.18933241351155e+000 3.45048557288108e-001 -4.62964139835570e+000 1.87622593626510e-001 -1.13545586053138e+000 1.59247976769862e-001 -1.39900688212108e+001
          4.81770633558063e-002 4.67856870479652e+001
          1.74838280895000e-001 1.72704347222539e+002 1.77318683034318e-001 -4.99415797612831e+000 3.51514981530465e-001 1.74174808957697e+002 5.32382425851677e-001 -3.18933241351160e+000
          1.27014704428851e-001 2.08561573029624e+001 5.77061155370293e-001 1.73752539584342e+002 3.07813746334932e-001 1.79602074210200e+002 2.73869855461285e-001 1.64070623311207e+002
          8.40053726526665e-002 -1.22095999250267e+002
          1.17571718787036e-001 1.68955808482989e+002 1.15192028609575e-001 -6.67704989404169e+000 2.32581469401168e-001 1.70947436725656e+002 3.45048557288109e-001 -4.62964139835566e+000
          5.77061155370293e-001 1.73752539584342e+002 8.23100919812002e-002 1.60347198530933e+002 5.02838346155497e-001 1.54793627222651e+000 4.22048433165589e-001 -1.13705993545192e+001
          1.30066820239365e-001 4.71700666661534e+001
          5.84802039839578e-002 -1.79725577322481e+002 6.23157150960769e-002 -1.84836278168793e+000 1.20471238554390e-001 1.79453371175383e+002 1.87622593626509e-001 -1.13545586053151e+000
          3.07813746334932e-001 1.79602074210200e+002 5.02838346155496e-001 1.54793627222637e+000 1.92105613287683e-001 -9.59626868642979e+000 6.95313005193584e-001 1.66920312605003e+002
          2.15889760156966e-001 -1.27941730768585e+002
          6.08053040956291e-002 1.59866090990704e+002 5.34715897108600e-002 -1.45544660871252e+001 1.14530501053337e-001 1.61883536809923e+002 1.59247976769862e-001 -1.39900688212110e+001
          2.73869855461285e-001 1.64070623311207e+002 4.22048433165589e-001 -1.13705993545193e+001 6.95313005193584e-001 1.66920312605003e+002 1.57162645466995e-001 -5.25423865563683e+001
          3.45106545318508e-001 4.93171557671337e+001
          2.15136777580759e-002 -9.45272531125848e+001 1.57877869433547e-002 4.81321129035520e+001 3.63682422601657e-002 -1.09135406635671e+002 4.81770633558063e-002 4.67856870479653e+001
          8.40053726526665e-002 -1.22095999250267e+002 1.30066820239364e-001 4.71700666661533e+001 2.15889760156966e-001 -1.27941730768585e+002 3.45106545318508e-001 4.93171557671337e+001
          7.85803294573275e-001 -3.49658925495724e+001
         
6.90000000000000e-001 2.49615632042788e-001 1.52269753992368e+002 7.61601095594467e-001 1.74402895960626e+002 4.66932969923443e-001 1.72311548852070e+002 2.92860056493363e-001 1.71747887491166e+002
          1.74838845387409e-001 1.72609102910501e+002 1.17487131141369e-001 1.68770044429787e+002 5.86114071575731e-002 -1.79662370001927e+002 6.06751167753752e-002 1.59425265036118e+002
          2.20087774155905e-002 -9.55264940843313e+001
          7.61601095594467e-001 1.74402895960626e+002 2.42836523098808e-001 1.60512382248492e+002 4.70613171732167e-001 -3.31773497132145e+000 2.93407341466899e-001 -2.63991811239709e+000
          1.77375378645821e-001 -5.07268533481133e+000 1.15079992290345e-001 -6.75405215058218e+000 6.24831442040589e-002 -1.94067996990317e+000 5.31943481550917e-002 -1.46980319617262e+001
          1.60724843345653e-002 4.68019766195835e+001
          4.66932969923443e-001 1.72311548852070e+002 4.70613171732167e-001 -3.31773497132147e+000 9.75945488184096e-002 4.61091513147907e+001 5.85327025159187e-001 1.74678722553775e+002
          3.51547878699646e-001 1.74092763759690e+002 2.32386384943001e-001 1.70812052967211e+002 1.20742115764190e-001 1.79442185872891e+002 1.14147987184322e-001 1.61566986372690e+002
          3.70753527177076e-002 -1.10128514072753e+002
          2.92860056493363e-001 1.71747887491166e+002 2.93407341466899e-001 -2.63991811239715e+000 5.85327025159187e-001 1.74678722553775e+002 1.31615640261556e-001 1.51664984419331e+002
          5.32556559068853e-001 -3.24282150589297e+000 3.44718331237010e-001 -4.67263521772421e+000 1.88118350629341e-001 -1.22467369097434e+000 1.58418448213984e-001 -1.41106449942905e+001
          4.90043248102366e-002 4.54825084594204e+001
          1.74838845387409e-001 1.72609102910501e+002 1.77375378645821e-001 -5.07268533481114e+000 3.51547878699645e-001 1.74092763759690e+002 5.32556559068853e-001 -3.24282150589303e+000
          1.27160090745982e-001 2.11758479871250e+001 5.76526347407465e-001 1.73674631372708e+002 3.08550219136327e-001 1.79550145605058e+002 2.72679654160795e-001 1.63862696900814e+002
          8.54336007466336e-002 -1.23204938838790e+002
          1.17487131141370e-001 1.68770044429787e+002 1.15079992290345e-001 -6.75405215058234e+000 2.32386384943001e-001 1.70812052967211e+002 3.44718331237010e-001 -4.67263521772395e+000
          5.76526347407465e-001 1.73674631372708e+002 8.33445293092679e-002 1.59959336087411e+002 5.04179164868408e-001 1.49037918901617e+000 4.19829941560199e-001 -1.14373029937965e+001
          1.32231490215023e-001 4.58971129012528e+001
          5.86114071575731e-002 -1.79662370001927e+002 6.24831442040589e-002 -1.94067996990331e+000 1.20742115764190e-001 1.79442185872891e+002 1.88118350629341e-001 -1.22467369097437e+000
