! IGNION VIRTUAL ANTENNA LIBRARY
!
! NN_RUN_B30x30_C14x5
! Virtual Antenna™ RUN mXTEND™: NN02-224 12.0 mm x 3.0 mm x 2.4 mm
! https://ignion.io/product/run-mxtend/
! Board: 30 mm x 30 mm
! Clearance Area: 14 mm x 5 mm
! Feeding line: straight line; 5mm x 2mm
! Applications: Wearables
! Frequency range 0.65GHz to 6GHz, step 10MHz
! Number of ports 9
!
! This product and its use is protected by at least one or more of the following patents and patent
! applications US 8,203,492 B2; US 8,237,615 B2; PCT/EP2013/064692; WO 2014/012842 A1; US 2019/190122 A1;
! US 62/072,671; and other domestic and international patents pending. Additional information about
! patents related to this product is available at https://ignion.io/files/Patent-list-NN.pdf, all
! rights reserved. Copyright, Ignion 2021.
!
! Need more help? Your platform is much different than these examples in the manual? Use our 
! Fast Track service (https://ignion.io/fast-track/), for free, and get a personalized antenna design in
! just 24 hours.
!
! 
! Touchstone port 1 = "Series Port"
! Touchstone port 2 = "Shunt Port"
! Touchstone port 3 = "Series Port"
! Touchstone port 4 = "Shunt Port"
! Touchstone port 5 = "Series Port"
! Touchstone port 6 = "Shunt Port"
! Touchstone port 7 = "Series Port"
! Touchstone port 8 = "Shunt Port"
! Touchstone port 9 = "Series Port"
!
! IE3D S-Parameters Output Version 2.0  
# GHZ S MA R 50
! Nport = 9
!

 6.5000000000e-001  2.5343718208e-001 1.4981108227e+002  7.6085339335e-001 -6.2220690644e+000  4.6703248748e-001 1.7206506479e+002  2.9297755336e-001 -8.1807927057e+000
          1.7478791602e-001 1.7187268109e+002  1.1809448224e-001 -9.4167818064e+000  5.7230607719e-002 1.7462998500e+002  6.1073530163e-002 -1.1429364219e+001
          7.5397269980e-003 -7.0524486713e+001
          7.6085339335e-001 -6.2220690644e+000  2.4326348942e-001 1.5949617806e+002  4.7095401890e-001 1.7730373976e+002  2.9459307320e-001 -1.9339150328e+000
          1.7651411241e-001 1.7542948921e+002  1.1741432443e-001 -4.9776111602e+000  5.9144365821e-002 1.7632279179e+002  5.8229086417e-002 -8.8216952477e+000
          5.7456654830e-003 -1.0557016105e+002
          4.6703248748e-001 1.7206506479e+002  4.7095401890e-001 1.7730373976e+002  9.5731201983e-002 4.5473951703e+001  5.8640817398e-001 -4.9367478258e+000
          3.5071160374e-001 1.7399090079e+002  2.3514910908e-001 -7.4182803976e+000  1.1633530509e-001 1.7595236727e+002  1.1909709900e-001 -1.1036598439e+001
          1.4717932562e-002 -8.8326548300e+001
          2.9297755336e-001 -8.1807927057e+000  2.9459307320e-001 -1.9339150328e+000  5.8640817398e-001 -4.9367478258e+000  1.2621626417e-001 1.5482183783e+002
          5.2951897408e-001 1.7741029133e+002  3.5194552625e-001 -2.7799488074e+000  1.7763502154e-001 1.7723102824e+002  1.7431177716e-001 -8.8519373686e+000
          1.9534211901e-002 -1.0584370616e+002
          1.7478791602e-001 1.7187268109e+002  1.7651411241e-001 1.7542948921e+002  3.5071160374e-001 1.7399090079e+002  5.2951897408e-001 1.7741029133e+002
          1.2875353706e-001 1.8671237631e+001  5.8639535045e-001 -4.5072408601e+000  2.9392735103e-001 1.7733619745e+002  2.9308114112e-001 -1.0094405742e+001
          3.6848207036e-002 -9.8706341370e+001
          1.1809448224e-001 -9.4167818064e+000  1.1741432443e-001 -4.9776111602e+000  2.3514910908e-001 -7.4182803976e+000  3.5194552625e-001 -2.7799488074e+000
          5.8639535045e-001 -4.5072408601e+000  6.6571692429e-002 1.5426424660e+002  4.7464293205e-001 1.7963614401e+002  4.6394720930e-001 -7.1515548875e+000
          5.5962894508e-002 -1.0504401779e+002
          5.7230607719e-002 1.7462998500e+002  5.9144365821e-002 1.7632279179e+002  1.1633530509e-001 1.7595236727e+002  1.7763502154e-001 1.7723102824e+002
          2.9392735103e-001 1.7733619745e+002  4.7464293205e-001 1.7963614401e+002  2.3123829205e-001 -9.2779552546e-001  7.5622918699e-001 -8.3096285931e+000
          9.8280249978e-002 -1.0233008723e+002
          6.1073530163e-002 -1.1429364219e+001  5.8229086417e-002 -8.8216952477e+000  1.1909709900e-001 -1.1036598439e+001  1.7431177716e-001 -8.8519373686e+000
          2.9308114112e-001 -1.0094405742e+001  4.6394720930e-001 -7.1515548875e+000  7.5622918699e-001 -8.3096285931e+000  2.2147761751e-001 -1.5099711914e+001
          1.5398163630e-001 -1.0408411015e+002
          7.5397269980e-003 -7.0524486713e+001  5.7456654830e-003 -1.0557016105e+002  1.4717932562e-002 -8.8326548300e+001  1.9534211901e-002 -1.0584370616e+002
          3.6848207036e-002 -9.8706341370e+001  5.5962894508e-002 -1.0504401779e+002  9.8280249978e-002 -1.0233008723e+002  1.5398163630e-001 -1.0408411015e+002
          9.7792389664e-001 -1.5924873462e+001
 6.6000000000e-001  2.5399029086e-001 1.4938300637e+002  7.6075072060e-001 -6.3174207820e+000  4.6692612640e-001 1.7194327627e+002  2.9294561749e-001 -8.3069187884e+000
          1.7473634970e-001 1.7174890485e+002  1.1810889272e-001 -9.5655894235e+000  5.7182206094e-002 1.7456221072e+002  6.1143638889e-002 -1.1623473116e+001
          7.7123099202e-003 -7.0422995936e+001
          7.6075072060e-001 -6.3174207820e+000  2.4352408405e-001 1.5919374206e+002  4.7097146779e-001 1.7726195604e+002  2.9461171961e-001 -1.9642848460e+000
          1.7651766724e-001 1.7535936965e+002  1.1740795396e-001 -5.0546528842e+000  5.9155583227e-002 1.7626738139e+002  5.8210548133e-002 -8.9599046862e+000
          5.8397495090e-003 -1.0581470035e+002
          4.6692612640e-001 1.7194327627e+002  4.7097146779e-001 1.7726195604e+002  9.6640061236e-002 4.5796338393e+001  5.8635906951e-001 -5.0128185436e+000
          3.5064539345e-001 1.7389940836e+002  2.3514596366e-001 -7.5345567157e+000  1.1629719081e-001 1.7589784616e+002  1.1914234109e-001 -1.1216552059e+001
          1.4986261521e-002 -8.8336797748e+001
          2.9294561749e-001 -8.3069187884e+000  2.9461171961e-001 -1.9642848460e+000  5.8635906951e-001 -5.0128185436e+000  1.2648247592e-001 1.5446775509e+002
          5.2952956080e-001 1.7737070955e+002  3.5191741766e-001 -2.8228768719e+000  1.7767552381e-001 1.7718930434e+002  1.7424395352e-001 -8.9908930547e+000
          1.9853416743e-002 -1.0609447166e+002
          1.7473634970e-001 1.7174890485e+002  1.7651766724e-001 1.7535936965e+002  3.5064539345e-001 1.7389940836e+002  5.2952956080e-001 1.7737070955e+002
          1.2907157032e-001 1.8913147597e+001  5.8634219857e-001 -4.5774406058e+000  2.9392832269e-001 1.7729851675e+002  2.9304854617e-001 -1.0255268375e+001
          3.7458030078e-002 -9.8849914033e+001
          1.1810889272e-001 -9.5655894235e+000  1.1740795396e-001 -5.0546528842e+000  2.3514596366e-001 -7.5345567157e+000  3.5191741766e-001 -2.8228768719e+000
          5.8634219857e-001 -4.5774406058e+000  6.6811024064e-002 1.5393780697e+002  4.7478139176e-001 1.7963063274e+002  4.6373945734e-001 -7.2639139129e+000
          5.6872336377e-002 -1.0528282829e+002
          5.7182206094e-002 1.7456221072e+002  5.9155583227e-002 1.7626738139e+002  1.1629719081e-001 1.7589784616e+002  1.7767552381e-001 1.7718930434e+002
          2.9392832269e-001 1.7729851675e+002  4.7478139176e-001 1.7963063274e+002  2.3109576476e-001 -9.4593718155e-001  7.5596407311e-001 -8.4409750581e+000
          9.9870835854e-002 -1.0252720954e+002
          6.1143638889e-002 -1.1623473116e+001  5.8210548133e-002 -8.9599046862e+000  1.1914234109e-001 -1.1216552059e+001  1.7424395352e-001 -8.9908930547e+000
          2.9304854617e-001 -1.0255268375e+001  4.6373945734e-001 -7.2639139129e+000  7.5596407311e-001 -8.4409750581e+000  2.2103365629e-001 -1.5363128848e+001
          1.5647060891e-001 -1.0430810679e+002
          7.7123099202e-003 -7.0422995936e+001  5.8397495090e-003 -1.0581470035e+002  1.4986261521e-002 -8.8336797748e+001  1.9853416743e-002 -1.0609447166e+002
          3.7458030078e-002 -9.8849914033e+001  5.6872336377e-002 -1.0528282829e+002  9.9870835854e-002 -1.0252720954e+002  1.5647060891e-001 -1.0430810679e+002
          9.7722406700e-001 -1.6185930545e+001
 6.7000000000e-001  2.5455027273e-001 1.4895638347e+002  7.6064652685e-001 -6.4127557509e+000  4.6681812574e-001 1.7182150238e+002  2.9291319695e-001 -8.4330590205e+000
          1.7468398348e-001 1.7162519326e+002  1.1812349885e-001 -9.7145879966e+000  5.7133146045e-002 1.7449517980e+002  6.1214801258e-002 -1.1818435765e+001
          7.8872459863e-003 -7.0327875212e+001
          7.6064652685e-001 -6.4127557509e+000  2.4378826109e-001 1.5889186388e+002  4.7098918175e-001 1.7722015895e+002  2.9463062400e-001 -1.9946820989e+000
          1.7652129946e-001 1.7528925922e+002  1.1740145361e-001 -5.1317138794e+000  5.9167026787e-002 1.7621201862e+002  5.8191656205e-002 -9.0982261290e+000
          5.9341007586e-003 -1.0605988884e+002
          4.6681812574e-001 1.7182150238e+002  4.7098918175e-001 1.7722015895e+002  9.7553796077e-002 4.6110709191e+001  5.8630920202e-001 -5.0888953645e+000
          3.5057819496e-001 1.7380796284e+002  2.3514270243e-001 -7.6509355689e+000  1.1625864428e-001 1.7584369739e+002  1.1918818083e-001 -1.1396988749e+001
          1.5256509066e-002 -8.8348930259e+001
          2.9291319695e-001 -8.4330590205e+000  2.9463062400e-001 -1.9946820989e+000  5.8630920202e-001 -5.0888953645e+000  1.2675213176e-001 1.5411501755e+002
          5.2954040051e-001 1.7733113907e+002  3.5188877007e-001 -2.8658088379e+000  1.7771683832e-001 1.7714761122e+002  1.7417483585e-001 -9.1299707036e+000
          2.0173490498e-002 -1.0634594103e+002
          1.7468398348e-001 1.7162519326e+002  1.7652129946e-001 1.7528925922e+002  3.5057819496e-001 1.7380796284e+002  5.2954040051e-001 1.7733113907e+002
          1.2939332754e-001 1.9153291636e+001  5.8628804370e-001 -4.6476788998e+000  2.9392965471e-001 1.7726098452e+002  2.9301510018e-001 -1.0416391763e+001
          3.8069848705e-002 -9.8994280287e+001
          1.1812349885e-001 -9.7145879966e+000  1.1740145361e-001 -5.1317138794e+000  2.3514270243e-001 -7.6509355689e+000  3.5188877007e-001 -2.8658088379e+000
          5.8628804370e-001 -4.6476788998e+000  6.7053503231e-002 1.5361399114e+002  4.7492248628e-001 1.7962511355e+002  4.6352780144e-001 -7.3763718031e+000
          5.7784020689e-002 -1.0552233942e+002
          5.7133146045e-002 1.7449517980e+002  5.9167026787e-002 1.7621201862e+002  1.1625864428e-001 1.7584369739e+002  1.7771683832e-001 1.7714761122e+002
          2.9392965471e-001 1.7726098452e+002  4.7492248628e-001 1.7962511355e+002  2.3095024033e-001 -9.6423016663e-001  7.5569381836e-001 -8.5724793695e+000
          1.0146504164e-001 -1.0272502431e+002
          6.1214801258e-002 -1.1818435765e+001  5.8191656205e-002 -9.0982261290e+000  1.1918818083e-001 -1.1396988749e+001  1.7417483585e-001 -9.1299707036e+000
          2.9301510018e-001 -1.0416391763e+001  4.6352780144e-001 -7.3763718031e+000  7.5569381836e-001 -8.5724793695e+000  2.2058186095e-001 -1.5628105214e+001
          1.5896510700e-001 -1.0453279474e+002
          7.8872459863e-003 -7.0327875212e+001  5.9341007586e-003 -1.0605988884e+002  1.5256509066e-002 -8.8348930259e+001  2.0173490498e-002 -1.0634594103e+002
          3.8069848705e-002 -9.8994280287e+001  5.7784020689e-002 -1.0552233942e+002  1.0146504164e-001 -1.0272502431e+002  1.5896510700e-001 -1.0453279474e+002
          9.7651087578e-001 -1.6447755669e+001
 6.8000000000e-001  2.5511706737e-001 1.4853122180e+002  7.6054081342e-001 -6.5080737426e+000  4.6670848442e-001 1.7169974344e+002  2.9288029130e-001 -8.5592137707e+000
          1.7463081697e-001 1.7150154786e+002  1.1813829873e-001 -9.8637812633e+000  5.7083432991e-002 1.7442890842e+002  6.1287015366e-002 -1.2014266501e+001
          8.0645582232e-003 -7.0239077281e+001
          7.6054081342e-001 -6.5080737426e+000  2.4405600462e-001 1.5859054936e+002  4.7100716048e-001 1.7717834832e+002  2.9464978484e-001 -2.0251071360e+000
          1.7652501013e-001 1.7521915807e+002  1.1739482160e-001 -5.2087942505e+000  5.9178699346e-002 1.7615670362e+002  5.8172406742e-002 -9.2366609421e+000
          6.0287236386e-003 -1.0630573883e+002
          4.6670848442e-001 1.7169974344e+002  4.7100716048e-001 1.7717834832e+002  9.8472254101e-002 4.6417245473e+001  5.8625856993e-001 -5.1649784219e+000
          3.5051000959e-001 1.7371656516e+002  2.3513932108e-001 -7.7674188103e+000  1.1621967410e-001 1.7578992780e+002  1.1923461195e-001 -1.1577917157e+001
          1.5528703881e-002 -8.8362967495e+001
          2.9288029130e-001 -8.5592137707e+000  2.9464978484e-001 -2.0251071360e+000  5.8625856993e-001 -5.1649784219e+000  1.2702520887e-001 1.5376363393e+002
          5.2955149745e-001 1.7729158002e+002  3.5185957755e-001 -2.9087444494e+000  1.7775897483e-001 1.7710594847e+002  1.7410441023e-001 -9.2691715703e+000
          2.0494446780e-002 -1.0659812719e+002
          1.7463081697e-001 1.7150154786e+002  1.7652501013e-001 1.7521915807e+002  3.5051000959e-001 1.7371656516e+002  5.2955149745e-001 1.7729158002e+002
          1.2971876375e-001 1.9391663194e+001  5.8623287498e-001 -4.7179562268e+000  2.9393136530e-001 1.7722360264e+002  2.9298078272e-001 -1.0577780180e+001
          3.8683694145e-002 -9.9139454171e+001
          1.1813829873e-001 -9.8637812633e+000  1.1739482160e-001 -5.2087942505e+000  2.3513932108e-001 -7.7674188103e+000  3.5185957755e-001 -2.9087444494e+000
          5.8623287498e-001 -4.7179562268e+000  6.7299118489e-002 1.5329280488e+002  4.7506624144e-001 1.7961958524e+002  4.6331220267e-001 -7.4889291926e+000
          5.8697981394e-002 -1.0576256390e+002
          5.7083432991e-002 1.7442890842e+002  5.9178699346e-002 1.7615670362e+002  1.1621967410e-001 1.7578992780e+002  1.7775897483e-001 1.7710594847e+002
          2.9393136530e-001 1.7722360264e+002  4.7506624144e-001 1.7961958524e+002  2.3080167527e-001 -9.8267419446e-001  7.5541836299e-001 -8.7041435049e+000
          1.0306292061e-001 -1.0292354408e+002
          6.1287015366e-002 -1.2014266501e+001  5.8172406742e-002 -9.2366609421e+000  1.1923461195e-001 -1.1577917157e+001  1.7410441023e-001 -9.2691715703e+000
          2.9298078272e-001 -1.0577780180e+001  4.6331220267e-001 -7.4889291926e+000  7.5541836299e-001 -8.7041435049e+000  2.2012217340e-001 -1.5894675427e+001
          1.6146521165e-001 -1.0475818652e+002
          8.0645582232e-003 -7.0239077281e+001  6.0287236386e-003 -1.0630573883e+002  1.5528703881e-002 -8.8362967495e+001  2.0494446780e-002 -1.0659812719e+002
          3.8683694145e-002 -9.9139454171e+001  5.8697981394e-002 -1.0576256390e+002  1.0306292061e-001 -1.0292354408e+002  1.6146521165e-001 -1.0475818652e+002
          9.7578416506e-001 -1.6710362758e+001
 6.9000000000e-001  2.5569061419e-001 1.4810752918e+002  7.6043358162e-001 -6.6033745300e+000  4.6659720130e-001 1.7157799980e+002  2.9284690006e-001 -8.6853834152e+000
          1.7457684981e-001 1.7137797018e+002  1.1815329038e-001 -1.0013173000e+001  5.7033072567e-002 1.7436341297e+002  6.1360279212e-002 -1.2210979728e+001
          8.2442694762e-003 -7.0156554150e+001
          7.6043358162e-001 -6.6033745300e+000  2.4432729858e-001 1.5828980423e+002  4.7102540365e-001 1.7713652400e+002  2.9466920058e-001 -2.0555602981e+000
          1.7652880033e-001 1.7514906632e+002  1.1738805611e-001 -5.2858940904e+000  5.9190603810e-002 1.7610143651e+002  5.8152795771e-002 -9.3752104636e+000
          6.1236225626e-003 -1.0655226275e+002
          4.6659720130e-001 1.7157799980e+002  4.7102540365e-001 1.7713652400e+002  9.9395287526e-002 4.6716125033e+001  5.8620717160e-001 -5.2410678506e+000
          3.5044083871e-001 1.7362521629e+002  2.3513581517e-001 -7.8840083051e+000  1.1618028911e-001 1.7573654428e+002  1.1928162796e-001 -1.1759345986e+001
          1.5802874617e-002 -8.8378930915e+001
          2.9284690006e-001 -8.6853834152e+000  2.9466920058e-001 -2.0555602981e+000  5.8620717160e-001 -5.2410678506e+000  1.2730168438e-001 1.5341361261e+002
          5.2956285595e-001 1.7725203250e+002  3.5182983409e-001 -2.9516834322e+000  1.7780194325e-001 1.7706431562e+002  1.7403266250e-001 -9.4084968663e+000
          2.0816299183e-002 -1.0685104310e+002
          1.7457684981e-001 1.7137797018e+002  1.7652880033e-001 1.7514906632e+002  3.5044083871e-001 1.7362521629e+002  5.2956285595e-001 1.7725203250e+002
          1.3004783379e-001 1.9628256314e+001  5.8617668131e-001 -4.7882730641e+000  2.9393347310e-001 1.7718637294e+002  2.9294557290e-001 -1.0739437903e+001
          3.9299597593e-002 -9.9285449816e+001
          1.1815329038e-001 -1.0013173000e+001  1.1738805611e-001 -5.2858940904e+000  2.3513581517e-001 -7.8840083051e+000  3.5182983409e-001 -2.9516834322e+000
          5.8617668131e-001 -4.7882730641e+000  6.7547858817e-002 1.5297425309e+002  4.7521268352e-001 1.7961404654e+002  4.6309262136e-001 -7.6015866582e+000
          5.9614252329e-002 -1.0600351458e+002
          5.7033072567e-002 1.7436341297e+002  5.9190603810e-002 1.7610143651e+002  1.1618028911e-001 1.7573654428e+002  1.7780194325e-001 1.7706431562e+002
          2.9393347310e-001 1.7718637294e+002  4.7521268352e-001 1.7961404654e+002  2.3065002527e-001 -1.0012688165e+000  7.5513764605e-001 -8.8359694086e+000
          1.0466452577e-001 -1.0312278149e+002
          6.1360279212e-002 -1.2210979728e+001  5.8152795771e-002 -9.3752104636e+000  1.1928162796e-001 -1.1759345986e+001  1.7403266250e-001 -9.4084968663e+000
          2.9294557290e-001 -1.0739437903e+001  4.6309262136e-001 -7.6015866582e+000  7.5513764605e-001 -8.8359694086e+000  2.1965453462e-001 -1.6162874488e+001
          1.6397100354e-001 -1.0498429478e+002
          8.2442694762e-003 -7.0156554150e+001  6.1236225626e-003 -1.0655226275e+002  1.5802874617e-002 -8.8378930915e+001  2.0816299183e-002 -1.0685104310e+002
          3.9299597593e-002 -9.9285449816e+001  5.9614252329e-002 -1.0600351458e+002  1.0466452577e-001 -1.0312278149e+002  1.6397100354e-001 -1.0498429478e+002
          9.7504377356e-001 -1.6973765838e+001
 7.0000000000e-001  2.5627085240e-001 1.4768531302e+002  7.6032483278e-001 -6.6986578875e+000  4.6648427528e-001 1.7145627181e+002  2.9281302270e-001 -8.8115683372e+000
          1.7452208164e-001 1.7125446182e+002  1.1816847174e-001 -1.0162767021e+001  5.6982070633e-002 1.7429871006e+002  6.1434590690e-002 -1.2408589916e+001
          8.4264024178e-003 -7.0080257206e+001
          7.6032483278e-001 -6.6986578875e+000  2.4460212676e-001 1.5798963413e+002  4.7104391097e-001 1.7709468581e+002  2.9468886965e-001 -2.0860419222e+000
          1.7653267118e-001 1.7507898409e+002  1.1738115528e-001 -5.3630134802e+000  5.9202743141e-002 1.7604621735e+002  5.8132819233e-002 -9.5138760024e+000
          6.2188019498e-003 -1.0679947313e+002
          4.6648427528e-001 1.7145627181e+002  4.7104391097e-001 1.7709468581e+002  1.0032275305e-001 4.7007522057e+001  5.8615500535e-001 -5.3171637870e+000
          3.5037068376e-001 1.7353391721e+002  2.3513218012e-001 -8.0007059300e+000  1.1614049842e-001 1.7568355375e+002  1.1932922217e-001 -1.1941284000e+001
          1.6079049891e-002 -8.8396841782e+001
          2.9281302270e-001 -8.8115683372e+000  2.9468886965e-001 -2.0860419222e+000  5.8615500535e-001 -5.3171637870e+000  1.2758153536e-001 1.5306496157e+002
          5.2957448042e-001 1.7721249658e+002  3.5179953358e-001 -2.9946254931e+000  1.7784575368e-001 1.7702271214e+002  1.7395957819e-001 -9.5479477587e+000
          2.1139061284e-002 -1.0710470188e+002
          1.7452208164e-001 1.7125446182e+002  1.7653267118e-001 1.7507898409e+002  3.5037068376e-001 1.7353391721e+002  5.2957448042e-001 1.7721249658e+002
          1.3038049233e-001 1.9863065631e+001  5.8611945135e-001 -4.8586298802e+000  2.9393599715e-001 1.7714929723e+002  2.9290944931e-001 -1.0901369218e+001
          3.9917590206e-002 -9.9432281448e+001
