! IGNION VIRTUAL ANTENNA LIBRARY
!
! NN_RUN_B145x130_C45x24
! Virtual Antenna™ RUN mXTEND™: NN02-224 12.0 mm x 3.0 mm x 2.4 mm
! https://ignion.io/product/run-mxtend/
! Board: 145 mm x 130 mm
! Clearance Area: 45 mm x 24 mm
! Feeding line: L-shape; 24mm x 2mm and 5mm x 2mm
! Applications: Smart meter, Routers/Repeaters
! Frequency range 0.65GHz to 6GHz, step 10MHz
! Number of ports 9
!
! This product and its use is protected by at least one or more of the following patents and patent
! applications US 8,203,492 B2; US 8,237,615 B2; PCT/EP2013/064692; WO 2014/012842 A1; US 2019/190122 A1;
! US 62/072,671; and other domestic and international patents pending. Additional information about
! patents related to this product is available at https://ignion.io/files/Patent-list-NN.pdf, all
! rights reserved. Copyright, Ignion 2021.
!
! Need more help? Your platform is much different than these examples in the manual? Use our 
! Fast Track service (https://ignion.io/fast-track/), for free, and get a personalized antenna design in
! just 24 hours.
!
!
! Touchstone port 1 = "Series Port"
! Touchstone port 2 = "Shunt Port"
! Touchstone port 3 = "Series Port"
! Touchstone port 4 = "Shunt Port"
! Touchstone port 5 = "Series Port"
! Touchstone port 6 = "Shunt Port"
! Touchstone port 7 = "Series Port"
! Touchstone port 8 = "Shunt Port"
! Touchstone port 9 = "Series Port"
!
! IE3D S-Parameters Output Version 2.0  
# GHZ S MA R 50
! Nport = 9
!

 6.5000000000e-001  2.4812739853e-001 1.5372539075e+002  7.6199084022e-001 1.7474097159e+002  4.6728409961e-001 1.7269721183e+002  2.9328409334e-001 1.7233939251e+002
          1.7468045303e-001 1.7269049595e+002  1.1822785103e-001 1.7019099296e+002  5.7221533112e-002 1.7788524367e+002  6.1715423346e-002 1.6471906965e+002
          1.4514738140e-002 -8.1967198064e+001
          7.6199084022e-001 1.7474097159e+002  2.4181929129e-001 1.6158003650e+002  4.7035287578e-001 -3.1554279219e+000  2.9387588996e-001 -2.4561029047e+000
          1.7664906084e-001 -4.9184689256e+000  1.1640975409e-001 -6.1218232446e+000  6.0364678595e-002 -2.5648580786e+000  5.6347958105e-002 -1.2011410915e+001
          1.0674371258e-002 6.0727035034e+001
          4.6728409961e-001 1.7269721183e+002  4.7035287578e-001 -3.1554279219e+000  9.4811505659e-002 4.5002152847e+001  5.8632718368e-001 1.7505962314e+002
          3.5074823806e-001 1.7419049665e+002  2.3445967647e-001 1.7186182241e+002  1.1735219080e-001 1.7790949940e+002  1.1820872085e-001 1.6572609138e+002
          2.4926289528e-002 -9.7049168096e+001
          2.9328409334e-001 1.7233939251e+002  2.9387588996e-001 -2.4561029047e+000  5.8632718368e-001 1.7505962314e+002  1.2914106911e-001 1.5271149225e+002
          5.3025727745e-001 -3.1774851249e+000  3.4882839939e-001 -4.2081238617e+000  1.8161705016e-001 -1.7869793076e+000  1.6816984199e-001 -1.1603509417e+001
          3.2989623279e-002 5.9406218840e+001
          1.7468045303e-001 1.7269049595e+002  1.7664906084e-001 -4.9184689256e+000  3.5074823806e-001 1.7419049665e+002  5.3025727745e-001 -3.1774851249e+000
          1.2984159581e-001 2.0610232067e+001  5.8278385452e-001 1.7436665052e+002  2.9873652201e-001 1.7859212362e+002  2.8639581624e-001 1.6709395527e+002
          5.8228351596e-002 -1.0985405074e+002
          1.1822785103e-001 1.7019099296e+002  1.1640975409e-001 -6.1218232446e+000  2.3445967647e-001 1.7186182241e+002  3.4882839939e-001 -4.2081238617e+000
          5.8278385452e-001 1.7436665052e+002  7.3388629468e-002 1.5658476010e+002  4.8635547357e-001 8.7698748487e-001  4.4661587162e-001 -9.2409317332e+000
          8.9840311522e-002 5.9781590876e+001
          5.7221533112e-002 1.7788524367e+002  6.0364678595e-002 -2.5648580786e+000  1.1735219080e-001 1.7790949940e+002  1.8161705016e-001 -1.7869793076e+000
          2.9873652201e-001 1.7859212362e+002  4.8635547357e-001 8.7698748487e-001  2.1576023553e-001 -5.2561824659e+000  7.3247711765e-001 1.6940413481e+002
          1.5070731117e-001 -1.1551948075e+002
          6.1715423346e-002 1.6471906965e+002  5.6347958105e-002 -1.2011410915e+001  1.1820872085e-001 1.6572609138e+002  1.6816984199e-001 -1.1603509417e+001
          2.8639581624e-001 1.6709395527e+002  4.4661587162e-001 -9.2409317332e+000  7.3247711765e-001 1.6940413481e+002  1.9148652989e-001 -3.0359873772e+001
          2.3998542294e-001 6.1844391343e+001
          1.4514738140e-002 -8.1967198064e+001  1.0674371258e-002 6.0727035034e+001  2.4926289528e-002 -9.7049168096e+001  3.2989623279e-002 5.9406218840e+001
          5.8228351596e-002 -1.0985405074e+002  8.9840311522e-002 5.9781590876e+001  1.5070731117e-001 -1.1551948075e+002  2.3998542294e-001 6.1844391343e+001
          9.0031028593e-001 -2.3986688812e+001
 6.6000000000e-001  2.4852654138e-001 1.5334622304e+002  7.6191834293e-001 1.7465985647e+002  4.6719019043e-001 1.7258671385e+002  2.9324786720e-001 1.7221828269e+002
          1.7464293551e-001 1.7258797391e+002  1.1821142687e-001 1.7001740574e+002  5.7232028642e-002 1.7792680288e+002  6.1729568699e-002 1.6437152725e+002
          1.4902903579e-002 -8.2589172508e+001
          7.6191834293e-001 1.7465985647e+002  2.4204117993e-001 1.6130659384e+002  4.7035973458e-001 -3.2034307076e+000  2.9386218678e-001 -2.4936347483e+000
          1.7667367398e-001 -4.9929052644e+000  1.1634581517e-001 -6.2139265942e+000  6.0455385009e-002 -2.6101077385e+000  5.6202595059e-002 -1.2204229510e+001
          1.0901421351e-002 5.9766509199e+001
          4.6719019043e-001 1.7258671385e+002  4.7035973458e-001 -3.2034307076e+000  9.5681311643e-002 4.5324408526e+001  5.8625376222e-001 1.7498228547e+002
          3.5071347529e-001 1.7410662425e+002  2.3438005017e-001 1.7172617445e+002  1.1743426469e-001 1.7790943148e+002  1.1809894345e-001 1.6544436419e+002
          2.5493043489e-002 -9.7663206469e+001
          2.9324786720e-001 1.7221828269e+002  2.9386218678e-001 -2.4936347483e+000  5.8625376222e-001 1.7498228547e+002  1.2952149027e-001 1.5234067947e+002
          5.3033854198e-001 -3.2260310205e+000  3.4863393360e-001 -4.2683751452e+000  1.8189355129e-001 -1.8256981390e+000  1.6772428685e-001 -1.1781949808e+001
          3.3660304246e-002 5.8473960944e+001
          1.7464293551e-001 1.7258797391e+002  1.7667367398e-001 -4.9929052644e+000  3.5071347529e-001 1.7410662425e+002  5.3033854198e-001 -3.2260310205e+000
          1.3011161861e-001 2.0879317140e+001  5.8250024195e-001 1.7427856641e+002  2.9907484907e-001 1.7857511201e+002  2.8585887452e-001 1.6687017420e+002
          5.9401862368e-002 -1.1058894404e+002
          1.1821142687e-001 1.7001740574e+002  1.1634581517e-001 -6.2139265942e+000  2.3438005017e-001 1.7172617445e+002  3.4863393360e-001 -4.2683751452e+000
          5.8250024195e-001 1.7427856641e+002  7.4024607643e-002 1.5632504675e+002  4.8713529713e-001 8.7385242224e-001  4.4539757543e-001 -9.3753106748e+000
          9.1616554746e-002 5.8880367579e+001
          5.7232028642e-002 1.7792680288e+002  6.0455385009e-002 -2.6101077385e+000  1.1743426469e-001 1.7790943148e+002  1.8189355129e-001 -1.8256981390e+000
          2.9907484907e-001 1.7857511201e+002  4.8713529713e-001 8.7385242224e-001  2.1467738103e-001 -5.3327959393e+000  7.3072257430e-001 1.6923622324e+002
          1.5362542748e-001 -1.1632756664e+002
          6.1729568699e-002 1.6437152725e+002  5.6202595059e-002 -1.2204229510e+001  1.1809894345e-001 1.6544436419e+002  1.6772428685e-001 -1.1781949808e+001
          2.8585887452e-001 1.6687017420e+002  4.4539757543e-001 -9.3753106748e+000  7.3072257430e-001 1.6923622324e+002  1.8904809007e-001 -3.1105688495e+001
          2.4465287676e-001 6.0988314892e+001
          1.4902903579e-002 -8.2589172508e+001  1.0901421351e-002 5.9766509199e+001  2.5493043489e-002 -9.7663206469e+001  3.3660304246e-002 5.8473960944e+001
          5.9401862368e-002 -1.1058894404e+002  9.1616554746e-002 5.8880367579e+001  1.5362542748e-001 -1.1632756664e+002  2.4465287676e-001 6.0988314892e+001
          8.9429410161e-001 -2.4463806235e+001
 6.7000000000e-001  2.4893103832e-001 1.5296812204e+002  7.6184441438e-001 1.7457875248e+002  4.6709542739e-001 1.7247628291e+002  2.9321011698e-001 1.7209716837e+002
          1.7460629804e-001 1.7248563754e+002  1.1819230176e-001 1.6984364218e+002  5.7246781211e-002 1.7796867630e+002  6.1738227151e-002 1.6402240714e+002
          1.5291132700e-002 -8.3224794899e+001
          7.6184441438e-001 1.7457875248e+002  2.4226634965e-001 1.6103352745e+002  4.7036712660e-001 -3.2514659896e+000  2.9384804668e-001 -2.5310100688e+000
          1.7669931355e-001 -5.0676423721e+000  1.1628021768e-001 -6.3050244627e+000  6.0548575447e-002 -2.6583612163e+000  5.6052647958e-002 -1.2392913473e+001
          1.1126668548e-002 5.8792906483e+001
          4.6709542739e-001 1.7247628291e+002  4.7036712660e-001 -3.2514659896e+000  9.6555094509e-002 4.5639303817e+001  5.8617807177e-001 1.7490501282e+002
          3.5068012537e-001 1.7402273828e+002  2.3429621776e-001 1.7159080258e+002  1.1752233939e-001 1.7790831984e+002  1.1797988961e-001 1.6516302117e+002
          2.6057946119e-002 -9.8290027497e+001
          2.9321011698e-001 1.7209716837e+002  2.9384804668e-001 -2.5310100688e+000  5.8617807177e-001 1.7490501282e+002  1.2990809786e-001 1.5197104334e+002
          5.3042261933e-001 -3.2748985330e+000  3.4843516036e-001 -4.3275695784e+000  1.8217668995e-001 -1.8674393967e+000  1.6726610841e-001 -1.1956126489e+001
          3.4325241755e-002 5.7529772360e+001
          1.7460629804e-001 1.7248563754e+002  1.7669931355e-001 -5.0676423721e+000  3.5068012537e-001 1.7402273828e+002  5.3042261933e-001 -3.2748985330e+000
          1.3038317629e-001 2.1148917728e+001  5.8220811684e-001 1.7419117810e+002  2.9942492399e-001 1.7855595791e+002  2.8530083531e-001 1.6664874386e+002
          6.0566137165e-002 -1.1133501582e+002
          1.1819230176e-001 1.6984364218e+002  1.1628021768e-001 -6.3050244627e+000  2.3429621776e-001 1.7159080258e+002  3.4843516036e-001 -4.3275695784e+000
          5.8220811684e-001 1.7419117810e+002  7.4677413694e-002 1.5605957841e+002  4.8793152369e-001 8.6757349812e-001  4.4414775270e-001 -9.5051351455e+000
          9.3376619640e-002 5.7967855025e+001
          5.7246781211e-002 1.7796867630e+002  6.0548575447e-002 -2.6583612163e+000  1.1752233939e-001 1.7790831984e+002  1.8217668995e-001 -1.8674393967e+000
          2.9942492399e-001 1.7855595791e+002  4.8793152369e-001 8.6757349812e-001  2.1356399173e-001 -5.4008820557e+000  7.2891596173e-001 1.6907189818e+002
          1.5651567082e-001 -1.1714640726e+002
          6.1738227151e-002 1.6402240714e+002  5.6052647958e-002 -1.2392913473e+001  1.1797988961e-001 1.6516302117e+002  1.6726610841e-001 -1.1956126489e+001
          2.8530083531e-001 1.6664874386e+002  4.4414775270e-001 -9.5051351455e+000  7.2891596173e-001 1.6907189818e+002  1.8652343717e-001 -3.1852403645e+001
          2.4927603763e-001 6.0121302094e+001
          1.5291132700e-002 -8.3224794899e+001  1.1126668548e-002 5.8792906483e+001  2.6057946119e-002 -9.8290027497e+001  3.4325241755e-002 5.7529772360e+001
          6.0566137165e-002 -1.1133501582e+002  9.3376619640e-002 5.7967855025e+001  1.5651567082e-001 -1.1714640726e+002  2.4927603763e-001 6.0121302094e+001
          8.8805518860e-001 -2.4936284553e+001
 6.8000000000e-001  2.4934087241e-001 1.5259108902e+002  7.6176907133e-001 1.7449766202e+002  4.6699981200e-001 1.7236591295e+002  2.9317088510e-001 1.7197606477e+002
          1.7457050239e-001 1.7238344896e+002  1.1817057524e-001 1.6966979293e+002  5.7265622490e-002 1.7801055237e+002  6.1741605856e-002 1.6367212157e+002
          1.5678973354e-002 -8.3871001007e+001
          7.6176907133e-001 1.7449766202e+002  2.4249477248e-001 1.6076083834e+002  4.7037501914e-001 -3.2995383346e+000  2.9383353821e-001 -2.5682228120e+000
          1.7672589115e-001 -5.1427009650e+000  1.1621312606e-001 -6.3950731083e+000  6.0643991878e-002 -2.7097307346e+000  5.5898477424e-002 -1.2577181514e+001
          1.1349785476e-002 5.7808534128e+001
          4.6699981200e-001 1.7236591295e+002  4.7037501914e-001 -3.2995383346e+000  9.7432793412e-002 4.5947023633e+001  5.8610020054e-001 1.7482781475e+002
          3.5064809126e-001 1.7393881373e+002  2.3420838367e-001 1.7145576549e+002  1.1761607480e-001 1.7790598134e+002  1.1785197992e-001 1.6488234917e+002
          2.6620297461e-002 -9.8927292523e+001
          2.9317088510e-001 1.7197606477e+002  2.9383353821e-001 -2.5682228120e+000  5.8610020054e-001 1.7482781475e+002  1.3030074174e-001 1.5160254225e+002
          5.3050924944e-001 -3.3241048469e+000  3.4823256378e-001 -4.3856718885e+000  1.8246572818e-001 -1.9122911650e+000  1.6679634791e-001 -1.2125792362e+001
          3.4983559847e-002 5.6575733040e+001
          1.7457050239e-001 1.7238344896e+002  1.7672589115e-001 -5.1427009650e+000  3.5064809126e-001 1.7393881373e+002  5.3050924944e-001 -3.3241048469e+000
          1.3065673343e-001 2.1419080581e+001  5.8190810709e-001 1.7410452698e+002  2.9978574859e-001 1.7853454694e+002  2.8472300654e-001 1.6642990028e+002
          6.1719731907e-002 -1.1209027802e+002
          1.1817057524e-001 1.6966979293e+002  1.1621312606e-001 -6.3950731083e+000  2.3420838367e-001 1.7145576549e+002  3.4823256378e-001 -4.3856718885e+000
          5.8190810709e-001 1.7410452698e+002  7.5346161216e-002 1.5578796674e+002  4.8874219175e-001 8.5807953883e-001  4.4286920012e-001 -9.6301756431e+000
          9.5118310723e-002 5.7046010764e+001
          5.7265622490e-002 1.7801055237e+002  6.0643991878e-002 -2.7097307346e+000  1.1761607480e-001 1.7790598134e+002  1.8246572818e-001 -1.9122911650e+000
          2.9978574859e-001 1.7853454694e+002  4.8874219175e-001 8.5807953883e-001  2.1242269293e-001 -5.4599041396e+000  7.2706123228e-001 1.6891138177e+002
          1.5937454492e-001 -1.1797412477e+002
          6.1741605856e-002 1.6367212157e+002  5.5898477424e-002 -1.2577181514e+001  1.1785197992e-001 1.6488234917e+002  1.6679634791e-001 -1.2125792362e+001
          2.8472300654e-001 1.6642990028e+002  4.4286920012e-001 -9.6301756431e+000  7.2706123228e-001 1.6891138177e+002  1.8391673009e-001 -3.2599053672e+001
          2.5384930520e-001 5.9245243841e+001
          1.5678973354e-002 -8.3871001007e+001  1.1349785476e-002 5.7808534128e+001  2.6620297461e-002 -9.8927292523e+001  3.4983559847e-002 5.6575733040e+001
          6.1719731907e-002 -1.1209027802e+002  9.5118310723e-002 5.7046010764e+001  1.5937454492e-001 -1.1797412477e+002  2.5384930520e-001 5.9245243841e+001
          8.8160522064e-001 -2.5403373144e+001
 6.9000000000e-001  2.4975601941e-001 1.5221512398e+002  7.6169233606e-001 1.7441658717e+002  4.6690333359e-001 1.7225559808e+002  2.9313022854e-001 1.7185498488e+002
          1.7453548599e-001 1.7228137436e+002  1.1814638306e-001 1.6949593519e+002  5.7288328170e-002 1.7805216918e+002  6.1740006225e-002 1.6332103004e+002
          1.6066099979e-002 -8.4524680040e+001
          7.6169233606e-001 1.7441658717e+002  2.4272641815e-001 1.6048852820e+002  4.7038337368e-001 -3.3476514473e+000  2.9381873287e-001 -2.6052691798e+000
          1.7675331022e-001 -5.2180963284e+000  1.1614471323e-001 -6.4840426252e+000  6.0741363609e-002 -2.7642846526e+000  5.5740473420e-002 -1.2756815409e+001
          1.1570508909e-002 5.6815789274e+001
          4.6690333359e-001 1.7225559808e+002  4.7038337368e-001 -3.3476514473e+000  9.8314356406e-002 4.6247738059e+001  5.8602025172e-001 1.7475069890e+002
          3.5061724828e-001 1.7385482961e+002  2.3411679059e-001 1.7132111040e+002  1.1771507276e-001 1.7790227210e+002  1.1771574087e-001 1.6460258702e+002
          2.7179557617e-002 -9.9572580951e+001
          2.9313022854e-001 1.7185498488e+002  2.9381873287e-001 -2.6052691798e+000  5.8602025172e-001 1.7475069890e+002  1.3069925529e-001 1.5123514499e+002
          5.3059815444e-001 -3.3736619050e+000  3.4802664309e-001 -4.4426600381e+000  1.8275990418e-001 -1.9603006124e+000  1.6631611300e-001 -1.2290760913e+001
          3.5634570494e-002 5.5613994371e+001
          1.7453548599e-001 1.7228137436e+002  1.7675331022e-001 -5.2180963284e+000  3.5061724828e-001 1.7385482961e+002  5.3059815444e-001 -3.3736619050e+000
          1.3093276392e-001 2.1689812989e+001  5.8160088740e-001 1.7401864282e+002  3.0015625471e-001 1.7851080216e+002  2.8412684948e-001 1.6621382822e+002
          6.2861527482e-002 -1.1285267412e+002
          1.1814638306e-001 1.6949593519e+002  1.1614471323e-001 -6.4840426252e+000  2.3411679059e-001 1.7132111040e+002  3.4802664309e-001 -4.4426600381e+000
          5.8160088740e-001 1.7401864282e+002  7.6029876939e-002 1.5550997246e+002  4.8956530203e-001 8.4533898545e-001  4.4156485462e-001 -9.7502628094e+000
          9.6839928100e-002 5.6116853645e+001
          5.7288328170e-002 1.7805216918e+002  6.0741363609e-002 -2.7642846526e+000  1.1771507276e-001 1.7790227210e+002  1.8275990418e-001 -1.9603006124e+000
          3.0015625471e-001 1.7851080216e+002  4.8956530203e-001 8.4533898545e-001  2.1125627166e-001 -5.5094376442e+000  7.2516261194e-001 1.6875484114e+002
          1.6219936543e-001 -1.1880878475e+002
          6.1740006225e-002 1.6332103004e+002  5.5740473420e-002 -1.2756815409e+001  1.1771574087e-001 1.6460258702e+002  1.6631611300e-001 -1.2290760913e+001
          2.8412684948e-001 1.6621382822e+002  4.4156485462e-001 -9.7502628094e+000  7.2516261194e-001 1.6875484114e+002  1.8123275098e-001 -3.3344877965e+001
          2.5836837760e-001 5.8362086694e+001
          1.6066099979e-002 -8.4524680040e+001  1.1570508909e-002 5.6815789274e+001  2.7179557617e-002 -9.9572580951e+001  3.5634570494e-002 5.5613994371e+001
          6.2861527482e-002 -1.1285267412e+002  9.6839928100e-002 5.6116853645e+001  1.6219936543e-001 -1.1880878475e+002  2.5836837760e-001 5.8362086694e+001
          8.7495740905e-001 -2.5864452050e+001
 7.0000000000e-001  2.5017644651e-001 1.5184022597e+002  7.6161423558e-001 1.7433552961e+002  4.6680596911e-001 1.7214533290e+002  2.9308821658e-001 1.7173393878e+002
          1.7450116403e-001 1.7217938591e+002  1.1811989203e-001 1.6932212849e+002  5.7314627786e-002 1.7809332831e+002  6.1733814600e-002 1.6296941910e+002
          1.6452337414e-002 -8.5182760402e+001
          7.6161423558e-001 1.7433552961e+002  2.4296125467e-001 1.6021659958e+002  4.7039214729e-001 -3.3958080004e+000  2.9380370271e-001 -2.6421477729e+000
          1.7678146930e-001 -5.2938376742e+000  1.1607515478e-001 -6.5719180119e+000  6.0840416501e-002 -2.8220448044e+000  5.5579042131e-002 -1.2931668102e+001
          1.1788652416e-002 5.5817101953e+001
          4.6680596911e-001 1.7214533290e+002  4.7039214729e-001 -3.3958080004e+000  9.9199736177e-002 4.6541601999e+001  5.8593833944e-001 1.7467367063e+002
          3.5058744881e-001 1.7377077004e+002  2.3402171010e-001 1.7118687071e+002  1.1781889320e-001 1.7789709450e+002  1.1757178578e-001 1.6432391291e+002
          2.7735378706e-002 -1.0022345631e+002
          2.9308821658e-001 1.7173393878e+002  2.9380370271e-001 -2.6421477729e+000  5.8593833944e-001 1.7467367063e+002  1.3110345996e-001 1.5086883231e+002
          5.3068904860e-001 -3.4235759288e+000  3.4781789581e-001 -4.4985259119e+000  1.8305845870e-001 -2.0114723138e+000  1.6582653932e-001 -1.2450912702e+001
          3.6277807580e-002 5.4646724510e+001
          1.7450116403e-001 1.7217938591e+002  1.7678146930e-001 -5.2938376742e+000  3.5058744881e-001 1.7377077004e+002  5.3068904860e-001 -3.4235759288e+000
          1.3121173171e-001 2.1961081809e+001  5.8128715454e-001 1.7393354252e+002  3.0053534411e-001 1.7848468729e+002  2.8351392507e-001 1.6600065307e+002
          6.3990788321e-002 -1.1362013451e+002
