! IGNION VIRTUAL ANTENNA LIBRARY
!
! NN_RUN_B50x40_C40x11
! Virtual Antenna™ RUN mXTEND™: NN02-224 12.0 mm x 3.0 mm x 2.4 mm
! https://ignion.io/product/run-mxtend/
! Board: 50 mm x 40 mm
! Clearance Area: 40 mm x 11 mm
! Feeding line: L-shape; 11mm x 2mm and 5mm x 2mm
! Applications: Fleet management, IoT
! Frequency range 0.65GHz to 6GHz, step 10MHz
! Number of ports 9
!
! This product and its use is protected by at least one or more of the following patents and patent
! applications US 8,203,492 B2; US 8,237,615 B2; PCT/EP2013/064692; WO 2014/012842 A1; US 2019/190122 A1;
! US 62/072,671; and other domestic and international patents pending. Additional information about
! patents related to this product is available at https://ignion.io/files/Patent-list-NN.pdf, all
! rights reserved. Copyright, Ignion 2021.
!
! Need more help? Your platform is much different than these examples in the manual? Use our 
! Fast Track service (https://ignion.io/fast-track/), for free, and get a personalized antenna design in
! just 24 hours.
!
!
! Touchstone port 1 = "Series Port"
! Touchstone port 2 = "Shunt Port"
! Touchstone port 3 = "Series Port"
! Touchstone port 4 = "Shunt Port"
! Touchstone port 5 = "Series Port"
! Touchstone port 6 = "Shunt Port"
! Touchstone port 7 = "Series Port"
! Touchstone port 8 = "Shunt Port"
! Touchstone port 9 = "Series Port"
!
! IE3D S-Parameters Output Version 2.0  
# GHZ S MA R 50
! Nport = 9
!

 6.5000000000e-001  2.4987538762e-001 1.5240192943e+002  7.6190161695e-001 -5.3944839471e+000  4.6703141392e-001 1.7218250908e+002  2.9319157387e-001 -8.0709324482e+000
          1.7456478179e-001 1.7198949386e+002  1.1840344896e-001 -9.4447330231e+000  5.6720398523e-002 1.7505041345e+002  6.1891776368e-002 -1.2060810275e+001
          9.1052349763e-003 -6.6428474688e+001
          7.6190161695e-001 -5.3944839471e+000  2.4192172617e-001 1.6133985783e+002  4.7040792346e-001 1.7693913599e+002  2.9431863696e-001 -2.3062680382e+000
          1.7631755796e-001 1.7506107328e+002  1.1733717383e-001 -5.5363156870e+000  5.9071874935e-002 1.7629915465e+002  5.8291818276e-002 -9.5515558112e+000
          6.3960220186e-003 -1.0391939622e+002
          4.6703141392e-001 1.7218250908e+002  4.7040792346e-001 1.7693913599e+002  9.7622034880e-002 4.6099680576e+001  5.8648199681e-001 -5.0706472933e+000
          3.5033116569e-001 1.7385782349e+002  2.3541041618e-001 -7.7026609477e+000  1.1577024052e-001 1.7611554986e+002  1.1997804226e-001 -1.1661163782e+001
          1.6486270570e-002 -8.4561057468e+001
          2.9319157387e-001 -8.0709324482e+000  2.9431863696e-001 -2.3062680382e+000  5.8648199681e-001 -5.0706472933e+000  1.2722500078e-001 1.5385744303e+002
          5.2953896913e-001 1.7729399294e+002  3.5150684735e-001 -3.0798097747e+000  1.7810134464e-001 1.7744955434e+002  1.7346973783e-001 -9.1433468866e+000
          2.1144371965e-002 -1.0859563586e+002
          1.7456478179e-001 1.7198949386e+002  1.7631755796e-001 1.7506107328e+002  3.5033116569e-001 1.7385782349e+002  5.2953896913e-001 1.7729399294e+002
          1.2983883081e-001 1.9383854744e+001  5.8619795817e-001 -4.7914115464e+000  2.9384031612e-001 1.7751213438e+002  2.9310253202e-001 -1.0480926118e+001
          3.9411410541e-002 -9.8483928490e+001
          1.1840344896e-001 -9.4447330231e+000  1.1733717383e-001 -5.5363156870e+000  2.3541041618e-001 -7.7026609477e+000  3.5150684735e-001 -3.0798097747e+000
          5.8619795817e-001 -4.7914115464e+000  6.7484280939e-002 1.5427593116e+002  4.7584725856e-001 1.7991599966e+002  4.6201252228e-001 -7.3378061407e+000
          5.9850392523e-002 -1.0719161521e+002
          5.6720398523e-002 1.7505041345e+002  5.9071874935e-002 1.7629915465e+002  1.1577024052e-001 1.7611554986e+002  1.7810134464e-001 1.7744955434e+002
          2.9384031612e-001 1.7751213438e+002  4.7584725856e-001 1.7991599966e+002  2.3016536438e-001 -1.6646684227e+000  7.5430533624e-001 -8.5412054489e+000
          1.0371878438e-001 -1.0352593850e+002
          6.1891776368e-002 -1.2060810275e+001  5.8291818276e-002 -9.5515558112e+000  1.1997804226e-001 -1.1661163782e+001  1.7346973783e-001 -9.1433468866e+000
          2.9310253202e-001 -1.0480926118e+001  4.6201252228e-001 -7.3378061407e+000  7.5430533624e-001 -8.5412054489e+000  2.1807914410e-001 -1.7024936206e+001
          1.6322619530e-001 -1.0592600511e+002
          9.1052349763e-003 -6.6428474688e+001  6.3960220186e-003 -1.0391939622e+002  1.6486270570e-002 -8.4561057468e+001  2.1144371965e-002 -1.0859563586e+002
          3.9411410541e-002 -9.8483928490e+001  5.9850392523e-002 -1.0719161521e+002  1.0371878438e-001 -1.0352593850e+002  1.6322619530e-001 -1.0592600511e+002
          9.7090579708e-001 -1.6607144500e+001
 6.6000000000e-001  2.5032534646e-001 1.5200436631e+002  7.6182956778e-001 -5.4773334239e+000  4.6692496995e-001 1.7206256290e+002  2.9316748592e-001 -8.1962116130e+000
          1.7450518378e-001 1.7186900950e+002  1.1842896610e-001 -9.5986179811e+000  5.6654848983e-002 1.7500501724e+002  6.1991793271e-002 -1.2284512771e+001
          9.3497039660e-003 -6.6384495456e+001
          7.6182956778e-001 -5.4773334239e+000  2.4213981606e-001 1.6106278401e+002  4.7040747770e-001 1.7689217771e+002  2.9432714667e-001 -2.3424384160e+000
          1.7631553020e-001 1.7498646039e+002  1.1732642522e-001 -5.6239987158e+000  5.9083542208e-002 1.7625058502e+002  5.8271030132e-002 -9.7128509555e+000
          6.5192116107e-003 -1.0418000415e+002
          4.6692496995e-001 1.7206256290e+002  4.7040747770e-001 1.7689217771e+002  9.8569335809e-002 4.6413605531e+001  5.8643461638e-001 -5.1493138784e+000
          3.5025265637e-001 1.7376555381e+002  2.3541490757e-001 -7.8266119400e+000  1.1571604213e-001 1.7607456177e+002  1.2005131776e-001 -1.1866191559e+001
          1.6841776425e-002 -8.4571562962e+001
          2.9316748592e-001 -8.1962116130e+000  2.9432714667e-001 -2.3424384160e+000  5.8643461638e-001 -5.1493138784e+000  1.2752109102e-001 1.5349507776e+002
          5.2955314399e-001 1.7725347160e+002  3.5145822992e-001 -3.1286103889e+000  1.7816613432e-001 1.7741588600e+002  1.7336152567e-001 -9.2954716618e+000
          2.1539204709e-002 -1.0892315449e+002
          1.7450518378e-001 1.7186900950e+002  1.7631553020e-001 1.7498646039e+002  3.5025265637e-001 1.7376555381e+002  5.2955314399e-001 1.7725347160e+002
          1.3017883928e-001 1.9625326651e+001  5.8613107564e-001 -4.8680733081e+000  2.9385010389e-001 1.7748415144e+002  2.9305721373e-001 -1.0659142235e+001
          4.0153970653e-002 -9.8656372694e+001
          1.1842896610e-001 -9.5986179811e+000  1.1732642522e-001 -5.6239987158e+000  2.3541490757e-001 -7.8266119400e+000  3.5145822992e-001 -3.1286103889e+000
          5.8613107564e-001 -4.8680733081e+000  6.7756421129e-002 1.5398032993e+002  4.7604960703e-001 1.7991932819e+002  4.6170643290e-001 -7.4615426902e+000
          6.0952985314e-002 -1.0749614075e+002
          5.6654848983e-002 1.7500501724e+002  5.9083542208e-002 1.7625058502e+002  1.1571604213e-001 1.7607456177e+002  1.7816613432e-001 1.7741588600e+002
          2.9385010389e-001 1.7748415144e+002  4.7604960703e-001 1.7991932819e+002  2.2995286190e-001 -1.7131435194e+000  7.5392887779e-001 -8.6856903990e+000
          1.0561001014e-001 -1.0377247820e+002
          6.1991793271e-002 -1.2284512771e+001  5.8271030132e-002 -9.7128509555e+000  1.2005131776e-001 -1.1866191559e+001  1.7336152567e-001 -9.2954716618e+000
          2.9305721373e-001 -1.0659142235e+001  4.6170643290e-001 -7.4615426902e+000  7.5392887779e-001 -8.6856903990e+000  2.1747402562e-001 -1.7379556682e+001
          1.6620405574e-001 -1.0621024994e+002
          9.3497039660e-003 -6.6384495456e+001  6.5192116107e-003 -1.0418000415e+002  1.6841776425e-002 -8.4571562962e+001  2.1539204709e-002 -1.0892315449e+002
          4.0153970653e-002 -9.8656372694e+001  6.0952985314e-002 -1.0749614075e+002  1.0561001014e-001 -1.0377247820e+002  1.6620405574e-001 -1.0621024994e+002
          9.6985335833e-001 -1.6913139883e+001
 6.7000000000e-001  2.5078098475e-001 1.5160790657e+002  7.6175645830e-001 -5.5601782471e+000  4.6681676931e-001 1.7194263859e+002  2.9314302370e-001 -8.3215549923e+000
          1.7444456784e-001 1.7174869187e+002  1.1845487004e-001 -9.7529776748e+000  5.6588378074e-002 1.7496139279e+002  6.2093529123e-002 -1.2510253541e+001
          9.5989748793e-003 -6.6350603114e+001
          7.6175645830e-001 -5.5601782471e+000  2.4236096729e-001 1.6078614515e+002  4.7040704884e-001 1.7684522844e+002  2.9433570284e-001 -2.3786393050e+000
          1.7631356600e-001 1.7491191705e+002  1.1731532955e-001 -5.7117983901e+000  5.9095678177e-002 1.7620240625e+002  5.8249527177e-002 -9.8748576819e+000
          6.6436660728e-003 -1.0444387866e+002
          4.6681676931e-001 1.7194263859e+002  4.7040704884e-001 1.7684522844e+002  9.9521409032e-002 4.6719324000e+001  5.8638642073e-001 -5.2280164236e+000
          3.5017295728e-001 1.7367340859e+002  2.3541926521e-001 -7.9508533735e+000  1.1566140636e-001 1.7603458551e+002  1.2012551348e-001 -1.2072584882e+001
          1.7202370642e-002 -8.4587114572e+001
          2.9314302370e-001 -8.3215549923e+000  2.9433570284e-001 -2.3786393050e+000  5.8638642073e-001 -5.2280164236e+000  1.2782106602e-001 1.5313432079e+002
          5.2956790696e-001 1.7721300248e+002  3.5140826041e-001 -3.1774639243e+000  1.7823288426e-001 1.7738244351e+002  1.7325027551e-001 -9.4481313263e+000
          2.1937559739e-002 -1.0925369308e+002
          1.7444456784e-001 1.7174869187e+002  1.7631356600e-001 1.7491191705e+002  3.5017295728e-001 1.7367340859e+002  5.2956790696e-001 1.7721300248e+002
          1.3052210600e-001 1.9864631316e+001  5.8606232310e-001 -4.9448784722e+000  2.9386142101e-001 1.7745666811e+002  2.9300961327e-001 -1.0838224689e+001
          4.0903422212e-002 -9.8831839225e+001
          1.1845487004e-001 -9.7529776748e+000  1.1731532955e-001 -5.7117983901e+000  2.3541926521e-001 -7.9508533735e+000  3.5140826041e-001 -3.1774639243e+000
          5.8606232310e-001 -4.9448784722e+000  6.8032848439e-002 1.5368866043e+002  4.7625767096e-001 1.7992282949e+002  4.6139190901e-001 -7.5857768110e+000
          6.2064741371e-002 -1.0780360983e+002
          5.6588378074e-002 1.7496139279e+002  5.9095678177e-002 1.7620240625e+002  1.1566140636e-001 1.7603458551e+002  1.7823288426e-001 1.7738244351e+002
          2.9386142101e-001 1.7745666811e+002  4.7625767096e-001 1.7992282949e+002  2.2973327914e-001 -1.7626798187e+000  7.5354129724e-001 -8.8308086704e+000
          1.0751607213e-001 -1.0402187562e+002
          6.2093529123e-002 -1.2510253541e+001  5.8249527177e-002 -9.8748576819e+000  1.2012551348e-001 -1.2072584882e+001  1.7325027551e-001 -9.4481313263e+000
          2.9300961327e-001 -1.0838224689e+001  4.6139190901e-001 -7.5857768110e+000  7.5354129724e-001 -8.8308086704e+000  2.1685390380e-001 -1.7739292815e+001
          1.6920534954e-001 -1.0649739323e+002
          9.5989748793e-003 -6.6350603114e+001  6.6436660728e-003 -1.0444387866e+002  1.7202370642e-002 -8.4587114572e+001  2.1937559739e-002 -1.0925369308e+002
          4.0903422212e-002 -9.8831839225e+001  6.2064741371e-002 -1.0780360983e+002  1.0751607213e-001 -1.0402187562e+002  1.6920534954e-001 -1.0649739323e+002
          9.6876992725e-001 -1.7221774838e+001
 6.8000000000e-001  2.5124225312e-001 1.5121255816e+002  7.6168228896e-001 -5.6430185078e+000  4.6670680506e-001 1.7182273717e+002  2.9311818443e-001 -8.4469646829e+000
          1.7438293072e-001 1.7162854713e+002  1.1848115568e-001 -9.9078262316e+000  5.6521000732e-002 1.7491959814e+002  6.2196985363e-002 -1.2738088288e+001
          9.8531338579e-003 -6.6326762295e+001
          7.6168228896e-001 -5.6430185078e+000  2.4258516947e-001 1.6050994624e+002  4.7040663864e-001 1.7679828857e+002  2.9434430030e-001 -2.4148710118e+000
          1.7631167155e-001 1.7483744474e+002  1.1730387543e-001 -5.7997162155e+000  5.9108301080e-002 1.7615462348e+002  5.8227283903e-002 -1.0037589828e+001
          6.7694140113e-003 -1.0471110439e+002
          4.6670680506e-001 1.7182273717e+002  4.7040663864e-001 1.7679828857e+002  1.0047809058e-001 4.7017025154e+001  5.8633740163e-001 -5.3067559259e+000
          3.5009207261e-001 1.7358139163e+002  2.3542347161e-001 -8.0753929143e+000  1.1560636614e-001 1.7599564835e+002  1.2020060548e-001 -1.2280380339e+001
          1.7568163081e-002 -8.4607798691e+001
          2.9311818443e-001 -8.4469646829e+000  2.9434430030e-001 -2.4148710118e+000  5.8633740163e-001 -5.3067559259e+000  1.2812490664e-001 1.5277518250e+002
          5.2958328063e-001 1.7717258628e+002  3.5135690306e-001 -3.2263696860e+000  1.7830165189e-001 1.7734922632e+002  1.7313590265e-001 -9.6013328542e+000
          2.2339514214e-002 -1.0958733145e+002
          1.7438293072e-001 1.7162854713e+002  1.7631167155e-001 1.7483744474e+002  3.5009207261e-001 1.7358139163e+002  5.2958328063e-001 1.7717258628e+002
          1.3086854391e-001 2.0101764690e+001  5.8599164534e-001 -5.0218295448e+000  2.9387435735e-001 1.7742969295e+002  2.9295962139e-001 -1.1018192982e+001
          4.1659915998e-002 -9.9010406887e+001
          1.1848115568e-001 -9.9078262316e+000  1.1730387543e-001 -5.7997162155e+000  2.3542347161e-001 -8.0753929143e+000  3.5135690306e-001 -3.2263696860e+000
          5.8599164534e-001 -5.0218295448e+000  6.8313608066e-002 1.5340094063e+002  4.7647160361e-001 1.7992650141e+002  4.6106872232e-001 -7.7105140377e+000
          6.3185856997e-002 -1.0811410041e+002
          5.6521000732e-002 1.7491959814e+002  5.9108301080e-002 1.7615462348e+002  1.1560636614e-001 1.7599564835e+002  1.7830165189e-001 1.7734922632e+002
          2.9387435735e-001 1.7742969295e+002  4.7647160361e-001 1.7992650141e+002  2.2950638396e-001 -1.8132908911e+000  7.5314225615e-001 -8.9765710443e+000
          1.0943728257e-001 -1.0427420675e+002
          6.2196985363e-002 -1.2738088288e+001  5.8227283903e-002 -1.0037589828e+001  1.2020060548e-001 -1.2280380339e+001  1.7313590265e-001 -9.6013328542e+000
          2.9295962139e-001 -1.1018192982e+001  4.6106872232e-001 -7.7105140377e+000  7.5314225615e-001 -8.9765710443e+000  2.1621843345e-001 -1.8104299070e+001
          1.7223057022e-001 -1.0678751184e+002
          9.8531338579e-003 -6.6326762295e+001  6.7694140113e-003 -1.0471110439e+002  1.7568163081e-002 -8.4607798691e+001  2.2339514214e-002 -1.0958733145e+002
          4.1659915998e-002 -9.9010406887e+001  6.3185856997e-002 -1.0811410041e+002  1.0943728257e-001 -1.0427420675e+002  1.7223057022e-001 -1.0678751184e+002
          9.6765452642e-001 -1.7533115315e+001
 6.9000000000e-001  2.5170910172e-001 1.5081832874e+002  7.6160706015e-001 -5.7258543062e+000  4.6659507013e-001 1.7170285970e+002  2.9309296505e-001 -8.5724428421e+000
          1.7432026934e-001 1.7150858168e+002  1.1850781735e-001 -1.0063178160e+001  5.6452733303e-002 1.7487969307e+002  6.2302162679e-002 -1.2968074089e+001
          1.0112268342e-002 -6.6312940276e+001
          7.6160706015e-001 -5.7258543062e+000  2.4281241214e-001 1.6023419220e+002  4.7040624902e-001 1.7675135847e+002  2.9435293376e-001 -2.4511338264e+000
          1.7630985329e-001 1.7476304494e+002  1.1729205106e-001 -5.8877536352e+000  5.9121429838e-002 1.7610724167e+002  5.8204273813e-002 -1.0201061220e+001
          6.8964843986e-003 -1.0498176788e+002
          4.6659507013e-001 1.7170285970e+002  4.7040624902e-001 1.7675135847e+002  1.0143922095e-001 4.7306894072e+001  5.8628755042e-001 -5.3855334015e+000
          3.5001000699e-001 1.7348950684e+002  2.3542750830e-001 -8.2002383841e+000  1.1555095630e-001 1.7595777812e+002  1.2027656806e-001 -1.2489615358e+001
          1.7939265073e-002 -8.4633702955e+001
          2.9309296505e-001 -8.5724428421e+000  2.9435293376e-001 -2.4511338264e+000  5.8628755042e-001 -5.3855334015e+000  1.2843259407e-001 1.5241767286e+002
          5.2959928841e-001 1.7713222372e+002  3.5130412104e-001 -3.2753268414e+000  1.7837249646e-001 1.7731623350e+002  1.7301831944e-001 -9.7550829243e+000
          2.2745146116e-002 -1.0992415133e+002
          1.7432026934e-001 1.7150858168e+002  1.7630985329e-001 1.7476304494e+002  3.5001000699e-001 1.7348950684e+002  5.2959928841e-001 1.7713222372e+002
          1.3121806465e-001 2.0336723711e+001  5.8591898503e-001 -5.0989290061e+000  2.9388900636e-001 1.7740323444e+002  2.9290712420e-001 -1.1199066836e+001
          4.2423604445e-002 -9.9192156315e+001
          1.1850781735e-001 -1.0063178160e+001  1.1729205106e-001 -5.8877536352e+000  2.3542750830e-001 -8.2002383841e+000  3.5130412104e-001 -3.2753268414e+000
          5.8591898503e-001 -5.0989290061e+000  6.8598748791e-002 1.5311718703e+002  4.7669156296e-001 1.7993034136e+002  4.6073663681e-001 -7.8357595532e+000
          6.4316530300e-002 -1.0842769232e+002
          5.6452733303e-002 1.7487969307e+002  5.9121429838e-002 1.7610724167e+002  1.1555095630e-001 1.7595777812e+002  1.7837249646e-001 1.7731623350e+002
          2.9388900636e-001 1.7740323444e+002  4.7669156296e-001 1.7993034136e+002  2.2927193647e-001 -1.8649897425e+000  7.5273140368e-001 -9.1229881710e+000
          1.1137395617e-001 -1.0452954938e+002
          6.2302162679e-002 -1.2968074089e+001  5.8204273813e-002 -1.0201061220e+001  1.2027656806e-001 -1.2489615358e+001  1.7301831944e-001 -9.7550829243e+000
          2.9290712420e-001 -1.1199066836e+001  4.6073663681e-001 -7.8357595532e+000  7.5273140368e-001 -9.1229881710e+000  2.1556725875e-001 -1.8474734831e+001
          1.7528021528e-001 -1.0708068445e+002
          1.0112268342e-002 -6.6312940276e+001  6.8964843986e-003 -1.0498176788e+002  1.7939265073e-002 -8.4633702955e+001  2.2745146116e-002 -1.0992415133e+002
          4.2423604445e-002 -9.9192156315e+001  6.4316530300e-002 -1.0842769232e+002  1.1137395617e-001 -1.0452954938e+002  1.7528021528e-001 -1.0708068445e+002
          9.6650614076e-001 -1.7847228557e+001
 7.0000000000e-001  2.5218148016e-001 1.5042522570e+002  7.6153077220e-001 -5.8086857518e+000  4.6648155735e-001 1.7158300730e+002  2.9306736222e-001 -8.6979916889e+000
          1.7425658080e-001 1.7138880213e+002  1.1853484877e-001 -1.0219048357e+001  5.6383593636e-002 1.7484173914e+002  6.2409060943e-002 -1.3200269431e+001
          1.0376467090e-002 -6.6309107145e+001
          7.6153077220e-001 -5.8086857518e+000  2.4304268477e-001 1.5995888788e+002  4.7040588202e-001 1.7670443853e+002  2.9436159772e-001 -2.4874280209e+000
          1.7630811795e-001 1.7468871916e+002  1.1727984422e-001 -5.9759120232e+000  5.9135084071e-002 1.7606026554e+002  5.8180469379e-002 -1.0365285652e+001
          7.0249065680e-003 -1.0525595766e+002
          4.6648155735e-001 1.7158300730e+002  4.7040588202e-001 1.7670443853e+002  1.0240464492e-001 4.7589111735e+001  5.8623685795e-001 -5.4643498857e+000
          3.4992676557e-001 1.7339775825e+002  2.3543135573e-001 -8.3253977619e+000  1.1549521370e-001 1.7592100314e+002  1.2035337369e-001 -1.2700328219e+001
          1.8315789424e-002 -8.4664916303e+001
          2.9306736222e-001 -8.6979916889e+000  2.9436159772e-001 -2.4874280209e+000  5.8623685795e-001 -5.4643498857e+000  1.2874410988e-001 1.5206180137e+002
          5.2961595456e-001 1.7709191545e+002  3.5124987640e-001 -3.3243344102e+000  1.7844547912e-001 1.7728346368e+002  1.7289743520e-001 -9.9093878888e+000
          2.3154534226e-002 -1.1026423636e+002
          1.7425658080e-001 1.7138880213e+002  1.7630811795e-001 1.7468871916e+002  3.4992676557e-001 1.7339775825e+002  5.2961595456e-001 1.7709191545e+002
          1.3157057848e-001 2.0569506313e+001  5.8584428261e-001 -5.1761793053e+000  2.9390546519e-001 1.7737730093e+002  2.9285200290e-001 -1.1380866187e+001
          4.3194641604e-002 -9.9377170022e+001
