! IGNION VIRTUAL ANTENNA LIBRARY
!
! NN_RUN_B50x55_C55x11
! Virtual Antenna™ RUN mXTEND™: NN02-224 12.0 mm x 3.0 mm x 2.4 mm
! https://ignion.io/product/run-mxtend/
! Board: 50 mm x 55 mm
! Clearance Area: 55 mm x 11 mm
! Feeding line: L-shape; 11mm x 2mm and 5mm x 2mm
! Applications: Fleet management, IoT
! Frequency range 0.65GHz to 6GHz, step 10MHz
! Number of ports 1
!
! This product and its use is protected by at least one or more of the following patents and patent
! applications US 8,203,492 B2; US 8,237,615 B2; PCT/EP2013/064692; WO 2014/012842 A1; US 2019/190122 A1;
! US 62/072,671; and other domestic and international patents pending. Additional information about
! patents related to this product is available at https://ignion.io/files/Patent-list-NN.pdf, all
! rights reserved. Copyright, Ignion 2021.
!
! Need more help? Your platform is much different than these examples in the manual? Use our 
! Fast Track service (https://ignion.io/fast-track/), for free, and get a personalized antenna design in
! just 24 hours.
!
! 
! Touchstone port 1 = "Series Port"
!
! IE3D S-Parameters Output Version 2.0  
# GHZ S MA R 50
! Nport = 1
!

 6.5000000000e-001  9.9230633873e-001 -1.6679043443e+001
 6.6000000000e-001  9.9202770366e-001 -1.7000661459e+001
 6.7000000000e-001  9.9173703579e-001 -1.7325887163e+001
 6.8000000000e-001  9.9143368615e-001 -1.7654831368e+001
 6.9000000000e-001  9.9111696934e-001 -1.7987608434e+001
 7.0000000000e-001  9.9078616120e-001 -1.8324336403e+001
 7.1000000000e-001  9.9044049644e-001 -1.8665137163e+001
 7.2000000000e-001  9.9007916610e-001 -1.9010136595e+001
 7.3000000000e-001  9.8970131473e-001 -1.9359464742e+001
 7.4000000000e-001  9.8930603757e-001 -1.9713255979e+001
 7.5000000000e-001  9.8889237734e-001 -2.0071649191e+001
 7.6000000000e-001  9.8845932095e-001 -2.0434787955e+001
 7.7000000000e-001  9.8800579593e-001 -2.0802820733e+001
 7.8000000000e-001  9.8753066666e-001 -2.1175901073e+001
 7.9000000000e-001  9.8703273025e-001 -2.1554187812e+001
 8.0000000000e-001  9.8651071227e-001 -2.1937845293e+001
 8.1000000000e-001  9.8596326208e-001 -2.2327043584e+001
 8.2000000000e-001  9.8538894789e-001 -2.2721958713e+001
 8.3000000000e-001  9.8478625151e-001 -2.3122772901e+001
 8.4000000000e-001  9.8415356266e-001 -2.3529674809e+001
 8.5000000000e-001  9.8348917299e-001 -2.3942859793e+001
 8.6000000000e-001  9.8279126963e-001 -2.4362530165e+001
 8.7000000000e-001  9.8205792831e-001 -2.4788895461e+001
 8.8000000000e-001  9.8128710606e-001 -2.5222172718e+001
 8.9000000000e-001  9.8047663335e-001 -2.5662586758e+001
 9.0000000000e-001  9.7962420578e-001 -2.6110370473e+001
 9.1000000000e-001  9.7872737515e-001 -2.6565765128e+001
 9.2000000000e-001  9.7778353999e-001 -2.7029020653e+001
 9.3000000000e-001  9.7678993547e-001 -2.7500395952e+001
 9.4000000000e-001  9.7574362261e-001 -2.7980159208e+001
 9.5000000000e-001  9.7464147681e-001 -2.8468588188e+001
 9.6000000000e-001  9.7348017577e-001 -2.8965970555e+001
 9.7000000000e-001  9.7225618645e-001 -2.9472604168e+001
 9.8000000000e-001  9.7096575143e-001 -2.9988797382e+001
 9.9000000000e-001  9.6960487436e-001 -3.0514869336e+001
 1.0000000000e+000  9.6816930454e-001 -3.1051150239e+001
 1.0100000000e+000  9.6665452073e-001 -3.1597981624e+001
 1.0200000000e+000  9.6505571397e-001 -3.2155716598e+001
 1.0300000000e+000  9.6336776952e-001 -3.2724720054e+001
 1.0400000000e+000  9.6158524800e-001 -3.3305368860e+001
 1.0500000000e+000  9.5970236543e-001 -3.3898052006e+001
 1.0600000000e+000  9.5771297263e-001 -3.4503170701e+001
 1.0700000000e+000  9.5561053359e-001 -3.5121138417e+001
 1.0800000000e+000  9.5338810319e-001 -3.5752380871e+001
 1.0900000000e+000  9.5103830412e-001 -3.6397335920e+001
 1.1000000000e+000  9.4855330332e-001 -3.7056453367e+001
 1.1100000000e+000  9.4592478787e-001 -3.7730194669e+001
 1.1200000000e+000  9.4314394071e-001 -3.8419032507e+001
 1.1300000000e+000  9.4020141623e-001 -3.9123450229e+001
 1.1400000000e+000  9.3708731624e-001 -3.9843941116e+001
 1.1500000000e+000  9.3379116638e-001 -4.0581007472e+001
 1.1600000000e+000  9.3030189369e-001 -4.1335159499e+001
 1.1700000000e+000  9.2660780561e-001 -4.2106913927e+001
 1.1800000000e+000  9.2269657109e-001 -4.2896792384e+001
 1.1900000000e+000  9.1855520448e-001 -4.3705319450e+001
 1.2000000000e+000  9.1417005305e-001 -4.4533020381e+001
 1.2100000000e+000  9.0952678898e-001 -4.5380418446e+001
 1.2200000000e+000  9.0461040688e-001 -4.6248031855e+001
 1.2300000000e+000  8.9940522815e-001 -4.7136370212e+001
 1.2400000000e+000  8.9389491334e-001 -4.8045930479e+001
 1.2500000000e+000  8.8806248411e-001 -4.8977192369e+001
 1.2600000000e+000  8.8189035637e-001 -4.9930613161e+001
 1.2700000000e+000  8.7536038635e-001 -5.0906621862e+001
 1.2800000000e+000  8.6845393147e-001 -5.1905612694e+001
 1.2900000000e+000  8.6115192789e-001 -5.2927937852e+001
 1.3000000000e+000  8.5343498694e-001 -5.3973899522e+001
 1.3100000000e+000  8.4528351205e-001 -5.5043741102e+001
 1.3200000000e+000  8.3667783850e-001 -5.6137637651e+001
 1.3300000000e+000  8.2759839730e-001 -5.7255685522e+001
 1.3400000000e+000  8.1802590497e-001 -5.8397891229e+001
 1.3500000000e+000  8.0794158002e-001 -5.9564159551e+001
 1.3600000000e+000  7.9732738682e-001 -6.0754280933e+001
 1.3700000000e+000  7.8616630632e-001 -6.1967918263e+001
 1.3800000000e+000  7.7444263294e-001 -6.3204593100e+001
 1.3900000000e+000  7.6214229502e-001 -6.4463671494e+001
 1.4000000000e+000  7.4925319585e-001 -6.5744349511e+001
 1.4100000000e+000  7.3576557040e-001 -6.7045638637e+001
 1.4200000000e+000  7.2167235165e-001 -6.8366351214e+001
 1.4300000000e+000  7.0696953910e-001 -6.9705086088e+001
 1.4400000000e+000  6.9165656033e-001 -7.1060214613e+001
 1.4500000000e+000  6.7573661542e-001 -7.2429867149e+001
 1.4600000000e+000  6.5921699304e-001 -7.3811920135e+001
 1.4700000000e+000  6.4210934615e-001 -7.5203983743e+001
 1.4800000000e+000  6.2442991515e-001 -7.6603390015e+001
 1.4900000000e+000  6.0619968690e-001 -7.8007181242e+001
 1.5000000000e+000  5.8744447858e-001 -7.9412098167e+001
 1.5100000000e+000  5.6819493752e-001 -8.0814567342e+001
 1.5200000000e+000  5.4848645038e-001 -8.2210686703e+001
 1.5300000000e+000  5.2835895794e-001 -8.3596208013e+001
 1.5400000000e+000  5.0785667557e-001 -8.4966514418e+001
 1.5500000000e+000  4.8702772330e-001 -8.6316590732e+001
 1.5600000000e+000  4.6592367338e-001 -8.7640983341e+001
 1.5700000000e+000  4.4459902749e-001 -8.8933745654e+001
 1.5800000000e+000  4.2311063952e-001 -9.0188363707e+001
 1.5900000000e+000  4.0151710321e-001 -9.1397654772e+001
 1.6000000000e+000  3.7987812710e-001 -9.2553629333e+001
 1.6100000000e+000  3.5825392150e-001 -9.3647303259e+001
 1.6200000000e+000  3.3670462476e-001 -9.4668441886e+001
 1.6300000000e+000  3.1528979842e-001 -9.5605210092e+001
 1.6400000000e+000  2.9406802411e-001 -9.6443691046e+001
 1.6500000000e+000  2.7309664098e-001 -9.7167218819e+001
 1.6600000000e+000  2.5243167158e-001 -9.7755442805e+001
 1.6700000000e+000  2.3212800196e-001 -9.8182998863e+001
 1.6800000000e+000  2.1223991184e-001 -9.8417592752e+001
 1.6900000000e+000  1.9282210505e-001 -9.8417188156e+001
 1.7000000000e+000  1.7393148720e-001 -9.8125804118e+001
 1.7100000000e+000  1.5563011175e-001 -9.7467115029e+001
 1.7200000000e+000  1.3799003553e-001 -9.6334534386e+001
 1.7300000000e+000  1.2110141654e-001 -9.4575667481e+001
 1.7400000000e+000  1.0508627633e-001 -9.1967993008e+001
 1.7500000000e+000  9.0122248471e-002 -8.8182276895e+001
 1.7600000000e+000  7.6483291843e-002 -8.2735106146e+001
 1.7700000000e+000  6.4604623284e-002 -7.4959622083e+001
 1.7800000000e+000  5.5159934894e-002 -6.4120535407e+001
 1.7900000000e+000  4.9051363199e-002 -4.9971126553e+001
 1.8000000000e+000  4.7069913419e-002 -3.3767001290e+001
 1.8100000000e+000  4.9244075033e-002 -1.8235201146e+001
 1.8200000000e+000  5.4684891067e-002 -5.5321729155e+000
 1.8300000000e+000  6.2215824540e-002 3.9458157974e+000
 1.8400000000e+000  7.0906643245e-002 1.0796549890e+001
 1.8500000000e+000  8.0161135645e-002 1.5754258166e+001
 1.8600000000e+000  8.9623815307e-002 1.9394806509e+001
 1.8700000000e+000  9.9085649107e-002 2.2118240606e+001
 1.8800000000e+000  1.0842335660e-001 2.4194362716e+001
 1.8900000000e+000  1.1756437970e-001 2.5805820406e+001
 1.9000000000e+000  1.2646699717e-001 2.7078265806e+001
 1.9100000000e+000  1.3510884516e-001 2.8099880463e+001
 1.9200000000e+000  1.4348009623e-001 2.8933809055e+001
 1.9300000000e+000  1.5157927201e-001 2.9626127581e+001
 1.9400000000e+000  1.5941058686e-001 3.0211028958e+001
 1.9500000000e+000  1.6698220827e-001 3.0714261532e+001
 1.9600000000e+000  1.7430508236e-001 3.1155454035e+001
 1.9700000000e+000  1.8139211758e-001 3.1549717967e+001
 1.9800000000e+000  1.8825760125e-001 3.1908772321e+001
 1.9900000000e+000  1.9491677100e-001 3.2241746761e+001
 2.0000000000e+000  2.0138549153e-001 3.2555764588e+001
 2.0100000000e+000  2.0768000447e-001 3.2856372450e+001
 2.0200000000e+000  2.1381672965e-001 3.3147861816e+001
 2.0300000000e+000  2.1981210344e-001 3.3433512992e+001
 2.0400000000e+000  2.2568244422e-001 3.3715783027e+001
 2.0500000000e+000  2.3144383809e-001 3.3996452538e+001
 2.0600000000e+000  2.3711203995e-001 3.4276742181e+001
 2.0700000000e+000  2.4270238690e-001 3.4557406480e+001
 2.0800000000e+000  2.4822972146e-001 3.4838810637e+001
 2.0900000000e+000  2.5370832326e-001 3.5120994442e+001
 2.1000000000e+000  2.5915184806e-001 3.5403726314e+001
 2.1100000000e+000  2.6457327368e-001 3.5686549708e+001
 2.1200000000e+000  2.6998485236e-001 3.5968823538e+001
 2.1300000000e+000  2.7539806946e-001 3.6249757823e+001
 2.1400000000e+000  2.8082360841e-001 3.6528445431e+001
 2.1500000000e+000  2.8627132203e-001 3.6803890562e+001
 2.1600000000e+000  2.9175021008e-001 3.7075034407e+001
 2.1700000000e+000  2.9726840328e-001 3.7340778290e+001
 2.1800000000e+000  3.0283315359e-001 3.7600004527e+001
 2.1900000000e+000  3.0845083071e-001 3.7851595113e+001
 2.2000000000e+000  3.1412692482e-001 3.8094448360e+001
 2.2100000000e+000  3.1986605513e-001 3.8327493552e+001
 2.2200000000e+000  3.2567198404e-001 3.8549703662e+001
 2.2300000000e+000  3.3154763660e-001 3.8760106218e+001
 2.2400000000e+000  3.3749512485e-001 3.8957792347e+001
 2.2500000000e+000  3.4351577648e-001 3.9141924093e+001
 2.2600000000e+000  3.4961016742e-001 3.9311740089e+001
 2.2700000000e+000  3.5577815781e-001 3.9466559676e+001
 2.2800000000e+000  3.6201893078e-001 3.9605785580e+001
 2.2900000000e+000  3.6833103356e-001 3.9728905282e+001
 2.3000000000e+000  3.7471242026e-001 3.9835491183e+001
 2.3100000000e+000  3.8116049602e-001 3.9925199729e+001
 2.3200000000e+000  3.8767216191e-001 3.9997769603e+001
 2.3300000000e+000  3.9424386007e-001 4.0053019146e+001
 2.3400000000e+000  4.0087161890e-001 4.0090843114e+001
 2.3500000000e+000  4.0755109771e-001 4.0111208913e+001
 2.3600000000e+000  4.1427763069e-001 4.0114152432e+001
 2.3700000000e+000  4.2104626971e-001 4.0099773559e+001
 2.3800000000e+000  4.2785182599e-001 4.0068231515e+001
 2.3900000000e+000  4.3468891014e-001 4.0019740060e+001
 2.4000000000e+000  4.4155197065e-001 3.9954562671e+001
 2.4100000000e+000  4.4843533060e-001 3.9873007745e+001
 2.4200000000e+000  4.5533322243e-001 3.9775423886e+001
 2.4300000000e+000  4.6223982088e-001 3.9662195329e+001
 2.4400000000e+000  4.6914927391e-001 3.9533737527e+001
 2.4500000000e+000  4.7605573155e-001 3.9390492933e+001
 2.4600000000e+000  4.8295337290e-001 3.9232926998e+001
 2.4700000000e+000  4.8983643101e-001 3.9061524408e+001
 2.4800000000e+000  4.9669921583e-001 3.8876785552e+001
 2.4900000000e+000  5.0353613528e-001 3.8679223237e+001
 2.5000000000e+000  5.1034171435e-001 3.8469359650e+001
 2.5100000000e+000  5.1711061241e-001 3.8247723560e+001
 2.5200000000e+000  5.2383763878e-001 3.8014847751e+001
 2.5300000000e+000  5.3051776644e-001 3.7771266693e+001
 2.5400000000e+000  5.3714614425e-001 3.7517514418e+001
 2.5500000000e+000  5.4371810747e-001 3.7254122621e+001
 2.5600000000e+000  5.5022918680e-001 3.6981618940e+001
 2.5700000000e+000  5.5667511594e-001 3.6700525439e+001
 2.5800000000e+000  5.6305183778e-001 3.6411357250e+001
 2.5900000000e+000  5.6935550931e-001 3.6114621395e+001
 2.6000000000e+000  5.7558250523e-001 3.5810815743e+001
 2.6100000000e+000  5.8172942045e-001 3.5500428117e+001
 2.6200000000e+000  5.8779307146e-001 3.5183935529e+001
 2.6300000000e+000  5.9377049671e-001 3.4861803537e+001
 2.6400000000e+000  5.9965895598e-001 3.4534485706e+001
 2.6500000000e+000  6.0545592899e-001 3.4202423177e+001
 2.6600000000e+000  6.1115911304e-001 3.3866044323e+001
 2.6700000000e+000  6.1676642008e-001 3.3525764497e+001
 2.6800000000e+000  6.2227597299e-001 3.3181985844e+001
 2.6900000000e+000  6.2768610130e-001 3.2835097199e+001
 2.7000000000e+000  6.3299533642e-001 3.2485474034e+001
 2.7100000000e+000  6.3820240633e-001 3.2133478471e+001
 2.7200000000e+000  6.4330622990e-001 3.1779459342e+001
 2.7300000000e+000  6.4830591087e-001 3.1423752299e+001
 2.7400000000e+000  6.5320073152e-001 3.1066679958e+001
 2.7500000000e+000  6.5799014614e-001 3.0708552092e+001
 2.7600000000e+000  6.6267377429e-001 3.0349665842e+001
 2.7700000000e+000  6.6725139395e-001 2.9990305964e+001
 2.7800000000e+000  6.7172293461e-001 2.9630745105e+001
 2.7900000000e+000  6.7608847031e-001 2.9271244090e+001
 2.8000000000e+000  6.8034821265e-001 2.8912052236e+001
 2.8100000000e+000  6.8450250395e-001 2.8553407672e+001
 2.8200000000e+000  6.8855181042e-001 2.8195537687e+001
 2.8300000000e+000  6.9249671545e-001 2.7838659067e+001
 2.8400000000e+000  6.9633791309e-001 2.7482978457e+001
 2.8500000000e+000  7.0007620172e-001 2.7128692719e+001
 2.8600000000e+000  7.0371247786e-001 2.6775989297e+001
 2.8700000000e+000  7.0724773025e-001 2.6425046580e+001
 2.8800000000e+000  7.1068303422e-001 2.6076034268e+001
 2.8900000000e+000  7.1401954621e-001 2.5729113730e+001
 2.9000000000e+000  7.1725849869e-001 2.5384438368e+001
 2.9100000000e+000  7.2040119531e-001 2.5042153960e+001
 2.9200000000e+000  7.2344900632e-001 2.4702399012e+001
 2.9300000000e+000  7.2640336436e-001 2.4365305091e+001
 2.9400000000e+000  7.2926576053e-001 2.4030997153e+001
 2.9500000000e+000  7.3203774079e-001 2.3699593858e+001
 2.9600000000e+000  7.3472090261e-001 2.3371207871e+001
 2.9700000000e+000  7.3731689203e-001 2.3045946154e+001
 2.9800000000e+000  7.3982740096e-001 2.2723910244e+001
 2.9900000000e+000  7.4225416483e-001 2.2405196505e+001
 3.0000000000e+000  7.4459896044e-001 2.2089896379e+001
 3.0100000000e+000  7.4686360427e-001 2.1778096606e+001
 3.0200000000e+000  7.4904995086e-001 2.1469879431e+001
 3.0300000000e+000  7.5115989164e-001 2.1165322792e+001
 3.0400000000e+000  7.5319535385e-001 2.0864500487e+001
 3.0500000000e+000  7.5515829984e-001 2.0567482314e+001
 3.0600000000e+000  7.5705072643e-001 2.0274334195e+001
 3.0700000000e+000  7.5887466460e-001 1.9985118277e+001
 3.0800000000e+000  7.6063217927e-001 1.9699892998e+001
 3.0900000000e+000  7.6232536924e-001 1.9418713146e+001
 3.1000000000e+000  7.6395636725e-001 1.9141629873e+001
 3.1100000000e+000  7.6552734014e-001 1.8868690697e+001
 3.1200000000e+000  7.6704048909e-001 1.8599939469e+001
 3.1300000000e+000  7.6849804979e-001 1.8335416318e+001
 3.1400000000e+000  7.6990229271e-001 1.8075157562e+001
 3.1500000000e+000  7.7125552330e-001 1.7819195598e+001
 3.1600000000e+000  7.7256008200e-001 1.7567558763e+001
 3.1700000000e+000  7.7381834431e-001 1.7320271160e+001
 3.1800000000e+000  7.7503272047e-001 1.7077352472e+001
 3.1900000000e+000  7.7620565510e-001 1.6838817734e+001
 3.2000000000e+000  7.7733962648e-001 1.6604677096e+001
 3.2100000000e+000  7.7843714555e-001 1.6374935549e+001
 3.2200000000e+000  7.7950075454e-001 1.6149592641e+001
 3.2300000000e+000  7.8053302520e-001 1.5928642172e+001
 3.2400000000e+000  7.8153655661e-001 1.5712071864e+001
 3.2500000000e+000  7.8251397239e-001 1.5499863037e+001
 3.2600000000e+000  7.8346791753e-001 1.5291990259e+001
 3.2700000000e+000  7.8440105448e-001 1.5088421004e+001
 3.2800000000e+000  7.8531605874e-001 1.4889115305e+001
 3.2900000000e+000  7.8621561377e-001 1.4694025418e+001
 3.3000000000e+000  7.8710240523e-001 1.4503095496e+001
 3.3100000000e+000  7.8797911454e-001 1.4316261279e+001
 3.3200000000e+000  7.8884841180e-001 1.4133449820e+001
 3.3300000000e+000  7.8971294795e-001 1.3954579234e+001
 3.3400000000e+000  7.9057534637e-001 1.3779558489e+001
 3.3500000000e+000  7.9143819379e-001 1.3608287253e+001
 3.3600000000e+000  7.9230403058e-001 1.3440655780e+001
 3.3700000000e+000  7.9317534060e-001 1.3276544880e+001
 3.3800000000e+000  7.9405454053e-001 1.3115825937e+001
 3.3900000000e+000  7.9494396880e-001 1.2958361018e+001
 3.4000000000e+000  7.9584587434e-001 1.2804003056e+001
 3.4100000000e+000  7.9676240505e-001 1.2652596122e+001
 3.4200000000e+000  7.9769559634e-001 1.2503975784e+001
 3.4300000000e+000  7.9864735970e-001 1.2357969565e+001
 3.4400000000e+000  7.9961947158e-001 1.2214397485e+001
 3.4500000000e+000  8.0061356262e-001 1.2073072705e+001
 3.4600000000e+000  8.0163110748e-001 1.1933802257e+001
 3.4700000000e+000  8.0267341538e-001 1.1796387861e+001
 3.4800000000e+000  8.0374162154e-001 1.1660626823e+001
 3.4900000000e+000  8.0483667961e-001 1.1526313013e+001
 3.5000000000e+000  8.0595935532e-001 1.1393237894e+001
 3.5100000000e+000  8.0711022143e-001 1.1261191622e+001
 3.5200000000e+000  8.0828965407e-001 1.1129964170e+001
 3.5300000000e+000  8.0949783066e-001 1.0999346495e+001
 3.5400000000e+000  8.1073472931e-001 1.0869131712e+001
 3.5500000000e+000  8.1200013001e-001 1.0739116265e+001
 3.5600000000e+000  8.1329361733e-001 1.0609101086e+001
 3.5700000000e+000  8.1461458486e-001 1.0478892724e+001
 3.5800000000e+000  8.1596224121e-001 1.0348304419e+001
 3.5900000000e+000  8.1733561765e-001 1.0217157127e+001
 3.6000000000e+000  8.1873357713e-001 1.0085280460e+001
 3.6100000000e+000  8.2015482470e-001 9.9525135507e+000
 3.6200000000e+000  8.2159791913e-001 9.8187058160e+000
 3.6300000000e+000  8.2306128562e-001 9.6837176149e+000
 3.6400000000e+000  8.2454322943e-001 9.5474208001e+000
 3.6500000000e+000  8.2604195012e-001 9.4096991523e+000
 3.6600000000e+000  8.2755555647e-001 9.2704486970e+000
 3.6700000000e+000  8.2908208163e-001 9.1295779042e+000
 3.6800000000e+000  8.3061949846e-001 8.9870077709e+000
 3.6900000000e+000  8.3216573482e-001 8.8426717919e+000
 3.7000000000e+000  8.3371868864e-001 8.6965158230e+000
 3.7100000000e+000  8.3527624265e-001 8.5484978427e+000
 3.7200000000e+000  8.3683627848e-001 8.3985876216e+000
 3.7300000000e+000  8.3839669020e-001 8.2467663081e+000
 3.7400000000e+000  8.3995539698e-001 8.0930259390e+000
 3.7500000000e+000  8.4151035494e-001 7.9373688871e+000
 3.7600000000e+000  8.4305956796e-001 7.7798072549e+000
 3.7700000000e+000  8.4460109753e-001 7.6203622249e+000
 3.7800000000e+000  8.4613307147e-001 7.4590633779e+000
 3.7900000000e+000  8.4765369163e-001 7.2959479884e+000
 3.8000000000e+000  8.4916124044e-001 7.1310603071e+000
 3.8100000000e+000  8.5065408642e-001 6.9644508385e+000
 3.8200000000e+000  8.5213068863e-001 6.7961756231e+000
 3.8300000000e+000  8.5358960007e-001 6.6262955302e+000
 3.8400000000e+000  8.5502947017e-001 6.4548755685e+000
 3.8500000000e+000  8.5644904631e-001 6.2819842195e+000
 3.8600000000e+000  8.5784717453e-001 6.1076927990e+000
 3.8700000000e+000  8.5922279946e-001 5.9320748502e+000
 3.8800000000e+000  8.6057496352e-001 5.7552055713e+000
 3.8900000000e+000  8.6190280549e-001 5.5771612794e+000
 3.9000000000e+000  8.6320555856e-001 5.3980189142e+000
 3.9100000000e+000  8.6448254781e-001 5.2178555789e+000
 3.9200000000e+000  8.6573318736e-001 5.0367481224e+000
