! IGNION VIRTUAL ANTENNA LIBRARY
!
! NN_RUN_B145x130_C45x24
! Virtual Antenna™ RUN mXTEND™: NN02-224 12.0 mm x 3.0 mm x 2.4 mm
! https://ignion.io/product/run-mxtend/
! Board: 145 mm x 130 mm
! Clearance Area: 45 mm x 24 mm
! Feeding line: L-shape; 24mm x 2mm and 5mm x 2mm
! Applications: Smart meter, Routers/Repeaters
! Frequency range 0.65GHz to 6GHz, step 10MHz
! Number of ports 1
!
! This product and its use is protected by at least one or more of the following patents and patent
! applications US 8,203,492 B2; US 8,237,615 B2; PCT/EP2013/064692; WO 2014/012842 A1; US 2019/190122 A1;
! US 62/072,671; and other domestic and international patents pending. Additional information about
! patents related to this product is available at https://ignion.io/files/Patent-list-NN.pdf, all
! rights reserved. Copyright, Ignion 2021.
!
! Need more help? Your platform is much different than these examples in the manual? Use our 
! Fast Track service (https://ignion.io/fast-track/), for free, and get a personalized antenna design in
! just 24 hours.
!
!
! Touchstone port 1 = "Series Port"
!
! IE3D S-Parameters Output Version 2.0  
# GHZ S MA R 50
! Nport = 1
!

 6.5000000000e-001  9.4576558153e-001 -2.5028724993e+001
 6.6000000000e-001  9.4129274087e-001 -2.5614225563e+001
 6.7000000000e-001  9.3657037617e-001 -2.6202943764e+001
 6.8000000000e-001  9.3160337054e-001 -2.6794260849e+001
 6.9000000000e-001  9.2639879719e-001 -2.7387645195e+001
 7.0000000000e-001  9.2096566776e-001 -2.7982687091e+001
 7.1000000000e-001  9.1531455373e-001 -2.8579133476e+001
 7.2000000000e-001  9.0945708216e-001 -2.9176920941e+001
 7.3000000000e-001  9.0340531493e-001 -2.9776205191e+001
 7.4000000000e-001  8.9717102714e-001 -3.0377385132e+001
 7.5000000000e-001  8.9076490814e-001 -3.0981119855e+001
 7.6000000000e-001  8.8419571361e-001 -3.1588337043e+001
 7.7000000000e-001  8.7746940174e-001 -3.2200231672e+001
 7.8000000000e-001  8.7058828745e-001 -3.2818254398e+001
 7.9000000000e-001  8.6355024768e-001 -3.3444089518e+001
 8.0000000000e-001  8.5634800606e-001 -3.4079622906e+001
 8.1000000000e-001  8.4896851912e-001 -3.4726900743e+001
 8.2000000000e-001  8.4139247800e-001 -3.5388080047e+001
 8.3000000000e-001  8.3359393186e-001 -3.6065372018e+001
 8.4000000000e-001  8.2554003226e-001 -3.6760978914e+001
 8.5000000000e-001  8.1719089398e-001 -3.7477024644e+001
 8.6000000000e-001  8.0849956672e-001 -3.8215478489e+001
 8.7000000000e-001  7.9941211615e-001 -3.8978070410e+001
 8.8000000000e-001  7.8986782054e-001 -3.9766195324e+001
 8.9000000000e-001  7.7979950200e-001 -4.0580802548e+001
 9.0000000000e-001  7.6913402825e-001 -4.1422265411e+001
 9.1000000000e-001  7.5779304181e-001 -4.2290224802e+001
 9.2000000000e-001  7.4569399782e-001 -4.3183399287e+001
 9.3000000000e-001  7.3275161853e-001 -4.4099353371e+001
 9.4000000000e-001  7.1887989987e-001 -4.5034214730e+001
 9.5000000000e-001  7.0399483074e-001 -4.5982330982e+001
 9.6000000000e-001  6.8801800412e-001 -4.6935857157e+001
 9.7000000000e-001  6.7088130415e-001 -4.7884267126e+001
 9.8000000000e-001  6.5253283538e-001 -4.8813786644e+001
 9.9000000000e-001  6.3294420811e-001 -4.9706753792e+001
 1.0000000000e+000  6.1211919382e-001 -5.0540926345e+001
 1.0100000000e+000  5.9010360466e-001 -5.1288777867e+001
 1.0200000000e+000  5.6699602124e-001 -5.1916859137e+001
 1.0300000000e+000  5.4295869127e-001 -5.2385354264e+001
 1.0400000000e+000  5.1822755263e-001 -5.2648037767e+001
 1.0500000000e+000  4.9311991005e-001 -5.2652944584e+001
 1.0600000000e+000  4.6803783187e-001 -5.2344194623e+001
 1.0700000000e+000  4.4346485823e-001 -5.1665536229e+001
 1.0800000000e+000  4.1995320092e-001 -5.0566201798e+001
 1.0900000000e+000  3.9809849115e-001 -4.9009427279e+001
 1.1000000000e+000  3.7849981824e-001 -4.6983220684e+001
 1.1100000000e+000  3.6170517450e-001 -4.4511500804e+001
 1.1200000000e+000  3.4814726488e-001 -4.1661877555e+001
 1.1300000000e+000  3.3808139024e-001 -3.8545325034e+001
 1.1400000000e+000  3.3154245022e-001 -3.5304565585e+001
 1.1500000000e+000  3.2833680490e-001 -3.2092653740e+001
 1.1600000000e+000  3.2807427611e-001 -2.9048524782e+001
 1.1700000000e+000  3.3023067155e-001 -2.6278017415e+001
 1.1800000000e+000  3.3422123150e-001 -2.3845571757e+001
 1.1900000000e+000  3.3946582705e-001 -2.1776304693e+001
 1.2000000000e+000  3.4543490062e-001 -2.0064459727e+001
 1.2100000000e+000  3.5167438681e-001 -1.8683722610e+001
 1.2200000000e+000  3.5781368736e-001 -1.7596383243e+001
 1.2300000000e+000  3.6356260503e-001 -1.6760108500e+001
 1.2400000000e+000  3.6870247870e-001 -1.6132289474e+001
 1.2500000000e+000  3.7307521938e-001 -1.5672456881e+001
 1.2600000000e+000  3.7657246725e-001 -1.5343357999e+001
 1.2700000000e+000  3.7912600266e-001 -1.5111196424e+001
 1.2800000000e+000  3.8069986042e-001 -1.4945396199e+001
 1.2900000000e+000  3.8128421366e-001 -1.4818127778e+001
 1.3000000000e+000  3.8089090609e-001 -1.4703742419e+001
 1.3100000000e+000  3.7955043447e-001 -1.4578202388e+001
 1.3200000000e+000  3.7731016461e-001 -1.4418559657e+001
 1.3300000000e+000  3.7423356942e-001 -1.4202518436e+001
 1.3400000000e+000  3.7040028683e-001 -1.3908111547e+001
 1.3500000000e+000  3.6590679740e-001 -1.3513523510e+001
 1.3600000000e+000  3.6086750701e-001 -1.2997101299e+001
 1.3700000000e+000  3.5541598583e-001 -1.2337604435e+001
 1.3800000000e+000  3.4970605589e-001 -1.1514755146e+001
 1.3900000000e+000  3.4391233964e-001 -1.0510150864e+001
 1.4000000000e+000  3.3822978880e-001 -9.3085856803e+000
 1.4100000000e+000  3.3287163150e-001 -7.8997823356e+000
 1.4200000000e+000  3.2806514851e-001 -6.2804497909e+000
 1.4300000000e+000  3.2404478073e-001 -4.4564494609e+000
 1.4400000000e+000  3.2104235192e-001 -2.4446932629e+000
 1.4500000000e+000  3.1927470653e-001 -2.7426009872e-001
 1.4600000000e+000  3.1892977224e-001 2.0138117159e+000
 1.4700000000e+000  3.2015278841e-001 4.3684357676e+000
 1.4800000000e+000  3.2303490266e-001 6.7320960309e+000
 1.4900000000e+000  3.2760623840e-001 9.0456838566e+000
 1.5000000000e+000  3.3383477302e-001 1.1253660178e+001
 1.5100000000e+000  3.4163114673e-001 1.3308532720e+001
 1.5200000000e+000  3.5085829162e-001 1.5173870800e+001
 1.5300000000e+000  3.6134396774e-001 1.6825541503e+001
 1.5400000000e+000  3.7289411935e-001 1.8251322837e+001
 1.5500000000e+000  3.8530532448e-001 1.9449356951e+001
 1.5600000000e+000  3.9837523989e-001 2.0425996001e+001
 1.5700000000e+000  4.1191057678e-001 2.1193516064e+001
 1.5800000000e+000  4.2573262312e-001 2.1768020745e+001
 1.5900000000e+000  4.3968061261e-001 2.2167700672e+001
 1.6000000000e+000  4.5361336024e-001 2.2411496708e+001
 1.6100000000e+000  4.6740959427e-001 2.2518142048e+001
 1.6200000000e+000  4.8096736744e-001 2.2505523540e+001
 1.6300000000e+000  4.9420286108e-001 2.2390292954e+001
 1.6400000000e+000  5.0704882543e-001 2.2187663215e+001
 1.6500000000e+000  5.1945283741e-001 2.1911334984e+001
 1.6600000000e+000  5.3137550606e-001 2.1573510705e+001
 1.6700000000e+000  5.4278871563e-001 2.1184964056e+001
 1.6800000000e+000  5.5367396606e-001 2.0755141697e+001
 1.6900000000e+000  5.6402084706e-001 2.0292281223e+001
 1.7000000000e+000  5.7382566554e-001 1.9803534463e+001
 1.7100000000e+000  5.8309023369e-001 1.9295089060e+001
 1.7200000000e+000  5.9182081629e-001 1.8772283943e+001
 1.7300000000e+000  6.0002723022e-001 1.8239716195e+001
 1.7400000000e+000  6.0772208518e-001 1.7701338039e+001
 1.7500000000e+000  6.1492015230e-001 1.7160543532e+001
 1.7600000000e+000  6.2163784638e-001 1.6620245058e+001
 1.7700000000e+000  6.2789280703e-001 1.6082940069e+001
 1.7800000000e+000  6.3370356415e-001 1.5550768701e+001
 1.7900000000e+000  6.3908927393e-001 1.5025562991e+001
 1.8000000000e+000  6.4406951211e-001 1.4508888476e+001
 1.8100000000e+000  6.4866411260e-001 1.4002078978e+001
 1.8200000000e+000  6.5289304019e-001 1.3506265352e+001
 1.8300000000e+000  6.5677628769e-001 1.3022398995e+001
 1.8400000000e+000  6.6033378894e-001 1.2551270868e+001
 1.8500000000e+000  6.6358534043e-001 1.2093526797e+001
 1.8600000000e+000  6.6655052588e-001 1.1649679773e+001
 1.8700000000e+000  6.6924863958e-001 1.1220119960e+001
 1.8800000000e+000  6.7169860581e-001 1.0805123087e+001
 1.8900000000e+000  6.7391889323e-001 1.0404857835e+001
 1.9000000000e+000  6.7592742466e-001 1.0019392784e+001
 1.9100000000e+000  6.7774148384e-001 9.6487033895e+000
 1.9200000000e+000  6.7937762210e-001 9.2926793635e+000
 1.9300000000e+000  6.8085156841e-001 8.9511327300e+000
 1.9400000000e+000  6.8217814676e-001 8.6238066936e+000
 1.9500000000e+000  6.8337120518e-001 8.3103853503e+000
 1.9600000000e+000  6.8444355996e-001 8.0105041557e+000
 1.9700000000e+000  6.8540695824e-001 7.7237609661e+000
 1.9800000000e+000  6.8627206126e-001 7.4497273963e+000
 1.9900000000e+000  6.8704844935e-001 7.1879601912e+000
 2.0000000000e+000  6.8774464874e-001 6.9380122830e+000
 2.0100000000e+000  6.8836817907e-001 6.6994432202e+000
 2.0200000000e+000  6.8892561970e-001 6.4718286808e+000
 2.0300000000e+000  6.8942269192e-001 6.2547688342e+000
 2.0400000000e+000  6.8986435393e-001 6.0478953776e+000
 2.0500000000e+000  6.9025490505e-001 5.8508771397e+000
 2.0600000000e+000  6.9059809552e-001 5.6634242103e+000
 2.0700000000e+000  6.9089723867e-001 5.4852906141e+000
 2.0800000000e+000  6.9115532238e-001 5.3162755979e+000
 2.0900000000e+000  6.9137511726e-001 5.1562236362e+000
 2.1000000000e+000  6.9155927947e-001 5.0050232892e+000
 2.1100000000e+000  6.9171044673e-001 4.8626050579e+000
 2.1200000000e+000  6.9183132625e-001 4.7289383855e+000
 2.1300000000e+000  6.9192477416e-001 4.6040279485e+000
 2.1400000000e+000  6.9199386602e-001 4.4879093699e+000
 2.1500000000e+000  6.9204195845e-001 4.3806444685e+000
 2.1600000000e+000  6.9207274221e-001 4.2823161425e+000
 2.1700000000e+000  6.9209028687e-001 4.1930229650e+000
 2.1800000000e+000  6.9209907769e-001 4.1128735495e+000
 2.1900000000e+000  6.9210404512e-001 4.0419807298e+000
 2.2000000000e+000  6.9211058717e-001 3.9804555810e+000
 2.2100000000e+000  6.9212458506e-001 3.9284012989e+000
 2.2200000000e+000  6.9215241242e-001 3.8859069466e+000
 2.2300000000e+000  6.9220093790e-001 3.8530410735e+000
 2.2400000000e+000  6.9227752132e-001 3.8298452096e+000
 2.2500000000e+000  6.9239000287e-001 3.8163272432e+000
 2.2600000000e+000  6.9254668511e-001 3.8124546986e+000
 2.2700000000e+000  6.9275630713e-001 3.8181479398e+000
 2.2800000000e+000  6.9302801006e-001 3.8332733472e+000
 2.2900000000e+000  6.9337129315e-001 3.8576365307e+000
 2.3000000000e+000  6.9379595935e-001 3.8909756749e+000
 2.3100000000e+000  6.9431204956e-001 3.9329551341e+000
 2.3200000000e+000  6.9492976437e-001 3.9831594346e+000
 2.3300000000e+000  6.9565937264e-001 4.0410878706e+000
 2.3400000000e+000  6.9651110608e-001 4.1061499179e+000
 2.3500000000e+000  6.9749503973e-001 4.1776617176e+000
 2.3600000000e+000  6.9862095831e-001 4.2548439087e+000
 2.3700000000e+000  6.9989820939e-001 4.3368211029e+000
 2.3800000000e+000  7.0133554465e-001 4.4226232952e+000
 2.3900000000e+000  7.0294095190e-001 4.5111894877e+000
 2.4000000000e+000  7.0472148067e-001 4.6013737657e+000
 2.4100000000e+000  7.0668306606e-001 4.6919540001e+000
 2.4200000000e+000  7.0883035552e-001 4.7816432679e+000
 2.4300000000e+000  7.1116654476e-001 4.8691039666e+000
 2.4400000000e+000  7.1369322907e-001 4.9529644718e+000
 2.4500000000e+000  7.1641027689e-001 5.0318380460e+000
 2.4600000000e+000  7.1931573230e-001 5.1043435572e+000
 2.4700000000e+000  7.2240575247e-001 5.1691274347e+000
 2.4800000000e+000  7.2567458544e-001 5.2248861697e+000
 2.4900000000e+000  7.2911459180e-001 5.2703885864e+000
 2.5000000000e+000  7.3271631248e-001 5.3044970704e+000
 2.5100000000e+000  7.3646858253e-001 5.3261869475e+000
 2.5200000000e+000  7.4035868867e-001 5.3345632696e+000
 2.5300000000e+000  7.4437256636e-001 5.3288743743e+000
 2.5400000000e+000  7.4849502999e-001 5.3085217348e+000
 2.5500000000e+000  7.5271002840e-001 5.2730658022e+000
 2.5600000000e+000  7.5700091658e-001 5.2222277370e+000
 2.5700000000e+000  7.6135073410e-001 5.1558871254e+000
 2.5800000000e+000  7.6574248058e-001 5.0740759579e+000
 2.5900000000e+000  7.7015937920e-001 4.9769693025e+000
 2.6000000000e+000  7.7458512036e-001 4.8648732214e+000
 2.6100000000e+000  7.7900407887e-001 4.7382105569e+000
 2.6200000000e+000  7.8340149977e-001 4.5975052432e+000
 2.6300000000e+000  7.8776364984e-001 4.4433657927e+000
 2.6400000000e+000  7.9207793328e-001 4.2764685667e+000
 2.6500000000e+000  7.9633297187e-001 4.0975413663e+000
 2.6600000000e+000  8.0051865134e-001 3.9073477994e+000
 2.6700000000e+000  8.0462613655e-001 3.7066727782e+000
 2.6800000000e+000  8.0864785910e-001 3.4963094065e+000
 2.6900000000e+000  8.1257748150e-001 3.2770474240e+000
 2.7000000000e+000  8.1640984208e-001 3.0496632865e+000
 2.7100000000e+000  8.2014088494e-001 2.8149118921e+000
 2.7200000000e+000  8.2376757920e-001 2.5735199038e+000
 2.7300000000e+000  8.2728783103e-001 2.3261805721e+000
 2.7400000000e+000  8.3070039206e-001 2.0735499321e+000
 2.7500000000e+000  8.3400476684e-001 1.8162442276e+000
 2.7600000000e+000  8.3720112179e-001 1.5548384061e+000
 2.7700000000e+000  8.4029019740e-001 1.2898655253e+000
 2.7800000000e+000  8.4327322525e-001 1.0218169183e+000
 2.7900000000e+000  8.4615185062e-001 7.5114297238e-001
 2.8000000000e+000  8.4892806150e-001 4.7825438821e-001
 2.8100000000e+000  8.5160412431e-001 2.0352380315e-001
 2.8200000000e+000  8.5418252626e-001 -7.2712327102e-002
 2.8300000000e+000  8.5666592448e-001 -3.5015167582e-001
 2.8400000000e+000  8.5905710143e-001 -6.2852389677e-001
 2.8500000000e+000  8.6135892639e-001 -9.0758844117e-001
 2.8600000000e+000  8.6357432252e-001 -1.1871323896e+000
 2.8700000000e+000  8.6570623899e-001 -1.4669683376e+000
 2.8800000000e+000  8.6775762772e-001 -1.7469323649e+000
 2.8900000000e+000  8.6973142418e-001 -2.0268821101e+000
 2.9000000000e+000  8.7163053187e-001 -2.3066949649e+000
 2.9100000000e+000  8.7345780974e-001 -2.5862663993e+000
 2.9200000000e+000  8.7521606249e-001 -2.8655084214e+000
 2.9300000000e+000  8.7690803291e-001 -3.1443481739e+000
 2.9400000000e+000  8.7853639622e-001 -3.4227266662e+000
 2.9500000000e+000  8.8010375586e-001 -3.7005976384e+000
 2.9600000000e+000  8.8161264045e-001 -3.9779265519e+000
 2.9700000000e+000  8.8306550161e-001 -4.2546897001e+000
 2.9800000000e+000  8.8446471247e-001 -4.5308734316e+000
 2.9900000000e+000  8.8581256647e-001 -4.8064734771e+000
 3.0000000000e+000  8.8711127629e-001 -5.0814943708e+000
 3.0100000000e+000  8.8836297284e-001 -5.3559489575e+000
 3.0200000000e+000  8.8956970389e-001 -5.6298579720e+000
 3.0300000000e+000  8.9073343240e-001 -5.9032496829e+000
 3.0400000000e+000  8.9185603428e-001 -6.1761595868e+000
 3.0500000000e+000  8.9293929550e-001 -6.4486301396e+000
 3.0600000000e+000  8.9398490854e-001 -6.7207105144e+000
 3.0700000000e+000  8.9499446793e-001 -6.9924563685e+000
 3.0800000000e+000  8.9596946509e-001 -7.2639296063e+000
 3.0900000000e+000  8.9691128225e-001 -7.5351981240e+000
 3.1000000000e+000  8.9782118562e-001 -7.8063355175e+000
 3.1100000000e+000  8.9870031787e-001 -8.0774207408e+000
 3.1200000000e+000  8.9954969004e-001 -8.3485376981e+000
 3.1300000000e+000  9.0037017301e-001 -8.6197747555e+000
 3.1400000000e+000  9.0116248892e-001 -8.8912241602e+000
 3.1500000000e+000  9.0192720262e-001 -9.1629813555e+000
 3.1600000000e+000  9.0266471366e-001 -9.4351441845e+000
 3.1700000000e+000  9.0337524908e-001 -9.7078119781e+000
 3.1800000000e+000  9.0405885755e-001 -9.9810845287e+000
 3.1900000000e+000  9.0471540510e-001 -1.0255060954e+001
 3.2000000000e+000  9.0534457317e-001 -1.0529838463e+001
 3.2100000000e+000  9.0594585913e-001 -1.0805511044e+001
 3.2200000000e+000  9.0651857987e-001 -1.1082168098e+001
 3.2300000000e+000  9.0706187874e-001 -1.1359893044e+001
 3.2400000000e+000  9.0757473609e-001 -1.1638761942e+001
 3.2500000000e+000  9.0805598355e-001 -1.1918842168e+001
 3.2600000000e+000  9.0850432204e-001 -1.2200191191e+001
 3.2700000000e+000  9.0891834347e-001 -1.2482855488e+001
 3.2800000000e+000  9.0929655554e-001 -1.2766869660e+001
 3.2900000000e+000  9.0963740952e-001 -1.3052255772e+001
 3.3000000000e+000  9.0993933001e-001 -1.3339022971e+001
 3.3100000000e+000  9.1020074607e-001 -1.3627167394e+001
 3.3200000000e+000  9.1042012283e-001 -1.3916672399e+001
 3.3300000000e+000  9.1059599242e-001 -1.4207509109e+001
 3.3400000000e+000  9.1072698345e-001 -1.4499637281e+001
 3.3500000000e+000  9.1081184788e-001 -1.4793006458e+001
 3.3600000000e+000  9.1084948445e-001 -1.5087557389e+001
 3.3700000000e+000  9.1083895796e-001 -1.5383223659e+001
 3.3800000000e+000  9.1077951368e-001 -1.5679933490e+001
 3.3900000000e+000  9.1067058668e-001 -1.5977611640e+001
 3.4000000000e+000  9.1051180566e-001 -1.6276181351e+001
 3.4100000000e+000  9.1030299158e-001 -1.6575566273e+001
 3.4200000000e+000  9.1004415117e-001 -1.6875692315e+001
 3.4300000000e+000  9.0973546580e-001 -1.7176489369e+001
 3.4400000000e+000  9.0937727633e-001 -1.7477892855e+001
 3.4500000000e+000  9.0897006462e-001 -1.7779845067e+001
 3.4600000000e+000  9.0851443239e-001 -1.8082296284e+001
 3.4700000000e+000  9.0801107838e-001 -1.8385205639e+001
 3.4800000000e+000  9.0746077443e-001 -1.8688541739e+001
 3.4900000000e+000  9.0686434127e-001 -1.8992283045e+001
 3.5000000000e+000  9.0622262467e-001 -1.9296418025e+001
 3.5100000000e+000  9.0553647255e-001 -1.9600945092e+001
 3.5200000000e+000  9.0480671341e-001 -1.9905872360e+001
 3.5300000000e+000  9.0403413652e-001 -2.0211217238e+001
 3.5400000000e+000  9.0321947410e-001 -2.0517005895e+001
 3.5500000000e+000  9.0236338554e-001 -2.0823272608e+001
 3.5600000000e+000  9.0146644394e-001 -2.1130059040e+001
 3.5700000000e+000  9.0052912467e-001 -2.1437413458e+001
 3.5800000000e+000  8.9955179616e-001 -2.1745389911e+001
 3.5900000000e+000  8.9853471262e-001 -2.2054047397e+001
 3.6000000000e+000  8.9747800860e-001 -2.2363449025e+001
 3.6100000000e+000  8.9638169524e-001 -2.2673661185e+001
 3.6200000000e+000  8.9524565807e-001 -2.2984752741e+001
 3.6300000000e+000  8.9406965605e-001 -2.3296794254e+001
 3.6400000000e+000  8.9285332186e-001 -2.3609857229e+001
 3.6500000000e+000  8.9159616311e-001 -2.3924013402e+001
 3.6600000000e+000  8.9029756451e-001 -2.4239334059e+001
 3.6700000000e+000  8.8895679071e-001 -2.4555889398e+001
 3.6800000000e+000  8.8757298978e-001 -2.4873747914e+001
 3.6900000000e+000  8.8614519724e-001 -2.5192975831e+001
 3.7000000000e+000  8.8467234057e-001 -2.5513636550e+001
 3.7100000000e+000  8.8315324409e-001 -2.5835790139e+001
 3.7200000000e+000  8.8158663429e-001 -2.6159492846e+001
 3.7300000000e+000  8.7997114539e-001 -2.6484796633e+001
 3.7400000000e+000  8.7830532530e-001 -2.6811748737e+001
 3.7500000000e+000  8.7658764182e-001 -2.7140391258e+001
 3.7600000000e+000  8.7481648919e-001 -2.7470760757e+001
 3.7700000000e+000  8.7299019484e-001 -2.7802887888e+001
 3.7800000000e+000  8.7110702643e-001 -2.8136797043e+001
 3.7900000000e+000  8.6916519923e-001 -2.8472506021e+001
 3.8000000000e+000  8.6716288360e-001 -2.8810025718e+001
 3.8100000000e+000  8.6509821278e-001 -2.9149359845e+001
 3.8200000000e+000  8.6296929091e-001 -2.9490504663e+001
 3.8300000000e+000  8.6077420111e-001 -2.9833448750e+001
 3.8400000000e+000  8.5851101376e-001 -3.0178172793e+001
 3.8500000000e+000  8.5617779490e-001 -3.0524649404e+001
 3.8600000000e+000  8.5377261454e-001 -3.0872842973e+001
 3.8700000000e+000  8.5129355510e-001 -3.1222709544e+001
 3.8800000000e+000  8.4873871963e-001 -3.1574196724e+001
 3.8900000000e+000  8.4610623992e-001 -3.1927243618e+001
 3.9000000000e+000  8.4339428444e-001 -3.2281780801e+001
