! IGNION VIRTUAL ANTENNA LIBRARY
!
! NN_RUN_B90x70_C70x11
! Virtual Antenna™ RUN mXTEND™: NN02-224 12.0 mm x 3.0 mm x 2.4 mm
! https://ignion.io/product/run-mxtend/
! Board: 90 mm x 70 mm
! Clearance Area: 70 mm x 11 mm
! Feeding line: L-shape; 11mm x 2mm and 5mm x 2mm
! Applications: Fleet management, IoT
! Frequency range 0.65GHz to 6GHz, step 10MHz
! Number of ports 1
!
! This product and its use is protected by at least one or more of the following patents and patent
! applications US 8,203,492 B2; US 8,237,615 B2; PCT/EP2013/064692; WO 2014/012842 A1; US 2019/190122 A1;
! US 62/072,671; and other domestic and international patents pending. Additional information about
! patents related to this product is available at https://ignion.io/files/Patent-list-NN.pdf, all
! rights reserved. Copyright, Ignion 2021.
!
! Need more help? Your platform is much different than these examples in the manual? Use our 
! Fast Track service (https://ignion.io/fast-track/), for free, and get a personalized antenna design in
! just 24 hours.
!
! 
! Touchstone port 1 = "Series Port"
!
! IE3D S-Parameters Output Version 2.0  
# GHZ S MA R 50
! Nport = 1
!

 6.5000000000e-001  9.8859502953e-001 -1.7517190119e+001
 6.6000000000e-001  9.8801003592e-001 -1.7870174273e+001
 6.7000000000e-001  9.8738902970e-001 -1.8227837955e+001
 6.8000000000e-001  9.8672959499e-001 -1.8590313896e+001
 6.9000000000e-001  9.8602916019e-001 -1.8957736075e+001
 7.0000000000e-001  9.8528498947e-001 -1.9330239374e+001
 7.1000000000e-001  9.8449417404e-001 -1.9707959166e+001
 7.2000000000e-001  9.8365362343e-001 -2.0091030848e+001
 7.3000000000e-001  9.8276005674e-001 -2.0479589292e+001
 7.4000000000e-001  9.8180999405e-001 -2.0873768218e+001
 7.5000000000e-001  9.8079974808e-001 -2.1273699479e+001
 7.6000000000e-001  9.7972541616e-001 -2.1679512244e+001
 7.7000000000e-001  9.7858287296e-001 -2.2091332084e+001
 7.8000000000e-001  9.7736776387e-001 -2.2509279930e+001
 7.9000000000e-001  9.7607549952e-001 -2.2933470917e+001
 8.0000000000e-001  9.7470125154e-001 -2.3364013094e+001
 8.1000000000e-001  9.7323995014e-001 -2.3801005985e+001
 8.2000000000e-001  9.7168628352e-001 -2.4244539014e+001
 8.3000000000e-001  9.7003469990e-001 -2.4694689767e+001
 8.4000000000e-001  9.6827941237e-001 -2.5151522098e+001
 8.5000000000e-001  9.6641440716e-001 -2.5615084079e+001
 8.6000000000e-001  9.6443345589e-001 -2.6085405783e+001
 8.7000000000e-001  9.6233013235e-001 -2.6562496923e+001
 8.8000000000e-001  9.6009783446e-001 -2.7046344340e+001
 8.9000000000e-001  9.5772981198e-001 -2.7536909371e+001
 9.0000000000e-001  9.5521920070e-001 -2.8034125104e+001
 9.1000000000e-001  9.5255906362e-001 -2.8537893569e+001
 9.2000000000e-001  9.4974243973e-001 -2.9048082889e+001
 9.3000000000e-001  9.4676240095e-001 -2.9564524456e+001
 9.4000000000e-001  9.4361211740e-001 -3.0087010180e+001
 9.5000000000e-001  9.4028493148e-001 -3.0615289900e+001
 9.6000000000e-001  9.3677444053e-001 -3.1149069036e+001
 9.7000000000e-001  9.3307458789e-001 -3.1688006582e+001
 9.8000000000e-001  9.2917976180e-001 -3.2231713557e+001
 9.9000000000e-001  9.2508490114e-001 -3.2779752034e+001
 1.0000000000e+000  9.2078560655e-001 -3.3331634882e+001
 1.0100000000e+000  9.1627825522e-001 -3.3886826360e+001
 1.0200000000e+000  9.1156011680e-001 -3.4444743689e+001
 1.0300000000e+000  9.0662946778e-001 -3.5004759758e+001
 1.0400000000e+000  9.0148570071e-001 -3.5566207064e+001
 1.0500000000e+000  8.9612942485e-001 -3.6128383002e+001
 1.0600000000e+000  8.9056255373e-001 -3.6690556574e+001
 1.0700000000e+000  8.8478837570e-001 -3.7251976544e+001
 1.0800000000e+000  8.7881160275e-001 -3.7811881043e+001
 1.0900000000e+000  8.7263839368e-001 -3.8369508537e+001
 1.1000000000e+000  8.6627634767e-001 -3.8924110045e+001
 1.1100000000e+000  8.5973446515e-001 -3.9474962395e+001
 1.1200000000e+000  8.5302307384e-001 -4.0021382261e+001
 1.1300000000e+000  8.4615371872e-001 -4.0562740648e+001
 1.1400000000e+000  8.3913901627e-001 -4.1098477444e+001
 1.1500000000e+000  8.3199247468e-001 -4.1628115596e+001
 1.1600000000e+000  8.2472828319e-001 -4.2151274473e+001
 1.1700000000e+000  8.1736107527e-001 -4.2667681931e+001
 1.1800000000e+000  8.0990567170e-001 -4.3177184644e+001
 1.1900000000e+000  8.0237681054e-001 -4.3679756302e+001
 1.2000000000e+000  7.9478887189e-001 -4.4175503326e+001
 1.2100000000e+000  7.8715560572e-001 -4.4664667855e+001
 1.2200000000e+000  7.7948987089e-001 -4.5147627859e+001
 1.2300000000e+000  7.7180339306e-001 -4.5624894349e+001
 1.2400000000e+000  7.6410654842e-001 -4.6097105752e+001
 1.2500000000e+000  7.5640817885e-001 -4.6565019680e+001
 1.2600000000e+000  7.4871544265e-001 -4.7029502361e+001
 1.2700000000e+000  7.4103370349e-001 -4.7491516142e+001
 1.2800000000e+000  7.3336645852e-001 -4.7952105493e+001
 1.2900000000e+000  7.2571530503e-001 -4.8412381997e+001
 1.3000000000e+000  7.1807994351e-001 -4.8873508805e+001
 1.3100000000e+000  7.1045821400e-001 -4.9336685037e+001
 1.3200000000e+000  7.0284616142e-001 -4.9803130532e+001
 1.3300000000e+000  6.9523812517e-001 -5.0274071339e+001
 1.3400000000e+000  6.8762684785e-001 -5.0750726212e+001
 1.3500000000e+000  6.8000359802e-001 -5.1234294345e+001
 1.3600000000e+000  6.7235830204e-001 -5.1725944461e+001
 1.3700000000e+000  6.6467968054e-001 -5.2226805305e+001
 1.3800000000e+000  6.5695538557e-001 -5.2737957513e+001
 1.3900000000e+000  6.4917213533e-001 -5.3260426762e+001
 1.4000000000e+000  6.4131584387e-001 -5.3795178055e+001
 1.4100000000e+000  6.3337174409e-001 -5.4343110946e+001
 1.4200000000e+000  6.2532450299e-001 -5.4905055479e+001
 1.4300000000e+000  6.1715832885e-001 -5.5481768583e+001
 1.4400000000e+000  6.0885707061e-001 -5.6073930679e+001
 1.4500000000e+000  6.0040431014e-001 -5.6682142195e+001
 1.4600000000e+000  5.9178344862e-001 -5.7306919729e+001
 1.4700000000e+000  5.8297778868e-001 -5.7948691575e+001
 1.4800000000e+000  5.7397061393e-001 -5.8607792303e+001
 1.4900000000e+000  5.6474526802e-001 -5.9284456123e+001
 1.5000000000e+000  5.5528523534e-001 -5.9978808701e+001
 1.5100000000e+000  5.4557422550e-001 -6.0690857102e+001
 1.5200000000e+000  5.3559626388e-001 -6.1420477502e+001
 1.5300000000e+000  5.2533579039e-001 -6.2167400247e+001
 1.5400000000e+000  5.1477776860e-001 -6.2931191796e+001
 1.5500000000e+000  5.0390780722e-001 -6.3711232973e+001
 1.5600000000e+000  4.9271229584e-001 -6.4506692861e+001
 1.5700000000e+000  4.8117855660e-001 -6.5316497487e+001
 1.5800000000e+000  4.6929501337e-001 -6.6139292254e+001
 1.5900000000e+000  4.5705137957e-001 -6.6973396789e+001
 1.6000000000e+000  4.4443886595e-001 -6.7816750486e+001
 1.6100000000e+000  4.3145040888e-001 -6.8666846528e+001
 1.6200000000e+000  4.1808092011e-001 -6.9520651453e+001
 1.6300000000e+000  4.0432755843e-001 -7.0374506393e+001
 1.6400000000e+000  3.9019002411e-001 -7.1224004763e+001
 1.6500000000e+000  3.7567087727e-001 -7.2063839339e+001
 1.6600000000e+000  3.6077588229e-001 -7.2887609045e+001
 1.6700000000e+000  3.4551438230e-001 -7.3687572034e+001
 1.6800000000e+000  3.2989971051e-001 -7.4454326250e+001
 1.6900000000e+000  3.1394965032e-001 -7.5176390835e+001
 1.7000000000e+000  2.9768696389e-001 -7.5839650116e+001
 1.7100000000e+000  2.8114002143e-001 -7.6426604630e+001
 1.7200000000e+000  2.6434358352e-001 -7.6915347469e+001
 1.7300000000e+000  2.4733982071e-001 -7.7278144392e+001
 1.7400000000e+000  2.3017970622e-001 -7.7479434909e+001
 1.7500000000e+000  2.1292500214e-001 -7.7472977601e+001
 1.7600000000e+000  1.9565120017e-001 -7.7197720285e+001
 1.7700000000e+000  1.7845201369e-001 -7.6571767664e+001
 1.7800000000e+000  1.6144641463e-001 -7.5483547083e+001
 1.7900000000e+000  1.4478986369e-001 -7.3779030911e+001
 1.8000000000e+000  1.2869238792e-001 -7.1244099749e+001
 1.8100000000e+000  1.1344737048e-001 -6.7583378779e+001
 1.8200000000e+000  9.9474968074e-002 -6.2405820018e+001
 1.8300000000e+000  8.7377207025e-002 -5.5253691879e+001
 1.8400000000e+000  7.7971956642e-002 -4.5763965767e+001
 1.8500000000e+000  7.2203604260e-002 -3.4061717218e+001
 1.8600000000e+000  7.0799244264e-002 -2.1191349577e+001
 1.8700000000e+000  7.3804712018e-002 -8.8743609327e+000
 1.8800000000e+000  8.0505704623e-002 1.5127413445e+000
 1.8900000000e+000  8.9851719779e-002 9.5407800439e+000
 1.9000000000e+000  1.0088513029e-001 1.5451727600e+001
 1.9100000000e+000  1.1289430918e-001 1.9698062680e+001
 1.9200000000e+000  1.2539150433e-001 2.2702713338e+001
 1.9300000000e+000  1.3804855126e-001 2.4795117498e+001
 1.9400000000e+000  1.5064241445e-001 2.6216279018e+001
 1.9500000000e+000  1.6301834873e-001 2.7139539477e+001
 1.9600000000e+000  1.7506663978e-001 2.7689929779e+001
 1.9700000000e+000  1.8670811586e-001 2.7958686752e+001
 1.9800000000e+000  1.9788502891e-001 2.8013410969e+001
 1.9900000000e+000  2.0855518951e-001 2.7905023628e+001
 2.0000000000e+000  2.1868809110e-001 2.7672524882e+001
 2.0100000000e+000  2.2826227159e-001 2.7346274456e+001
 2.0200000000e+000  2.3726346239e-001 2.6950281578e+001
 2.0300000000e+000  2.4568325158e-001 2.6503826419e+001
 2.0400000000e+000  2.5351809258e-001 2.6022625581e+001
 2.0500000000e+000  2.6076855257e-001 2.5519682548e+001
 2.0600000000e+000  2.6743873323e-001 2.5005917431e+001
 2.0700000000e+000  2.7353581970e-001 2.4490639839e+001
 2.0800000000e+000  2.7906972890e-001 2.3981908617e+001
 2.0900000000e+000  2.8405283722e-001 2.3486808697e+001
 2.1000000000e+000  2.8849977379e-001 2.3011666263e+001
 2.1100000000e+000  2.9242726939e-001 2.2562217105e+001
 2.1200000000e+000  2.9585405324e-001 2.2143738743e+001
 2.1300000000e+000  2.9880079149e-001 2.1761153741e+001
 2.1400000000e+000  3.0129006210e-001 2.1419109419e+001
 2.1500000000e+000  3.0334636106e-001 2.1122037521e+001
 2.1600000000e+000  3.0499613489e-001 2.0874196112e+001
 2.1700000000e+000  3.0626783422e-001 2.0679695064e+001
 2.1800000000e+000  3.0719198240e-001 2.0542505720e+001
 2.1900000000e+000  3.0780125262e-001 2.0466454767e+001
 2.2000000000e+000  3.0813054554e-001 2.0455201978e+001
 2.2100000000e+000  3.0821705865e-001 2.0512201208e+001
 2.2200000000e+000  3.0810033665e-001 2.0640644026e+001
 2.2300000000e+000  3.0782229106e-001 2.0843385544e+001
 2.2400000000e+000  3.0742717549e-001 2.1122852471e+001
 2.2500000000e+000  3.0696150196e-001 2.1480934255e+001
 2.2600000000e+000  3.0647388279e-001 2.1918859326e+001
 2.2700000000e+000  3.0601478271e-001 2.2437060064e+001
 2.2800000000e+000  3.0563616703e-001 2.3035032001e+001
 2.2900000000e+000  3.0539103459e-001 2.3711194942e+001
 2.3000000000e+000  3.0533282890e-001 2.4462765854e+001
 2.3100000000e+000  3.0551472785e-001 2.5285655223e+001
 2.3200000000e+000  3.0598882109e-001 2.6174399674e+001
 2.3300000000e+000  3.0680519484e-001 2.7122143628e+001
 2.3400000000e+000  3.0801095495e-001 2.8120681017e+001
 2.3500000000e+000  3.0964922974e-001 2.9160564647e+001
 2.3600000000e+000  3.1175820236e-001 3.0231285474e+001
 2.3700000000e+000  3.1437022703e-001 3.1321517565e+001
 2.3800000000e+000  3.1751108272e-001 3.2419417481e+001
 2.3900000000e+000  3.2119941154e-001 3.3512960502e+001
 2.4000000000e+000  3.2544637693e-001 3.4590291530e+001
 2.4100000000e+000  3.3025556132e-001 3.5640066603e+001
 2.4200000000e+000  3.3562310417e-001 3.6651762027e+001
 2.4300000000e+000  3.4153806465e-001 3.7615932054e+001
 2.4400000000e+000  3.4798297767e-001 3.8524401986e+001
 2.4500000000e+000  3.5493456206e-001 3.9370390534e+001
 2.4600000000e+000  3.6236453424e-001 4.0148562029e+001
 2.4700000000e+000  3.7024048007e-001 4.0855014785e+001
 2.4800000000e+000  3.7852674194e-001 4.1487215934e+001
 2.4900000000e+000  3.8718528410e-001 4.2043895231e+001
 2.5000000000e+000  3.9617650780e-001 4.2524910804e+001
 2.5100000000e+000  4.0545999592e-001 4.2931098981e+001
 2.5200000000e+000  4.1499517484e-001 4.3264118606e+001
 2.5300000000e+000  4.2474188739e-001 4.3526298094e+001
 2.5400000000e+000  4.3466087670e-001 4.3720491259e+001
 2.5500000000e+000  4.4471418382e-001 4.3849945887e+001
 2.5600000000e+000  4.5486546513e-001 4.3918187261e+001
 2.5700000000e+000  4.6508023666e-001 4.3928917485e+001
 2.5800000000e+000  4.7532605340e-001 4.3885930435e+001
 2.5900000000e+000  4.8557263169e-001 4.3793041478e+001
 2.6000000000e+000  4.9579192253e-001 4.3654030666e+001
 2.6100000000e+000  5.0595814324e-001 4.3472597911e+001
 2.6200000000e+000  5.1604777417e-001 4.3252328575e+001
 2.6300000000e+000  5.2603952659e-001 4.2996667947e+001
 2.6400000000e+000  5.3591428716e-001 4.2708903176e+001
 2.6500000000e+000  5.4565504376e-001 4.2392151357e+001
 2.6600000000e+000  5.5524679693e-001 4.2049352644e+001
 2.6700000000e+000  5.6467646040e-001 4.1683267382e+001
 2.6800000000e+000  5.7393275405e-001 4.1296476420e+001
 2.6900000000e+000  5.8300609185e-001 4.0891383882e+001
 2.7000000000e+000  5.9188846706e-001 4.0470221828e+001
 2.7100000000e+000  6.0057333676e-001 4.0035056272e+001
 2.7200000000e+000  6.0905550713e-001 3.9587794207e+001
 2.7300000000e+000  6.1733102095e-001 3.9130191267e+001
 2.7400000000e+000  6.2539704823e-001 3.8663859806e+001
 2.7500000000e+000  6.3325178105e-001 3.8190277161e+001
 2.7600000000e+000  6.4089433291e-001 3.7710793947e+001
 2.7700000000e+000  6.4832464338e-001 3.7226642268e+001
 2.7800000000e+000  6.5554338821e-001 3.6738943734e+001
 2.7900000000e+000  6.6255189500e-001 3.6248717228e+001
 2.8000000000e+000  6.6935206480e-001 3.5756886359e+001
 2.8100000000e+000  6.7594629931e-001 3.5264286582e+001
 2.8200000000e+000  6.8233743380e-001 3.4771671951e+001
 2.8300000000e+000  6.8852867553e-001 3.4279721494e+001
 2.8400000000e+000  6.9452354752e-001 3.3789045218e+001
 2.8500000000e+000  7.0032583737e-001 3.3300189730e+001
 2.8600000000e+000  7.0593955100e-001 3.2813643491e+001
 2.8700000000e+000  7.1136887085e-001 3.2329841715e+001
 2.8800000000e+000  7.1661811851e-001 3.1849170914e+001
 2.8900000000e+000  7.2169172124e-001 3.1371973121e+001
 2.9000000000e+000  7.2659418227e-001 3.0898549789e+001
 2.9100000000e+000  7.3133005452e-001 3.0429165400e+001
 2.9200000000e+000  7.3590391748e-001 2.9964050783e+001
 2.9300000000e+000  7.4032035700e-001 2.9503406175e+001
 2.9400000000e+000  7.4458394768e-001 2.9047404030e+001
 2.9500000000e+000  7.4869923772e-001 2.8596191597e+001
 2.9600000000e+000  7.5267073587e-001 2.8149893277e+001
 2.9700000000e+000  7.5650290041e-001 2.7708612789e+001
 2.9800000000e+000  7.6020012980e-001 2.7272435138e+001
 2.9900000000e+000  7.6376675500e-001 2.6841428415e+001
 3.0000000000e+000  7.6720703310e-001 2.6415645438e+001
 3.0100000000e+000  7.7052514222e-001 2.5995125240e+001
 3.0200000000e+000  7.7372517751e-001 2.5579894423e+001
 3.0300000000e+000  7.7681114807e-001 2.5169968384e+001
 3.0400000000e+000  7.7978697474e-001 2.4765352428e+001
 3.0500000000e+000  7.8265648855e-001 2.4366042770e+001
 3.0600000000e+000  7.8542342988e-001 2.3972027437e+001
 3.0700000000e+000  7.8809144799e-001 2.3583287088e+001
 3.0800000000e+000  7.9066410112e-001 2.3199795744e+001
 3.0900000000e+000  7.9314485689e-001 2.2821521443e+001
 3.1000000000e+000  7.9553709294e-001 2.2448426827e+001
 3.1100000000e+000  7.9784409786e-001 2.2080469669e+001
 3.1200000000e+000  8.0006907226e-001 2.1717603340e+001
 3.1300000000e+000  8.0221512990e-001 2.1359777224e+001
 3.1400000000e+000  8.0428529896e-001 2.1006937086e+001
 3.1500000000e+000  8.0628252330e-001 2.0659025405e+001
 3.1600000000e+000  8.0820966368e-001 2.0315981659e+001
 3.1700000000e+000  8.1006949899e-001 1.9977742590e+001
 3.1800000000e+000  8.1186472737e-001 1.9644242430e+001
 3.1900000000e+000  8.1359796727e-001 1.9315413109e+001
 3.2000000000e+000  8.1527175842e-001 1.8991184441e+001
 3.2100000000e+000  8.1688856259e-001 1.8671484291e+001
 3.2200000000e+000  8.1845076437e-001 1.8356238737e+001
 3.2300000000e+000  8.1996067171e-001 1.8045372205e+001
 3.2400000000e+000  8.2142051641e-001 1.7738807620e+001
 3.2500000000e+000  8.2283245444e-001 1.7436466530e+001
 3.2600000000e+000  8.2419856619e-001 1.7138269248e+001
 3.2700000000e+000  8.2552085664e-001 1.6844134980e+001
 3.2800000000e+000  8.2680125542e-001 1.6553981967e+001
 3.2900000000e+000  8.2804161692e-001 1.6267727624e+001
 3.3000000000e+000  8.2924372023e-001 1.5985288692e+001
 3.3100000000e+000  8.3040926927e-001 1.5706581395e+001
 3.3200000000e+000  8.3153989282e-001 1.5431521602e+001
 3.3300000000e+000  8.3263714476e-001 1.5160025004e+001
 3.3400000000e+000  8.3370250431e-001 1.4892007298e+001
 3.3500000000e+000  8.3473737648e-001 1.4627384373e+001
 3.3600000000e+000  8.3574309274e-001 1.4366072512e+001
 3.3700000000e+000  8.3672091182e-001 1.4107988596e+001
 3.3800000000e+000  8.3767202085e-001 1.3853050311e+001
 3.3900000000e+000  8.3859753666e-001 1.3601176361e+001
 3.4000000000e+000  8.3949850752e-001 1.3352286675e+001
 3.4100000000e+000  8.4037591501e-001 1.3106302614e+001
 3.4200000000e+000  8.4123067637e-001 1.2863147177e+001
 3.4300000000e+000  8.4206364702e-001 1.2622745187e+001
 3.4400000000e+000  8.4287562348e-001 1.2385023477e+001
 3.4500000000e+000  8.4366734654e-001 1.2149911049e+001
 3.4600000000e+000  8.4443950469e-001 1.1917339228e+001
 3.4700000000e+000  8.4519273781e-001 1.1687241785e+001
 3.4800000000e+000  8.4592764105e-001 1.1459555043e+001
 3.4900000000e+000  8.4664476889e-001 1.1234217958e+001
 3.5000000000e+000  8.4734463924e-001 1.1011172171e+001
 3.5100000000e+000  8.4802773771e-001 1.0790362034e+001
 3.5200000000e+000  8.4869452181e-001 1.0571734613e+001
 3.5300000000e+000  8.4934542516e-001 1.0355239655e+001
 3.5400000000e+000  8.4998086154e-001 1.0140829536e+001
 3.5500000000e+000  8.5060122884e-001 9.9284591783e+000
 3.5600000000e+000  8.5120691283e-001 9.7180859437e+000
 3.5700000000e+000  8.5179829063e-001 9.5096695087e+000
 3.5800000000e+000  8.5237573396e-001 9.3031717145e+000
 3.5900000000e+000  8.5293961201e-001 9.0985564030e+000
 3.6000000000e+000  8.5349029404e-001 8.8957892375e+000
 3.6100000000e+000  8.5402815158e-001 8.6948375128e+000
 3.6200000000e+000  8.5455356026e-001 8.4956699568e+000
 3.6300000000e+000  8.5506690125e-001 8.2982565278e+000
 3.6400000000e+000  8.5556856235e-001 8.1025682103e+000
 3.6500000000e+000  8.5605893871e-001 7.9085768121e+000
 3.6600000000e+000  8.5653843310e-001 7.7162547653e+000
 3.6700000000e+000  8.5700745600e-001 7.5255749351e+000
 3.6800000000e+000  8.5746642523e-001 7.3365104372e+000
 3.6900000000e+000  8.5791576535e-001 7.1490344662e+000
 3.7000000000e+000  8.5835590679e-001 6.9631201384e+000
 3.7100000000e+000  8.5878728476e-001 6.7787403471e+000
 3.7200000000e+000  8.5921033792e-001 6.5958676354e+000
 3.7300000000e+000  8.5962550694e-001 6.4144740835e+000
 3.7400000000e+000  8.6003323289e-001 6.2345312148e+000
 3.7500000000e+000  8.6043395558e-001 6.0560099169e+000
 3.7600000000e+000  8.6082811173e-001 5.8788803813e+000
 3.7700000000e+000  8.6121613324e-001 5.7031120582e+000
 3.7800000000e+000  8.6159844535e-001 5.5286736291e+000
 3.7900000000e+000  8.6197546488e-001 5.3555329930e+000
 3.8000000000e+000  8.6234759845e-001 5.1836572684e+000
 3.8100000000e+000  8.6271524082e-001 5.0130128086e+000
 3.8200000000e+000  8.6307877330e-001 4.8435652290e+000
 3.8300000000e+000  8.6343856223e-001 4.6752794463e+000
 3.8400000000e+000  8.6379495760e-001 4.5081197276e+000
 3.8500000000e+000  8.6414829177e-001 4.3420497485e+000
 3.8600000000e+000  8.6449887834e-001 4.1770326587e+000
 3.8700000000e+000  8.6484701113e-001 4.0130311544e+000
 3.8800000000e+000  8.6519296334e-001 3.8500075556e+000
 3.8900000000e+000  8.6553698678e-001 3.6879238881e+000
 3.9000000000e+000  8.6587931135e-001 3.5267419674e+000
 3.9100000000e+000  8.6622014453e-001 3.3664234858e+000
