! IGNION VIRTUAL ANTENNA LIBRARY
!
! NN_RUN_B85x55_C55x11
! Virtual Antenna™ RUN mXTEND™: NN02-224 12.0 mm x 3.0 mm x 2.4 mm
! https://ignion.io/product/run-mxtend/
! Board: 85 mm x 55 mm
! Clearance Area: 55 mm x 11 mm
! Feeding line: L-shape; 11mm x 2mm and 5mm x 2mm
! Applications: Fleet management, IoT
! Frequency range 0.65GHz to 6GHz, step 10MHz
! Number of ports 9
!
! This product and its use is protected by at least one or more of the following patents and patent
! applications US 8,203,492 B2; US 8,237,615 B2; PCT/EP2013/064692; WO 2014/012842 A1; US 2019/190122 A1;
! US 62/072,671; and other domestic and international patents pending. Additional information about
! patents related to this product is available at https://ignion.io/files/Patent-list-NN.pdf, all
! rights reserved. Copyright, Ignion 2021.
!
! Need more help? Your platform is much different than these examples in the manual? Use our 
! Fast Track service (https://ignion.io/fast-track/), for free, and get a personalized antenna design in
! just 24 hours.
!
! 
! Touchstone port 1 = "Series Port"
! Touchstone port 2 = "Shunt Port"
! Touchstone port 3 = "Series Port"
! Touchstone port 4 = "Shunt Port"
! Touchstone port 5 = "Series Port"
! Touchstone port 6 = "Shunt Port"
! Touchstone port 7 = "Series Port"
! Touchstone port 8 = "Shunt Port"
! Touchstone port 9 = "Series Port"
!
! IE3D S-Parameters Output Version 2.0  
# GHZ S MA R 50
! Nport = 9
!

 6.5000000000e-001  2.4997330401e-001 1.5228621712e+002  7.6187577423e-001 -5.4272985925e+000  4.6696590512e-001 1.7217394163e+002  2.9320293013e-001 -8.1092133813e+000
          1.7450246111e-001 1.7202415914e+002  1.1845647718e-001 -9.5841989753e+000  5.6648876844e-002 1.7543068214e+002  6.2063792371e-002 -1.2658755800e+001
          1.0069737412e-002 -6.8442779159e+001
          7.6187577423e-001 -5.4272985925e+000  2.4198704049e-001 1.6126451000e+002  4.7042595259e-001 1.7695320858e+002  2.9428665170e-001 -2.3117689334e+000
          1.7635892933e-001 1.7510299275e+002  1.1724742781e-001 -5.6129121503e+000  5.9207303321e-002 1.7655270424e+002  5.8095958377e-002 -9.9832833147e+000
          7.1103504807e-003 -1.0592219757e+002
          4.6696590512e-001 1.7217394163e+002  4.7042595259e-001 1.7695320858e+002  9.7646953411e-002 4.6074158483e+001  5.8646177627e-001 -5.0894904900e+000
          3.5030738217e-001 1.7388522349e+002  2.3539158790e-001 -7.7875314882e+000  1.1580465234e-001 1.7635353241e+002  1.1999721514e-001 -1.2057546044e+001
          1.7717240628e-002 -8.5661335966e+001
          2.9320293013e-001 -8.1092133813e+000  2.9428665170e-001 -2.3117689334e+000  5.8646177627e-001 -5.0894904900e+000  1.2727777349e-001 1.5392845931e+002
          5.2966493832e-001 1.7732331851e+002  3.5123215693e-001 -3.1412325609e+000  1.7849323233e-001 1.7764093086e+002  1.7289503528e-001 -9.4892220408e+000
          2.2900133213e-002 -1.1011556323e+002
          1.7450246111e-001 1.7202415914e+002  1.7635892933e-001 1.7510299275e+002  3.5030738217e-001 1.7388522349e+002  5.2966493832e-001 1.7732331851e+002
          1.2960164464e-001 1.9248845110e+001  5.8592575560e-001 -4.8522568609e+000  2.9423835818e-001 1.7768973872e+002  2.9259296760e-001 -1.0795959309e+001
          4.1878156035e-002 -9.9668372607e+001
          1.1845647718e-001 -9.5841989753e+000  1.1724742781e-001 -5.6129121503e+000  2.3539158790e-001 -7.7875314882e+000  3.5123215693e-001 -3.1412325609e+000
          5.8592575560e-001 -4.8522568609e+000  6.7749234408e-002 1.5521077867e+002  4.7684270678e-001 -1.7991943588e+002  4.6055664507e-001 -7.6411992353e+000
          6.3987173857e-002 -1.0859012873e+002
          5.6648876844e-002 1.7543068214e+002  5.9207303321e-002 1.7655270424e+002  1.1580465234e-001 1.7635353241e+002  1.7849323233e-001 1.7764093086e+002
          2.9423835818e-001 1.7768973872e+002  4.7684270678e-001 -1.7991943588e+002  2.2885432189e-001 -2.1979616567e+000  7.5238636865e-001 -8.8279741933e+000
          1.0982545844e-001 -1.0479459836e+002
          6.2063792371e-002 -1.2658755800e+001  5.8095958377e-002 -9.9832833147e+000  1.1999721514e-001 -1.2057546044e+001  1.7289503528e-001 -9.4892220408e+000
          2.9259296760e-001 -1.0795959309e+001  4.6055664507e-001 -7.6411992353e+000  7.5238636865e-001 -8.8279741933e+000  2.1563012057e-001 -1.8765888839e+001
          1.7342568732e-001 -1.0727151528e+002
          1.0069737412e-002 -6.8442779159e+001  7.1103504807e-003 -1.0592219757e+002  1.7717240628e-002 -8.5661335966e+001  2.2900133213e-002 -1.1011556323e+002
          4.1878156035e-002 -9.9668372607e+001  6.3987173857e-002 -1.0859012873e+002  1.0982545844e-001 -1.0479459836e+002  1.7342568732e-001 -1.0727151528e+002
          9.6503226054e-001 -1.7553249195e+001
 6.6000000000e-001  2.5042482551e-001 1.5188728049e+002  7.6180277857e-001 -5.5107330495e+000  4.6685670030e-001 1.7205407192e+002  2.9317860997e-001 -8.2356420783e+000
          1.7444090020e-001 1.7190553641e+002  1.1848251974e-001 -9.7435502123e+000  5.6583386592e-002 1.7540216143e+002  6.2167761258e-002 -1.2906433582e+001
          1.0350753224e-002 -6.8476535545e+001
          7.6180277857e-001 -5.5107330495e+000  2.4220742555e-001 1.6098651421e+002  4.7042656653e-001 1.7690660533e+002  2.9429308705e-001 -2.3481419740e+000
          1.7635954759e-001 1.7502953882e+002  1.1723134580e-001 -5.7026245944e+000  5.9227054173e-002 1.7651059923e+002  5.8063202950e-002 -1.0156734542e+001
          7.2549954154e-003 -1.0626755324e+002
          4.6685670030e-001 1.7205407192e+002  4.7042656653e-001 1.7690660533e+002  9.8593089457e-002 4.6386525432e+001  5.8641240069e-001 -5.1687332967e+000
          3.5022915951e-001 1.7379413488e+002  2.3539259463e-001 -7.9145586911e+000  1.1575629384e-001 1.7632166004e+002  1.2006566285e-001 -1.2277383959e+001
          1.8116553048e-002 -8.5728618484e+001
          2.9317860997e-001 -8.2356420783e+000  2.9429308705e-001 -2.3481419740e+000  5.8641240069e-001 -5.1687332967e+000  1.2757762091e-001 1.5356837458e+002
          5.2968690852e-001 1.7728358598e+002  3.5116806360e-001 -3.1913881600e+000  1.7858061095e-001 1.7761161506e+002  1.7275276208e-001 -9.6504143329e+000
          2.3347878016e-002 -1.1051137668e+002
          1.7444090020e-001 1.7190553641e+002  1.7635954759e-001 1.7502953882e+002  3.5022915951e-001 1.7379413488e+002  5.2968690852e-001 1.7728358598e+002
          1.2992816246e-001 1.9487500834e+001  5.8584138103e-001 -4.9306802315e+000  2.9427424609e-001 1.7766695874e+002  2.9251220756e-001 -1.0984073182e+001
          4.2698145132e-002 -9.9895394800e+001
          1.1848251974e-001 -9.7435502123e+000  1.1723134580e-001 -5.7026245944e+000  2.3539259463e-001 -7.9145586911e+000  3.5116806360e-001 -3.1913881600e+000
          5.8584138103e-001 -4.9306802315e+000  6.8043718457e-002 1.5494002321e+002  4.7710163454e-001 -1.7991256491e+002  4.6016523048e-001 -7.7727176492e+000
          6.5214016907e-002 -1.0895668325e+002
          5.6583386592e-002 1.7540216143e+002  5.9227054173e-002 1.7651059923e+002  1.1575629384e-001 1.7632166004e+002  1.7858061095e-001 1.7761161506e+002
          2.9427424609e-001 1.7766695874e+002  4.7710163454e-001 -1.7991256491e+002  2.2856503137e-001 -2.2606506011e+000  7.5189277322e-001 -8.9804196220e+000
          1.1190026715e-001 -1.0509720060e+002
          6.2167761258e-002 -1.2906433582e+001  5.8063202950e-002 -1.0156734542e+001  1.2006566285e-001 -1.2277383959e+001  1.7275276208e-001 -9.6504143329e+000
          2.9251220756e-001 -1.0984073182e+001  4.6016523048e-001 -7.7727176492e+000  7.5189277322e-001 -8.9804196220e+000  2.1487440796e-001 -1.9178976132e+001
          1.7670816114e-001 -1.0761485279e+002
          1.0350753224e-002 -6.8476535545e+001  7.2549954154e-003 -1.0626755324e+002  1.8116553048e-002 -8.5728618484e+001  2.3347878016e-002 -1.1051137668e+002
          4.2698145132e-002 -9.9895394800e+001  6.5214016907e-002 -1.0895668325e+002  1.1190026715e-001 -1.0509720060e+002  1.7670816114e-001 -1.0761485279e+002
          9.6360241821e-001 -1.7889161913e+001
 6.7000000000e-001  2.5088193746e-001 1.5148946937e+002  7.6172868058e-001 -5.5941685513e+000  4.6674565703e-001 1.7193424215e+002  2.9315383117e-001 -8.3621735474e+000
          1.7437833708e-001 1.7178718071e+002  1.1850878431e-001 -9.9036069514e+000  5.6517303452e-002 1.7537618921e+002  6.2273214485e-002 -1.3157175506e+001
          1.0637819685e-002 -6.8523779394e+001
          7.6172868058e-001 -5.5941685513e+000  2.4243093003e-001 1.6070896420e+002  4.7042726544e-001 1.7686001964e+002  2.9429944795e-001 -2.3845462592e+000
          1.7636039282e-001 1.7495617709e+002  1.1721462109e-001 -5.7924717635e+000  5.9247725985e-002 1.7646893860e+002  5.8029038920e-002 -1.0331103085e+001
          7.4014168917e-003 -1.0661970818e+002
          4.6674565703e-001 1.7193424215e+002  4.7042726544e-001 1.7686001964e+002  9.9543829782e-002 4.6690652974e+001  5.8636203510e-001 -5.2480290422e+000
          3.5014988800e-001 1.7370322228e+002  2.3539309594e-001 -8.0419854413e+000  1.1570810907e-001 1.7629113262e+002  1.2013431710e-001 -1.2499146669e+001
          1.8522358482e-002 -8.5803771849e+001
          2.9315383117e-001 -8.3621735474e+000  2.9429944795e-001 -2.3845462592e+000  5.8636203510e-001 -5.2480290422e+000  1.2788160981e-001 1.5320994944e+002
          5.2970992428e-001 1.7724391578e+002  3.5110182560e-001 -3.2415853478e+000  1.7867114690e-001 1.7758250681e+002  1.7260556560e-001 -9.8122286801e+000
          2.3800377701e-002 -1.1091320896e+002
          1.7437833708e-001 1.7178718071e+002  1.7636039282e-001 1.7495617709e+002  3.5014988800e-001 1.7370322228e+002  5.2970992428e-001 1.7724391578e+002
          1.3025722564e-001 1.9724019586e+001  5.8575406595e-001 -5.0092775199e+000  2.9431329393e-001 1.7764476734e+002  2.9242680193e-001 -1.1173299168e+001
          4.3526976894e-002 -1.0012794053e+002
          1.1850878431e-001 -9.9036069514e+000  1.1721462109e-001 -5.7924717635e+000  2.3539309594e-001 -8.0419854413e+000  3.5110182560e-001 -3.2415853478e+000
          5.8575406595e-001 -5.0092775199e+000  6.8344145368e-002 1.5467356412e+002  4.7736921692e-001 -1.7990555897e+002  4.5976071999e-001 -7.9047876765e+000
          6.6452820739e-002 -1.0932890152e+002
          5.6517303452e-002 1.7537618921e+002  5.9247725985e-002 1.7646893860e+002  1.1570810907e-001 1.7629113262e+002  1.7867114690e-001 1.7758250681e+002
          2.9431329393e-001 1.7764476734e+002  4.7736921692e-001 -1.7990555897e+002  2.2826444340e-001 -2.3245397321e+000  7.5138128956e-001 -9.1336099026e+000
          1.1399397717e-001 -1.0540513261e+002
          6.2273214485e-002 -1.3157175506e+001  5.8029038920e-002 -1.0331103085e+001  1.2013431710e-001 -1.2499146669e+001  1.7260556560e-001 -9.8122286801e+000
          2.9242680193e-001 -1.1173299168e+001  4.5976071999e-001 -7.9047876765e+000  7.5138128956e-001 -9.1336099026e+000  2.1409480992e-001 -1.9598985320e+001
          1.8002071127e-001 -1.0796367044e+002
          1.0637819685e-002 -6.8523779394e+001  7.4014168917e-003 -1.0661970818e+002  1.8522358482e-002 -8.5803771849e+001  2.3800377701e-002 -1.1091320896e+002
          4.3526976894e-002 -1.0012794053e+002  6.6452820739e-002 -1.0932890152e+002  1.1399397717e-001 -1.0540513261e+002  1.8002071127e-001 -1.0796367044e+002
          9.6211822795e-001 -1.8228485943e+001
 6.8000000000e-001  2.5134458322e-001 1.5109279277e+002  7.6165347720e-001 -5.6776054399e+000  4.6663276803e-001 1.7181445455e+002  2.9312858114e-001 -8.4888114738e+000
          1.7431477765e-001 1.7166910343e+002  1.1853524388e-001 -1.0064393201e+001  5.6450682414e-002 1.7535285661e+002  6.2380110995e-002 -1.3411082364e+001
          1.0931051247e-002 -6.8584628158e+001
          7.6165347720e-001 -5.6776054399e+000  2.4265754570e-001 1.6043186502e+002  4.7042805619e-001 1.7681345212e+002  2.9430572326e-001 -2.4209813874e+000
          1.7636148102e-001 1.7488290866e+002  1.1719722718e-001 -5.8824517752e+000  5.9269360527e-002 1.7642771713e+002  5.7993402625e-002 -1.0506393660e+001
          7.5496458003e-003 -1.0697888910e+002
          4.6663276803e-001 1.7181445455e+002  4.7042805619e-001 1.7681345212e+002  1.0049899860e-001 4.6986731021e+001  5.8631065749e-001 -5.3273791269e+000
          3.5006958772e-001 1.7361249161e+002  2.3539304275e-001 -8.1698225684e+000  1.1566018254e-001 1.7626198616e+002  1.2020308631e-001 -1.2722890428e+001
          1.8934794891e-002 -8.5887012885e+001
          2.9312858114e-001 -8.4888114738e+000  2.9430572326e-001 -2.4209813874e+000  5.8631065749e-001 -5.3273791269e+000  1.2818973750e-001 1.5285319344e+002
          5.2973403340e-001 1.7720430768e+002  3.5103337136e-001 -3.2918188773e+000  1.7876495449e-001 1.7755359299e+002  1.7245326451e-001 -9.9746578433e+000
          2.4257709069e-002 -1.1132126438e+002
          1.7431477765e-001 1.7166910343e+002  1.7636148102e-001 1.7488290866e+002  3.5006958772e-001 1.7361249161e+002  5.2973403340e-001 1.7720430768e+002
          1.3058871241e-001 1.9958407013e+001  5.8566369333e-001 -5.0880497171e+000  2.9435568730e-001 1.7762316810e+002  2.9233649188e-001 -1.1363656484e+001
          4.4364808972e-002 -1.0036619809e+002
          1.1853524388e-001 -1.0064393201e+001  1.1719722718e-001 -5.8824517752e+000  2.3539304275e-001 -8.1698225684e+000  3.5103337136e-001 -3.2918188773e+000
          5.8566369333e-001 -5.0880497171e+000  6.8650667407e-002 1.5441139720e+002  4.7764574252e-001 -1.7989843285e+002  4.5934265051e-001 -8.0374001697e+000
          6.7703766449e-002 -1.0970697513e+002
          5.6450682414e-002 1.7535285661e+002  5.9269360527e-002 1.7642771713e+002  1.1566018254e-001 1.7626198616e+002  1.7876495449e-001 1.7755359299e+002
          2.9435568730e-001 1.7762316810e+002  4.7764574252e-001 -1.7989843285e+002  2.2795210952e-001 -2.3896189835e+000  7.5085121177e-001 -9.2875464594e+000
          1.1610686512e-001 -1.0571857479e+002
          6.2380110995e-002 -1.3411082364e+001  5.7993402625e-002 -1.0506393660e+001  1.2020308631e-001 -1.2722890428e+001  1.7245326451e-001 -9.9746578433e+000
          2.9233649188e-001 -1.1363656484e+001  4.5934265051e-001 -8.0374001697e+000  7.5085121177e-001 -9.2875464594e+000  2.1329047269e-001 -2.0026113728e+001
          1.8336376665e-001 -1.0831815296e+002
          1.0931051247e-002 -6.8584628158e+001  7.5496458003e-003 -1.0697888910e+002  1.8934794891e-002 -8.5887012885e+001  2.4257709069e-002 -1.1132126438e+002
          4.4364808972e-002 -1.0036619809e+002  6.7703766449e-002 -1.0970697513e+002  1.1610686512e-001 -1.0571857479e+002  1.8336376665e-001 -1.0831815296e+002
          9.6057731921e-001 -1.8571291094e+001
 6.9000000000e-001  2.5181270538e-001 1.5069725955e+002  7.6157716494e-001 -5.7610440719e+000  4.6651802623e-001 1.7169471149e+002  2.9310284617e-001 -8.6155596287e+000
          1.7425022908e-001 1.7155131642e+002  1.1856186880e-001 -1.0225933563e+001  5.6383583552e-002 1.7533225691e+002  6.2488404629e-002 -1.3668257599e+001
          1.1230562011e-002 -6.8659206998e+001
          7.6157716494e-001 -5.7610440719e+000  2.4288726436e-001 1.6015522164e+002  4.7042894616e-001 1.7676690338e+002  2.9431190152e-001 -2.4574468547e+000
          1.7636282896e-001 1.7480973453e+002  1.1717913659e-001 -5.9725622035e+000  5.9292001192e-002 1.7638692788e+002  5.7956227654e-002 -1.0682609009e+001
          7.6997118066e-003 -1.0734532889e+002
          4.6651802623e-001 1.7169471149e+002  4.7042894616e-001 1.7676690338e+002  1.0145842384e-001 4.7274945569e+001  5.8625824448e-001 -5.4067849444e+000
          3.4998828065e-001 1.7352194890e+002  2.3539238263e-001 -8.2980809662e+000  1.1561260450e-001 1.7623425679e+002  1.2027187171e-001 -1.2948672390e+001
          1.9353999355e-002 -8.5978564436e+001
          2.9310284617e-001 -8.6155596287e+000  2.9431190152e-001 -2.4574468547e+000  5.8625824448e-001 -5.4067849444e+000  1.2850200258e-001 1.5249811541e+002
          5.2975928563e-001 1.7716476126e+002  3.5096262727e-001 -3.3420828644e+000  1.7886215160e-001 1.7752485865e+002  1.7229567077e-001 -1.0137692164e+001
          2.4719945099e-002 -1.1173575289e+002
          1.7425022908e-001 1.7155131642e+002  1.7636282896e-001 1.7480973453e+002  3.4998828065e-001 1.7352194890e+002  5.2975928563e-001 1.7716476126e+002
          1.3092249848e-001 2.0190670803e+001  5.8557014103e-001 -5.1669974674e+000  2.9440162007e-001 1.7760216349e+002  2.9224100543e-001 -1.1555163479e+001
          4.5211793830e-002 -1.0061036128e+002
          1.1856186880e-001 -1.0225933563e+001  1.1717913659e-001 -5.9725622035e+000  2.3539238263e-001 -8.2980809662e+000  3.5096262727e-001 -3.3420828644e+000
          5.8557014103e-001 -5.1669974674e+000  6.8963446122e-002 1.5415351259e+002  4.7793150841e-001 -1.7989120311e+002  4.5891054246e-001 -8.1705435729e+000
          6.8967024485e-002 -1.1009110101e+002
          5.6383583552e-002 1.7533225691e+002  5.9292001192e-002 1.7638692788e+002  1.1561260450e-001 1.7623425679e+002  1.7886215160e-001 1.7752485865e+002
          2.9440162007e-001 1.7760216349e+002  4.7793150841e-001 -1.7989120311e+002  2.2762756495e-001 -2.4558741059e+000  7.5030180545e-001 -9.4422289391e+000
          1.1823919015e-001 -1.0603771260e+002
          6.2488404629e-002 -1.3668257599e+001  5.7956227654e-002 -1.0682609009e+001  1.2027187171e-001 -1.2948672390e+001  1.7229567077e-001 -1.0137692164e+001
          2.9224100543e-001 -1.1555163479e+001  4.5891054246e-001 -8.1705435729e+000  7.5030180545e-001 -9.4422289391e+000  2.1246050545e-001 -2.0460561814e+001
          1.8673772696e-001 -1.0867849017e+002
          1.1230562011e-002 -6.8659206998e+001  7.6997118066e-003 -1.0734532889e+002  1.9353999355e-002 -8.5978564436e+001  2.4719945099e-002 -1.1173575289e+002
          4.5211793830e-002 -1.0061036128e+002  6.8967024485e-002 -1.1009110101e+002  1.1823919015e-001 -1.0603771260e+002  1.8673772696e-001 -1.0867849017e+002
          9.5897720936e-001 -1.8917645747e+001
 7.0000000000e-001  2.5228624579e-001 1.5030287840e+002  7.6149973991e-001 -5.8444848179e+000  4.6640142480e-001 1.7157501546e+002  2.9307661128e-001 -8.7424218637e+000
          1.7418469999e-001 1.7143383195e+002  1.1858862657e-001 -1.0388253211e+001  5.6316072403e-002 1.7531448548e+002  6.2598043678e-002 -1.3928807269e+001
          1.1536465376e-002 -6.8747648938e+001
          7.6149973991e-001 -5.8444848179e+000  2.4312007791e-001 1.5987903897e+002  4.7042994328e-001 1.7672037406e+002  2.9431797089e-001 -2.4939420459e+000
          1.7636445423e-001 1.7473665551e+002  1.1716032081e-001 -6.0628000266e+000  5.9315693002e-002 1.7634656213e+002  5.7917444788e-002 -1.0859749667e+001
          7.8516431333e-003 -1.0771926646e+002
          4.6640142480e-001 1.7157501546e+002  4.7042994328e-001 1.7672037406e+002  1.0242193692e-001 4.7555478721e+001  5.8620477114e-001 -5.4862478745e+000
          3.4990599077e-001 1.7343160031e+002  2.3539105958e-001 -8.4267715613e+000  1.1556547124e-001 1.7620798053e+002  1.2034056687e-001 -1.3176550516e+001
          1.9780107608e-002 -8.6078655437e+001
          2.9307661128e-001 -8.7424218637e+000  2.9431797089e-001 -2.4939420459e+000  5.8620477114e-001 -5.4862478745e+000  1.2881840496e-001 1.5214472338e+002
          5.2978573271e-001 1.7712527591e+002  3.5088951774e-001 -3.3923707367e+000  1.7896285965e-001 1.7749628691e+002  1.7213258958e-001 -1.0301319320e+001
          2.5187154322e-002 -1.1215689013e+002
          1.7418469999e-001 1.7143383195e+002  1.7636445423e-001 1.7473665551e+002  3.4990599077e-001 1.7343160031e+002  5.2978573271e-001 1.7712527591e+002
          1.3125845706e-001 2.0420820784e+001  5.8547328165e-001 -5.2461210278e+000  2.9445129458e-001 1.7758175472e+002  2.9214005700e-001 -1.1747837476e+001
          4.6068077760e-002 -1.0086062940e+002
