! IGNION VIRTUAL ANTENNA LIBRARY
!
! NN_ALL_B145x130_C45x24
! Virtual Antenna™ ALL mXTEND™: NN02-220 24.0 mm x 12.0 mm x 2.0 mm
! https://ignion.io/product/all-mxtend/
! Board: 145 mm x 130 mm
! Clearance Area: 45 mm x 24 mm
! Feeding line: straight line; 12mm x 2mm
! Applications: Smart meter, Routers/Repeaters
! Frequency range 0.65GHz to 6GHz, step 10MHz
! Number of ports 1
!
! This product and its use are protected by at least one or more of the following patents and
! patent applications PAT. US 9,130,259 B2; PAT. US 8,237,615 B2; and other domestic and
! international patents pending.  Additional information about patents related to this product
! is available at https://ignion.io/files/Patent-list-NN.pdf, all rights reserved. Copyright, Ignion 2021.
!
! Need more help? Your platform is much different than these examples in the manual? Use our 
! Fast Track service (https://ignion.io/fast-track/), for free, and get a personalized antenna design in
! just 24 hours.
!
!
! Touchstone port 1 = "Series Port"
!
! IE3D S-Parameters Output Version 2.0 
# GHZ S MA R 50
! Nport = 1

 6.5000000000e-001  9.0419430558e-001 -3.5979721205e+001
 6.6000000000e-001  8.9512095340e-001 -3.6966724097e+001
 6.7000000000e-001  8.8547223888e-001 -3.7962244764e+001
 6.8000000000e-001  8.7525648565e-001 -3.8964573114e+001
 6.9000000000e-001  8.6448771221e-001 -3.9972120415e+001
 7.0000000000e-001  8.5318506998e-001 -4.0983507730e+001
 7.1000000000e-001  8.4137193667e-001 -4.1997657549e+001
 7.2000000000e-001  8.2907467522e-001 -4.3013883899e+001
 7.3000000000e-001  8.1632109280e-001 -4.4031975607e+001
 7.4000000000e-001  8.0313865893e-001 -4.5052267088e+001
 7.5000000000e-001  7.8955256317e-001 -4.6075691140e+001
 7.6000000000e-001  7.7558370933e-001 -4.7103808828e+001
 7.7000000000e-001  7.6124675199e-001 -4.8138812539e+001
 7.8000000000e-001  7.4654828129e-001 -4.9183499673e+001
 7.9000000000e-001  7.3148525366e-001 -5.0241215946e+001
 8.0000000000e-001  7.1604374960e-001 -5.1315768696e+001
 8.1000000000e-001  7.0019811902e-001 -5.2411311675e+001
 8.2000000000e-001  6.8391055260e-001 -5.3532203200e+001
 8.3000000000e-001  6.6713109815e-001 -5.4682839190e+001
 8.4000000000e-001  6.4979812747e-001 -5.5867461304e+001
 8.5000000000e-001  6.3183925428e-001 -5.7089938111e+001
 8.6000000000e-001  6.1317270742e-001 -5.8353513956e+001
 8.7000000000e-001  5.9370917526e-001 -5.9660515835e+001
 8.8000000000e-001  5.7335415572e-001 -6.1012002956e+001
 8.9000000000e-001  5.5201086606e-001 -6.2407336170e+001
 9.0000000000e-001  5.2958378654e-001 -6.3843634131e+001
 9.1000000000e-001  5.0598292478e-001 -6.5315067891e+001
 9.2000000000e-001  4.8112889251e-001 -6.6811922132e+001
 9.3000000000e-001  4.5495888016e-001 -6.8319312991e+001
 9.4000000000e-001  4.2743360328e-001 -6.9815387657e+001
 9.5000000000e-001  3.9854529467e-001 -7.1268717094e+001
 9.6000000000e-001  3.6832686809e-001 -7.2634387268e+001
 9.7000000000e-001  3.3686257394e-001 -7.3847909201e+001
 9.8000000000e-001  3.0430099446e-001 -7.4815325951e+001
 9.9000000000e-001  2.7087250246e-001 -7.5396419658e+001
 1.0000000000e+000  2.3691628088e-001 -7.5374923037e+001
 1.0100000000e+000  2.0292894884e-001 -7.4403564910e+001
 1.0200000000e+000  1.6966329631e-001 -7.1900630538e+001
 1.0300000000e+000  1.3834324115e-001 -6.6864423411e+001
 1.0400000000e+000  1.1112293350e-001 -5.7642228975e+001
 1.0500000000e+000  9.1802302664e-002 -4.2290006421e+001
 1.0600000000e+000  8.5400625584e-002 -2.1600492859e+001
 1.0700000000e+000  9.3646700504e-002 -2.0227701663e+000
 1.0800000000e+000  1.1226113360e-001 1.1448232547e+001
 1.0900000000e+000  1.3592842373e-001 1.9369454032e+001
 1.1000000000e+000  1.6135821656e-001 2.3740161634e+001
 1.1100000000e+000  1.8683907319e-001 2.5995010706e+001
 1.1200000000e+000  2.1147448533e-001 2.6977045740e+001
 1.1300000000e+000  2.3477652903e-001 2.7175389175e+001
 1.1400000000e+000  2.5647715726e-001 2.6883410383e+001
 1.1500000000e+000  2.7643735824e-001 2.6284602697e+001
 1.1600000000e+000  2.9459962542e-001 2.5498426695e+001
 1.1700000000e+000  3.1096069650e-001 2.4605489104e+001
 1.1800000000e+000  3.2555459593e-001 2.3661939231e+001
 1.1900000000e+000  3.3844143918e-001 2.2708046872e+001
 1.2000000000e+000  3.4969978564e-001 2.1773512483e+001
 1.2100000000e+000  3.5942136963e-001 2.0880865197e+001
 1.2200000000e+000  3.6770752743e-001 2.0047694949e+001
 1.2300000000e+000  3.7466687866e-001 1.9288143222e+001
 1.2400000000e+000  3.8041394561e-001 1.8613900806e+001
 1.2500000000e+000  3.8506846222e-001 1.8034860994e+001
 1.2600000000e+000  3.8875516284e-001 1.7559518236e+001
 1.2700000000e+000  3.9160386135e-001 1.7195167320e+001
 1.2800000000e+000  3.9374964019e-001 1.6947937668e+001
 1.2900000000e+000  3.9533297138e-001 1.6822686294e+001
 1.3000000000e+000  3.9649959124e-001 1.6822769293e+001
 1.3100000000e+000  3.9739995242e-001 1.6949714116e+001
 1.3200000000e+000  3.9818808885e-001 1.7202822649e+001
 1.3300000000e+000  3.9901975669e-001 1.7578747141e+001
 1.3400000000e+000  4.0004976745e-001 1.8071095049e+001
 1.3500000000e+000  4.0142850974e-001 1.8670131411e+001
 1.3600000000e+000  4.0329776572e-001 1.9362653324e+001
 1.3700000000e+000  4.0578605439e-001 2.0132105110e+001
 1.3800000000e+000  4.0900385817e-001 2.0958980836e+001
 1.3900000000e+000  4.1303918208e-001 2.1821522885e+001
 1.4000000000e+000  4.1795392723e-001 2.2696676705e+001
 1.4100000000e+000  4.2378151256e-001 2.3561213487e+001
 1.4200000000e+000  4.3052604918e-001 2.4392897538e+001
 1.4300000000e+000  4.3816318257e-001 2.5171564090e+001
 1.4400000000e+000  4.4664250890e-001 2.5879989775e+001
 1.4500000000e+000  4.5589128746e-001 2.6504476986e+001
 1.4600000000e+000  4.6581904650e-001 2.7035123181e+001
 1.4700000000e+000  4.7632263148e-001 2.7465793845e+001
 1.4800000000e+000  4.8729126731e-001 2.7793853098e+001
 1.4900000000e+000  4.9861128076e-001 2.8019724295e+001
 1.5000000000e+000  5.1017023088e-001 2.8146355413e+001
 1.5100000000e+000  5.2186030088e-001 2.8178654809e+001
 1.5200000000e+000  5.3358089830e-001 2.8122947584e+001
 1.5300000000e+000  5.4524048346e-001 2.7986485918e+001
 1.5400000000e+000  5.5675769590e-001 2.7777031575e+001
 1.5500000000e+000  5.6806187842e-001 2.7502516853e+001
 1.5600000000e+000  5.7909311023e-001 2.7170781923e+001
 1.5700000000e+000  5.8980186140e-001 2.6789381390e+001
 1.5800000000e+000  6.0014837256e-001 2.6365450364e+001
 1.5900000000e+000  6.1010185131e-001 2.5905619551e+001
 1.6000000000e+000  6.1963956191e-001 2.5415969218e+001
 1.6100000000e+000  6.2874586979e-001 2.4902012948e+001
 1.6200000000e+000  6.3741128827e-001 2.4368703357e+001
 1.6300000000e+000  6.4563156195e-001 2.3820453331e+001
 1.6400000000e+000  6.5340681084e-001 2.3261167626e+001
 1.6500000000e+000  6.6074075010e-001 2.2694280803e+001
 1.6600000000e+000  6.6763999346e-001 2.2122798453e+001
 1.6700000000e+000  6.7411344318e-001 2.1549339457e+001
 1.6800000000e+000  6.8017176516e-001 2.0976177658e+001
 1.6900000000e+000  6.8582694559e-001 2.0405281829e+001
 1.7000000000e+000  6.9109192331e-001 1.9838353193e+001
 1.7100000000e+000  6.9598029130e-001 1.9276860030e+001
 1.7200000000e+000  7.0050606001e-001 1.8722069126e+001
 1.7300000000e+000  7.0468347514e-001 1.8175073952e+001
 1.7400000000e+000  7.0852688260e-001 1.7636819563e+001
 1.7500000000e+000  7.1205063337e-001 1.7108124296e+001
 1.7600000000e+000  7.1526902171e-001 1.6589698357e+001
 1.7700000000e+000  7.1819625001e-001 1.6082159450e+001
 1.7800000000e+000  7.2084641419e-001 1.5586045611e+001
 1.7900000000e+000  7.2323350396e-001 1.5101825416e+001
 1.8000000000e+000  7.2537141223e-001 1.4629905780e+001
 1.8100000000e+000  7.2727394885e-001 1.4170637556e+001
 1.8200000000e+000  7.2895485372e-001 1.3724319181e+001
 1.8300000000e+000  7.3042780528e-001 1.3291198648e+001
 1.8400000000e+000  7.3170642069e-001 1.2871474100e+001
 1.8500000000e+000  7.3280424495e-001 1.2465293374e+001
 1.8600000000e+000  7.3373472681e-001 1.2072752860e+001
 1.8700000000e+000  7.3451118062e-001 1.1693896031e+001
 1.8800000000e+000  7.3514673402e-001 1.1328712019e+001
 1.8900000000e+000  7.3565426279e-001 1.0977134604e+001
 1.9000000000e+000  7.3604631490e-001 1.0639041923e+001
 1.9100000000e+000  7.3633502701e-001 1.0314257184e+001
 1.9200000000e+000  7.3653203748e-001 1.0002550587e+001
 1.9300000000e+000  7.3664840007e-001 9.7036425546e+000
 1.9400000000e+000  7.3669450321e-001 9.4172083152e+000
 1.9500000000e+000  7.3667999916e-001 9.1428837466e+000
 1.9600000000e+000  7.3661374702e-001 8.8802723275e+000
 1.9700000000e+000  7.3650377284e-001 8.6289529541e+000
 1.9800000000e+000  7.3635724899e-001 8.3884883247e+000
 1.9900000000e+000  7.3618049381e-001 8.1584335635e+000
 2.0000000000e+000  7.3597899152e-001 7.9383447468e+000
 2.0100000000e+000  7.3575743115e-001 7.7277870097e+000
 2.0200000000e+000  7.3551976254e-001 7.5263419511e+000
 2.0300000000e+000  7.3526926659e-001 7.3336141048e+000
 2.0400000000e+000  7.3500863648e-001 7.1492363082e+000
 2.0500000000e+000  7.3474006663e-001 6.9728738669e+000
 2.0600000000e+000  7.3446534583e-001 6.8042274745e+000
 2.0700000000e+000  7.3418595146e-001 6.6430349053e+000
 2.0800000000e+000  7.3390314199e-001 6.4890715461e+000
 2.0900000000e+000  7.3361804539e-001 6.3421498660e+000
 2.1000000000e+000  7.3333174160e-001 6.2021179498e+000
 2.1100000000e+000  7.3304533773e-001 6.0688572328e+000
 2.1200000000e+000  7.3276003500e-001 5.9422795786e+000
 2.1300000000e+000  7.3247718713e-001 5.8223238355e+000
 2.1400000000e+000  7.3219834988e-001 5.7089520002e+000
 2.1500000000e+000  7.3192532194e-001 5.6021451005e+000
 2.1600000000e+000  7.3166017762e-001 5.5018988942e+000
 2.1700000000e+000  7.3140529167e-001 5.4082194647e+000
 2.1800000000e+000  7.3116335692e-001 5.3211187766e+000
 2.1900000000e+000  7.3093739523e-001 5.2406102417e+000
 2.2000000000e+000  7.3073076239e-001 5.1667043296e+000
 2.2100000000e+000  7.3054714740e-001 5.0994042487e+000
 2.2200000000e+000  7.3039056671e-001 5.0387017148e+000
 2.2300000000e+000  7.3026535357e-001 4.9845728164e+000
 2.2400000000e+000  7.3017614289e-001 4.9369739850e+000
 2.2500000000e+000  7.3012785173e-001 4.8958380761e+000
 2.2600000000e+000  7.3012565527e-001 4.8610705694e+000
 2.2700000000e+000  7.3017495840e-001 4.8325459005e+000
 2.2800000000e+000  7.3028136262e-001 4.8101039430e+000
 2.2900000000e+000  7.3045062792e-001 4.7935466701e+000
 2.3000000000e+000  7.3068862957e-001 4.7826350339e+000
 2.3100000000e+000  7.3100130914e-001 4.7770861172e+000
 2.3200000000e+000  7.3139461970e-001 4.7765706227e+000
 2.3300000000e+000  7.3187446486e-001 4.7807107830e+000
 2.3400000000e+000  7.3244663142e-001 4.7890787865e+000
 2.3500000000e+000  7.3311671586e-001 4.8011958296e+000
 2.3600000000e+000  7.3389004476e-001 4.8165319119e+000
 2.3700000000e+000  7.3477158997e-001 4.8345064989e+000
 2.3800000000e+000  7.3576587933e-001 4.8544901728e+000
 2.3900000000e+000  7.3687690441e-001 4.8758073841e+000
 2.4000000000e+000  7.3810802712e-001 4.8977403946e+000
 2.4100000000e+000  7.3946188735e-001 4.9195344767e+000
 2.4200000000e+000  7.4094031442e-001 4.9404043916e+000
 2.4300000000e+000  7.4254424519e-001 4.9595421201e+000
 2.4400000000e+000  7.4427365214e-001 4.9761257651e+000
 2.4500000000e+000  7.4612748458e-001 4.9893294793e+000
 2.4600000000e+000  7.4810362620e-001 4.9983342139e+000
 2.4700000000e+000  7.5019887176e-001 5.0023390205e+000
 2.4800000000e+000  7.5240892523e-001 5.0005725925e+000
 2.4900000000e+000  7.5472842103e-001 4.9923046908e+000
 2.5000000000e+000  7.5715096901e-001 4.9768570841e+000
 2.5100000000e+000  7.5966922306e-001 4.9536136302e+000
 2.5200000000e+000  7.6227497198e-001 4.9220291501e+000
 2.5300000000e+000  7.6495925037e-001 4.8816367895e+000
 2.5400000000e+000  7.6771246642e-001 4.8320536236e+000
 2.5500000000e+000  7.7052454253e-001 4.7729843364e+000
 2.5600000000e+000  7.7338506443e-001 4.7042228946e+000
 2.5700000000e+000  7.7628343397e-001 4.6256522184e+000
 2.5800000000e+000  7.7920902083e-001 4.5372419400e+000
 2.5900000000e+000  7.8215130860e-001 4.4390444141e+000
 2.6000000000e+000  7.8510003118e-001 4.3311892066e+000
 2.6100000000e+000  7.8804529608e-001 4.2138763323e+000
 2.6200000000e+000  7.9097769186e-001 4.0873685398e+000
 2.6300000000e+000  7.9388837806e-001 3.9519829518e+000
 2.6400000000e+000  7.9676915649e-001 3.8080823592e+000
 2.6500000000e+000  7.9961252374e-001 3.6560664504e+000
 2.6600000000e+000  8.0241170544e-001 3.4963632213e+000
 2.6700000000e+000  8.0516067340e-001 3.3294207770e+000
 2.6800000000e+000  8.0785414713e-001 3.1556996892e+000
 2.6900000000e+000  8.1048758180e-001 2.9756660343e+000
 2.7000000000e+000  8.1305714442e-001 2.7897851917e+000
 2.7100000000e+000  8.1555968083e-001 2.5985164482e+000
 2.7200000000e+000  8.1799267515e-001 2.4023084154e+000
 2.7300000000e+000  8.2035420412e-001 2.2015952460e+000
 2.7400000000e+000  8.2264288785e-001 1.9967936094e+000
 2.7500000000e+000  8.2485783879e-001 1.7883003707e+000
 2.7600000000e+000  8.2699861031e-001 1.5764909095e+000
 2.7700000000e+000  8.2906514595e-001 1.3617180066e+000
 2.7800000000e+000  8.3105773034e-001 1.1443112234e+000
 2.7900000000e+000  8.3297694250e-001 9.2457670226e-001
 2.8000000000e+000  8.3482361206e-001 7.0279731680e-001
 2.8100000000e+000  8.3659877856e-001 4.7923310679e-001
 2.8200000000e+000  8.3830365434e-001 2.5412193778e-001
 2.8300000000e+000  8.3993959079e-001 2.7680332275e-002
 2.8400000000e+000  8.4150804804e-001 -1.9989557457e-001
 2.8500000000e+000  8.4301056808e-001 -4.2842899445e-001
 2.8600000000e+000  8.4444875094e-001 -6.5776139484e-001
 2.8700000000e+000  8.4582423399e-001 -8.8775138532e-001
 2.8800000000e+000  8.4713867380e-001 -1.1182736039e+000
 2.8900000000e+000  8.4839373070e-001 -1.3492176214e+000
 2.9000000000e+000  8.4959105547e-001 -1.5804868781e+000
 2.9100000000e+000  8.5073227811e-001 -1.8119976631e+000
 2.9200000000e+000  8.5181899840e-001 -2.0436781427e+000
 2.9300000000e+000  8.5285277800e-001 -2.2754674452e+000
 2.9400000000e+000  8.5383513394e-001 -2.5073148028e+000
 2.9500000000e+000  8.5476753326e-001 -2.7391787533e+000
 2.9600000000e+000  8.5565138867e-001 -2.9710264017e+000
 2.9700000000e+000  8.5648805499e-001 -3.2028327411e+000
 2.9800000000e+000  8.5727882629e-001 -3.4345800301e+000
 2.9900000000e+000  8.5802493355e-001 -3.6662572261e+000
 3.0000000000e+000  8.5872754274e-001 -3.8978594702e+000
 3.0100000000e+000  8.5938775315e-001 -4.1293876216e+000
 3.0200000000e+000  8.6000659594e-001 -4.3608478357e+000
 3.0300000000e+000  8.6058503265e-001 -4.5922511836e+000
 3.0400000000e+000  8.6112395380e-001 -4.8236133062e+000
 3.0500000000e+000  8.6162417732e-001 -5.0549540969e+000
 3.0600000000e+000  8.6208644675e-001 -5.2862974079e+000
 3.0700000000e+000  8.6251142925e-001 -5.5176707718e+000
 3.0800000000e+000  8.6289971330e-001 -5.7491051296e+000
 3.0900000000e+000  8.6325180610e-001 -5.9806345594e+000
 3.1000000000e+000  8.6356813061e-001 -6.2122959930e+000
 3.1100000000e+000  8.6384902236e-001 -6.4441289148e+000
 3.1200000000e+000  8.6409472598e-001 -6.6761750306e+000
 3.1300000000e+000  8.6430539164e-001 -6.9084778996e+000
 3.1400000000e+000  8.6448107146e-001 -7.1410825200e+000
 3.1500000000e+000  8.6462171598e-001 -7.3740348629e+000
 3.1600000000e+000  8.6472717110e-001 -7.6073813473e+000
 3.1700000000e+000  8.6479717542e-001 -7.8411682568e+000
 3.1800000000e+000  8.6483135843e-001 -8.0754410948e+000
 3.1900000000e+000  8.6482923968e-001 -8.3102438851e+000
 3.2000000000e+000  8.6479022926e-001 -8.5456184239e+000
 3.2100000000e+000  8.6471362971e-001 -8.7816034952e+000
 3.2200000000e+000  8.6459863965e-001 -9.0182340647e+000
 3.2300000000e+000  8.6444435933e-001 -9.2555404730e+000
 3.2400000000e+000  8.6424979803e-001 -9.4935476494e+000
 3.2500000000e+000  8.6401388352e-001 -9.7322743709e+000
 3.2600000000e+000  8.6373547338e-001 -9.9717325956e+000
 3.2700000000e+000  8.6341336814e-001 -1.0211926893e+001
 3.2800000000e+000  8.6304632590e-001 -1.0452854000e+001
 3.2900000000e+000  8.6263307803e-001 -1.0694502522e+001
 3.3000000000e+000  8.6217234579e-001 -1.0936852798e+001
 3.3100000000e+000  8.6166285696e-001 -1.1179876942e+001
 3.3200000000e+000  8.6110336239e-001 -1.1423539064e+001
 3.3300000000e+000  8.6049265153e-001 -1.1667795666e+001
 3.3400000000e+000  8.5982956668e-001 -1.1912596213e+001
 3.3500000000e+000  8.5911301526e-001 -1.2157883844e+001
 3.3600000000e+000  8.5834197984e-001 -1.2403596213e+001
 3.3700000000e+000  8.5751552547e-001 -1.2649666419e+001
 3.3800000000e+000  8.5663280408e-001 -1.2896024001e+001
 3.3900000000e+000  8.5569305595e-001 -1.3142595949e+001
 3.4000000000e+000  8.5469560817e-001 -1.3389307703e+001
 3.4100000000e+000  8.5363987028e-001 -1.3636084099e+001
 3.4200000000e+000  8.5252532724e-001 -1.3882850232e+001
 3.4300000000e+000  8.5135153020e-001 -1.4129532204e+001
 3.4400000000e+000  8.5011808538e-001 -1.4376057742e+001
 3.4500000000e+000  8.4882464148e-001 -1.4622356647e+001
 3.4600000000e+000  8.4747087619e-001 -1.4868361100e+001
 3.4700000000e+000  8.4605648216e-001 -1.5114005774e+001
 3.4800000000e+000  8.4458115297e-001 -1.5359227795e+001
 3.4900000000e+000  8.4304456940e-001 -1.5603966523e+001
 3.5000000000e+000  8.4144638653e-001 -1.5848163182e+001
 3.5100000000e+000  8.3978622180e-001 -1.6091760347e+001
 3.5200000000e+000  8.3806364449e-001 -1.6334701291e+001
 3.5300000000e+000  8.3627816666e-001 -1.6576929221e+001
 3.5400000000e+000  8.3442923577e-001 -1.6818386410e+001
 3.5500000000e+000  8.3251622916e-001 -1.7059013246e+001
 3.5600000000e+000  8.3053845031e-001 -1.7298747203e+001
 3.5700000000e+000  8.2849512704e-001 -1.7537521764e+001
 3.5800000000e+000  8.2638541166e-001 -1.7775265291e+001
 3.5900000000e+000  8.2420838292e-001 -1.8011899863e+001
 3.6000000000e+000  8.2196304996e-001 -1.8247340103e+001
 3.6100000000e+000  8.1964835798e-001 -1.8481491977e+001
 3.6200000000e+000  8.1726319585e-001 -1.8714251604e+001
 3.6300000000e+000  8.1480640534e-001 -1.8945504068e+001
 3.6400000000e+000  8.1227679218e-001 -1.9175122240e+001
 3.6500000000e+000  8.0967313871e-001 -1.9402965633e+001
 3.6600000000e+000  8.0699421817e-001 -1.9628879286e+001
 3.6700000000e+000  8.0423881051e-001 -1.9852692684e+001
 3.6800000000e+000  8.0140571966e-001 -2.0074218746e+001
 3.6900000000e+000  7.9849379217e-001 -2.0293252853e+001
 3.7000000000e+000  7.9550193709e-001 -2.0509571973e+001
 3.7100000000e+000  7.9242914705e-001 -2.0722933847e+001
 3.7200000000e+000  7.8927452020e-001 -2.0933076289e+001
 3.7300000000e+000  7.8603728307e-001 -2.1139716583e+001
 3.7400000000e+000  7.8271681398e-001 -2.1342550998e+001
 3.7500000000e+000  7.7931266689e-001 -2.1541254432e+001
 3.7600000000e+000  7.7582459533e-001 -2.1735480194e+001
 3.7700000000e+000  7.7225257635e-001 -2.1924859933e+001
 3.7800000000e+000  7.6859683401e-001 -2.2109003707e+001
 3.7900000000e+000  7.6485786229e-001 -2.2287500225e+001
 3.8000000000e+000  7.6103644712e-001 -2.2459917228e+001
 3.8100000000e+000  7.5713368727e-001 -2.2625802045e+001
 3.8200000000e+000  7.5315101386e-001 -2.2784682288e+001
 3.8300000000e+000  7.4909020833e-001 -2.2936066714e+001
 3.8400000000e+000  7.4495341870e-001 -2.3079446217e+001
 3.8500000000e+000  7.4074317397e-001 -2.3214294968e+001
 3.8600000000e+000  7.3646239660e-001 -2.3340071681e+001
 3.8700000000e+000  7.3211441320e-001 -2.3456220998e+001
 3.8800000000e+000  7.2770296318e-001 -2.3562174990e+001
 3.8900000000e+000  7.2323220582e-001 -2.3657354763e+001
 3.9000000000e+000  7.1870672563e-001 -2.3741172174e+001
 3.9100000000e+000  7.1413153632e-001 -2.3813031644e+001
 3.9200000000e+000  7.0951208364e-001 -2.3872332082e+001
