! IGNION VIRTUAL ANTENNA LIBRARY
!
! NN_RUN_B90x90_C90x11
! Virtual Antenna™ RUN mXTEND™: NN02-224 12.0 mm x 3.0 mm x 2.4 mm
! https://ignion.io/product/run-mxtend/
! Board: 90 mm x 90 mm
! Clearance Area: 90 mm x 11 mm
! Feeding line: L-shape; 11mm x 2mm and 5mm x 2mm
! Applications: Fleet management, IoT
! Frequency range 0.65GHz to 6GHz, step 10MHz
! Number of ports 1
!
! This product and its use is protected by at least one or more of the following patents and patent
! applications US 8,203,492 B2; US 8,237,615 B2; PCT/EP2013/064692; WO 2014/012842 A1; US 2019/190122 A1;
! US 62/072,671; and other domestic and international patents pending. Additional information about
! patents related to this product is available at https://ignion.io/files/Patent-list-NN.pdf, all
! rights reserved. Copyright, Ignion 2021.
!
! Need more help? Your platform is much different than these examples in the manual? Use our 
! Fast Track service (https://ignion.io/fast-track/), for free, and get a personalized antenna design in
! just 24 hours.
!
!
! Touchstone port 1 = "Series Port"
!
! IE3D S-Parameters Output Version 2.0  
# GHZ S MA R 50
! Nport = 1
!

 6.5000000000e-001  9.8705454865e-001 -1.7738653028e+001
 6.6000000000e-001  9.8632214429e-001 -1.8100872873e+001
 6.7000000000e-001  9.8554040602e-001 -1.8468041409e+001
 6.8000000000e-001  9.8470582451e-001 -1.8840276882e+001
 6.9000000000e-001  9.8381466459e-001 -1.9217693943e+001
 7.0000000000e-001  9.8286295640e-001 -1.9600402528e+001
 7.1000000000e-001  9.8184648752e-001 -1.9988506584e+001
 7.2000000000e-001  9.8076079629e-001 -2.0382102638e+001
 7.3000000000e-001  9.7960116701e-001 -2.0781278178e+001
 7.4000000000e-001  9.7836262717e-001 -2.1186109855e+001
 7.5000000000e-001  9.7703994754e-001 -2.1596661477e+001
 7.6000000000e-001  9.7562764556e-001 -2.2012981806e+001
 7.7000000000e-001  9.7411999285e-001 -2.2435102137e+001
 7.8000000000e-001  9.7251102751e-001 -2.2863033667e+001
 7.9000000000e-001  9.7079457226e-001 -2.3296764662e+001
 8.0000000000e-001  9.6896425911e-001 -2.3736257433e+001
 8.1000000000e-001  9.6701356171e-001 -2.4181445140e+001
 8.2000000000e-001  9.6493583633e-001 -2.4632228476e+001
 8.3000000000e-001  9.6272437236e-001 -2.5088472252e+001
 8.4000000000e-001  9.6037245344e-001 -2.5550001980e+001
 8.5000000000e-001  9.5787342982e-001 -2.6016600514e+001
 8.6000000000e-001  9.5522080278e-001 -2.6488004861e+001
 8.7000000000e-001  9.5240832122e-001 -2.6963903294e+001
 8.8000000000e-001  9.4943009066e-001 -2.7443932908e+001
 8.9000000000e-001  9.4628069392e-001 -2.7927677783e+001
 9.0000000000e-001  9.4295532244e-001 -2.8414667965e+001
 9.1000000000e-001  9.3944991649e-001 -2.8904379449e+001
 9.2000000000e-001  9.3576131161e-001 -2.9396235397e+001
 9.3000000000e-001  9.3188738769e-001 -2.9889608789e+001
 9.4000000000e-001  9.2782721653e-001 -3.0383826740e+001
 9.5000000000e-001  9.2358120228e-001 -3.0878176635e+001
 9.6000000000e-001  9.1915120896e-001 -3.1371914242e+001
 9.7000000000e-001  9.1454066819e-001 -3.1864273873e+001
 9.8000000000e-001  9.0975466011e-001 -3.2354480593e+001
 9.9000000000e-001  9.0479996048e-001 -3.2841764375e+001
 1.0000000000e+000  8.9968504743e-001 -3.3325376012e+001
 1.0100000000e+000  8.9442006207e-001 -3.3804604433e+001
 1.0200000000e+000  8.8901671891e-001 -3.4278794994e+001
 1.0300000000e+000  8.8348816387e-001 -3.4747368173e+001
 1.0400000000e+000  8.7784877996e-001 -3.5209838027e+001
 1.0500000000e+000  8.7211394356e-001 -3.5665829670e+001
 1.0600000000e+000  8.6629973672e-001 -3.6115095059e+001
 1.0700000000e+000  8.6042262383e-001 -3.6557526338e+001
 1.0800000000e+000  8.5449910298e-001 -3.6993166112e+001
 1.0900000000e+000  8.4854534432e-001 -3.7422214105e+001
 1.1000000000e+000  8.4257682843e-001 -3.7845029845e+001
 1.1100000000e+000  8.3660799826e-001 -3.8262131190e+001
 1.1200000000e+000  8.3065193684e-001 -3.8674188741e+001
 1.1300000000e+000  8.2472008214e-001 -3.9082016369e+001
 1.1400000000e+000  8.1882198761e-001 -3.9486558297e+001
 1.1500000000e+000  8.1296513460e-001 -3.9888873316e+001
 1.1600000000e+000  8.0715479990e-001 -4.0290116845e+001
 1.1700000000e+000  8.0139397851e-001 -4.0691521579e+001
 1.1800000000e+000  7.9568335938e-001 -4.1094377500e+001
 1.1900000000e+000  7.9002134931e-001 -4.1500011972e+001
 1.2000000000e+000  7.8440413875e-001 -4.1909770559e+001
 1.2100000000e+000  7.7882580178e-001 -4.2324999079e+001
 1.2200000000e+000  7.7327842248e-001 -4.2747027306e+001
 1.2300000000e+000  7.6775223935e-001 -4.3177154549e+001
 1.2400000000e+000  7.6223580047e-001 -4.3616637230e+001
 1.2500000000e+000  7.5671612256e-001 -4.4066678453e+001
 1.2600000000e+000  7.5117884830e-001 -4.4528419437e+001
 1.2700000000e+000  7.4560839747e-001 -4.5002932609e+001
 1.2800000000e+000  7.3998810871e-001 -4.5491216092e+001
 1.2900000000e+000  7.3430036988e-001 -4.5994189269e+001
 1.3000000000e+000  7.2852673612e-001 -4.6512689073e+001
 1.3100000000e+000  7.2264803580e-001 -4.7047466664e+001
 1.3200000000e+000  7.1664446522e-001 -4.7599184113e+001
 1.3300000000e+000  7.1049567400e-001 -4.8168410762e+001
 1.3400000000e+000  7.0418084320e-001 -4.8755618896e+001
 1.3500000000e+000  6.9767875936e-001 -4.9361178402e+001
 1.3600000000e+000  6.9096788752e-001 -4.9985350087e+001
 1.3700000000e+000  6.8402644698e-001 -5.0628277330e+001
 1.3800000000e+000  6.7683249367e-001 -5.1289975754e+001
 1.3900000000e+000  6.6936401349e-001 -5.1970320591e+001
 1.4000000000e+000  6.6159903103e-001 -5.2669031420e+001
 1.4100000000e+000  6.5351573830e-001 -5.3385653934e+001
 1.4200000000e+000  6.4509264845e-001 -5.4119538394e+001
 1.4300000000e+000  6.3630877934e-001 -5.4869814399e+001
 1.4400000000e+000  6.2714387205e-001 -5.5635361600e+001
 1.4500000000e+000  6.1757864907e-001 -5.6414775957e+001
 1.4600000000e+000  6.0759511710e-001 -5.7206331147e+001
 1.4700000000e+000  5.9717691840e-001 -5.8007934705e+001
 1.4800000000e+000  5.8630973446e-001 -5.8817078512e+001
 1.4900000000e+000  5.7498174431e-001 -5.9630783240e+001
 1.5000000000e+000  5.6318413882e-001 -6.0445536425e+001
 1.5100000000e+000  5.5091169034e-001 -6.1257223906e+001
 1.5200000000e+000  5.3816337496e-001 -6.2061054485e+001
 1.5300000000e+000  5.2494304216e-001 -6.2851477836e+001
 1.5400000000e+000  5.1126012370e-001 -6.3622095971e+001
 1.5500000000e+000  4.9713037032e-001 -6.4365568967e+001
 1.5600000000e+000  4.8257660152e-001 -6.5073516237e+001
 1.5700000000e+000  4.6762945014e-001 -6.5736415530e+001
 1.5800000000e+000  4.5232808029e-001 -6.6343503096e+001
 1.5900000000e+000  4.3672085342e-001 -6.6882680339e+001
 1.6000000000e+000  4.2086591470e-001 -6.7340434974e+001
 1.6100000000e+000  4.0483166799e-001 -6.7701788508e+001
 1.6200000000e+000  3.8869710363e-001 -6.7950287205e+001
 1.6300000000e+000  3.7255193754e-001 -6.8068060827e+001
 1.6400000000e+000  3.5649651077e-001 -6.8035982646e+001
 1.6500000000e+000  3.4064138529e-001 -6.7833975301e+001
 1.6600000000e+000  3.2510655158e-001 -6.7441518832e+001
 1.6700000000e+000  3.1002013678e-001 -6.6838426982e+001
 1.6800000000e+000  2.9551647111e-001 -6.6005960098e+001
 1.6900000000e+000  2.8173334131e-001 -6.4928328605e+001
 1.7000000000e+000  2.6880824960e-001 -6.3594597718e+001
 1.7100000000e+000  2.5687353032e-001 -6.2000918637e+001
 1.7200000000e+000  2.4605028616e-001 -6.0152878228e+001
 1.7300000000e+000  2.3644132293e-001 -5.8067593087e+001
 1.7400000000e+000  2.2812358546e-001 -5.5775024669e+001
 1.7500000000e+000  2.2114097179e-001 -5.3317945978e+001
 1.7600000000e+000  2.1549869614e-001 -5.0750138870e+001
 1.7700000000e+000  2.1116040927e-001 -4.8132776941e+001
 1.7800000000e+000  2.0804894169e-001 -4.5529461526e+001
 1.7900000000e+000  2.0605084101e-001 -4.3000818989e+001
 1.8000000000e+000  2.0502405228e-001 -4.0599718583e+001
 1.8100000000e+000  2.0480745095e-001 -3.8367951181e+001
 1.8200000000e+000  2.0523071059e-001 -3.6334736075e+001
 1.8300000000e+000  2.0612319300e-001 -3.4516923670e+001
 1.8400000000e+000  2.0732102635e-001 -3.2920427488e+001
 1.8500000000e+000  2.0867206584e-001 -3.1542313568e+001
 1.8600000000e+000  2.1003884860e-001 -3.0373049188e+001
 1.8700000000e+000  2.1129989582e-001 -2.9398570945e+001
 1.8800000000e+000  2.1234979883e-001 -2.8601994281e+001
 1.8900000000e+000  2.1309850413e-001 -2.7964910336e+001
 1.9000000000e+000  2.1347013828e-001 -2.7468291672e+001
 1.9100000000e+000  2.1340162738e-001 -2.7093064064e+001
 1.9200000000e+000  2.1284128628e-001 -2.6820410519e+001
 1.9300000000e+000  2.1174749060e-001 -2.6631867728e+001
 1.9400000000e+000  2.1008749981e-001 -2.6509262656e+001
 1.9500000000e+000  2.0783647001e-001 -2.6434522457e+001
 1.9600000000e+000  2.0497667825e-001 -2.6389376768e+001
 1.9700000000e+000  2.0149697212e-001 -2.6354958058e+001
 1.9800000000e+000  1.9739245828e-001 -2.6311292968e+001
 1.9900000000e+000  1.9266444922e-001 -2.6236664485e+001
 2.0000000000e+000  1.8732070055e-001 -2.6106810365e+001
 2.0100000000e+000  1.8137599073e-001 -2.5893906226e+001
 2.0200000000e+000  1.7485312611e-001 -2.5565261217e+001
 2.0300000000e+000  1.6778449931e-001 -2.5081630065e+001
 2.0400000000e+000  1.6021439583e-001 -2.4395020392e+001
 2.0500000000e+000  1.5220234077e-001 -2.3445858833e+001
 2.0600000000e+000  1.4382791350e-001 -2.2159402656e+001
 2.0700000000e+000  1.3519763320e-001 -2.0441418333e+001
 2.0800000000e+000  1.2645469669e-001 -1.8173564051e+001
 2.0900000000e+000  1.1779238624e-001 -1.5209968338e+001
 2.1000000000e+000  1.0947142849e-001 -1.1378836900e+001
 2.1100000000e+000  1.0183944088e-001 -6.4972830228e+000
 2.1200000000e+000  9.5344993588e-002 -4.1322594369e-001
 2.1300000000e+000  9.0528440515e-002 6.9120320892e+000
 2.1400000000e+000  8.7962188595e-002 1.5292200593e+001
 2.1500000000e+000  8.8126421146e-002 2.4249086765e+001
 2.1600000000e+000  9.1263204947e-002 3.3099031993e+001
 2.1700000000e+000  9.7306410199e-002 4.1189914821e+001
 2.1800000000e+000  1.0594105994e-001 4.8113172799e+001
 2.1900000000e+000  1.1673550173e-001 5.3746480365e+001
 2.2000000000e+000  1.2925527035e-001 5.8165746777e+001
 2.2100000000e+000  1.4312112260e-001 6.1536510518e+001
 2.2200000000e+000  1.5802327085e-001 6.4041652062e+001
 2.2300000000e+000  1.7371462934e-001 6.5847451259e+001
 2.2400000000e+000  1.8999807159e-001 6.7092951126e+001
 2.2500000000e+000  2.0671427291e-001 6.7890053183e+001
 2.2600000000e+000  2.2373207077e-001 6.8327399065e+001
 2.2700000000e+000  2.4094139804e-001 6.8474931078e+001
 2.2800000000e+000  2.5824829037e-001 6.8387981345e+001
 2.2900000000e+000  2.7557141775e-001 6.8110593177e+001
 2.3000000000e+000  2.9283968819e-001 6.7678102660e+001
 2.3100000000e+000  3.0999058704e-001 6.7119105752e+001
 2.3200000000e+000  3.2696901328e-001 6.6456945983e+001
 2.3300000000e+000  3.4372644605e-001 6.5710838893e+001
 2.3400000000e+000  3.6022032729e-001 6.4896724851e+001
 2.3500000000e+000  3.7641358216e-001 6.4027919700e+001
 2.3600000000e+000  3.9227422465e-001 6.3115614912e+001
 2.3700000000e+000  4.0777501351e-001 6.2169265366e+001
 2.3800000000e+000  4.2289313594e-001 6.1196892803e+001
 2.3900000000e+000  4.3760990528e-001 6.0205325626e+001
 2.4000000000e+000  4.5191046482e-001 5.9200390322e+001
 2.4100000000e+000  4.6578349427e-001 5.8187065838e+001
 2.4200000000e+000  4.7922091770e-001 5.7169609351e+001
 2.4300000000e+000  4.9221761399e-001 5.6151659782e+001
 2.4400000000e+000  5.0477113139e-001 5.5136323810e+001
 2.4500000000e+000  5.1688140861e-001 5.4126248018e+001
 2.4600000000e+000  5.2855050474e-001 5.3123679923e+001
 2.4700000000e+000  5.3978234027e-001 5.2130520010e+001
 2.4800000000e+000  5.5058245111e-001 5.1148366422e+001
 2.4900000000e+000  5.6095775731e-001 5.0178553563e+001
 2.5000000000e+000  5.7091634748e-001 4.9222185643e+001
 2.5100000000e+000  5.8046727976e-001 4.8280165949e+001
 2.5200000000e+000  5.8962039970e-001 4.7353222485e+001
 2.5300000000e+000  5.9838617504e-001 4.6441930502e+001
 2.5400000000e+000  6.0677554711e-001 4.5546732347e+001
 2.5500000000e+000  6.1479979834e-001 4.4667954966e+001
 2.5600000000e+000  6.2247043522e-001 4.3805825383e+001
 2.5700000000e+000  6.2979908577e-001 4.2960484380e+001
 2.5800000000e+000  6.3679741066e-001 4.2131998598e+001
 2.5900000000e+000  6.4347702694e-001 4.1320371252e+001
 2.6000000000e+000  6.4984944332e-001 4.0525551606e+001
 2.6100000000e+000  6.5592600605e-001 3.9747443348e+001
 2.6200000000e+000  6.6171785431e-001 3.8985912002e+001
 2.6300000000e+000  6.6723588420e-001 3.8240791459e+001
 2.6400000000e+000  6.7249072040e-001 3.7511889745e+001
 2.6500000000e+000  6.7749269456e-001 3.6798994095e+001
 2.6600000000e+000  6.8225182980e-001 3.6101875418e+001
 2.6700000000e+000  6.8677783032e-001 3.5420292207e+001
 2.6800000000e+000  6.9108007574e-001 3.4753993967e+001
 2.6900000000e+000  6.9516761932e-001 3.4102724200e+001
 2.7000000000e+000  6.9904918962e-001 3.3466223001e+001
 2.7100000000e+000  7.0273319514e-001 3.2844229304e+001
 2.7200000000e+000  7.0622773135e-001 3.2236482813e+001
 2.7300000000e+000  7.0954058994e-001 3.1642725651e+001
 2.7400000000e+000  7.1267926966e-001 3.1062703751e+001
 2.7500000000e+000  7.1565098876e-001 3.0496168020e+001
 2.7600000000e+000  7.1846269841e-001 2.9942875298e+001
 2.7700000000e+000  7.2112109718e-001 2.9402589114e+001
 2.7800000000e+000  7.2363264606e-001 2.8875080282e+001
 2.7900000000e+000  7.2600358406e-001 2.8360127332e+001
 2.8000000000e+000  7.2823994402e-001 2.7857516790e+001
 2.8100000000e+000  7.3034756867e-001 2.7367043329e+001
 2.8200000000e+000  7.3233212651e-001 2.6888509788e+001
 2.8300000000e+000  7.3419912764e-001 2.6421727072e+001
 2.8400000000e+000  7.3595393921e-001 2.5966513949e+001
 2.8500000000e+000  7.3760180049e-001 2.5522696735e+001
 2.8600000000e+000  7.3914783734e-001 2.5090108885e+001
 2.8700000000e+000  7.4059707601e-001 2.4668590495e+001
 2.8800000000e+000  7.4195445617e-001 2.4257987722e+001
 2.8900000000e+000  7.4322484304e-001 2.3858152118e+001
 2.9000000000e+000  7.4441303850e-001 2.3468939908e+001
 2.9100000000e+000  7.4552379114e-001 2.3090211189e+001
 2.9200000000e+000  7.4656180506e-001 2.2721829086e+001
 2.9300000000e+000  7.4753174752e-001 2.2363658855e+001
 2.9400000000e+000  7.4843825515e-001 2.2015566951e+001
 2.9500000000e+000  7.4928593882e-001 2.1677420062e+001
 2.9600000000e+000  7.5007938705e-001 2.1349084137e+001
 2.9700000000e+000  7.5082316799e-001 2.1030423391e+001
 2.9800000000e+000  7.5152182989e-001 2.0721299331e+001
 2.9900000000e+000  7.5217990006e-001 2.0421569781e+001
 3.0000000000e+000  7.5280188248e-001 2.0131087953e+001
 3.0100000000e+000  7.5339225385e-001 1.9849701543e+001
 3.0200000000e+000  7.5395545840e-001 1.9577251888e+001
 3.0300000000e+000  7.5449590138e-001 1.9313573181e+001
 3.0400000000e+000  7.5501794133e-001 1.9058491769e+001
 3.0500000000e+000  7.5552588137e-001 1.8811825528e+001
 3.0600000000e+000  7.5602395945e-001 1.8573383337e+001
 3.0700000000e+000  7.5651633791e-001 1.8342964650e+001
 3.0800000000e+000  7.5700709226e-001 1.8120359189e+001
 3.0900000000e+000  7.5750019964e-001 1.7905346737e+001
 3.1000000000e+000  7.5799952685e-001 1.7697697062e+001
 3.1100000000e+000  7.5850881823e-001 1.7497169955e+001
 3.1200000000e+000  7.5903168367e-001 1.7303515396e+001
 3.1300000000e+000  7.5957158667e-001 1.7116473832e+001
 3.1400000000e+000  7.6013183286e-001 1.6935776578e+001
 3.1500000000e+000  7.6071555892e-001 1.6761146334e+001
 3.1600000000e+000  7.6132572223e-001 1.6592297799e+001
 3.1700000000e+000  7.6196509119e-001 1.6428938395e+001
 3.1800000000e+000  7.6263623646e-001 1.6270769075e+001
 3.1900000000e+000  7.6334152321e-001 1.6117485216e+001
 3.2000000000e+000  7.6408310430e-001 1.5968777584e+001
 3.2100000000e+000  7.6486291474e-001 1.5824333357e+001
 3.2200000000e+000  7.6568266716e-001 1.5683837198e+001
 3.2300000000e+000  7.6654384866e-001 1.5546972367e+001
 3.2400000000e+000  7.6744771870e-001 1.5413421853e+001
 3.2500000000e+000  7.6839530840e-001 1.5282869532e+001
 3.2600000000e+000  7.6938742098e-001 1.5155001310e+001
 3.2700000000e+000  7.7042463341e-001 1.5029506274e+001
 3.2800000000e+000  7.7150729934e-001 1.4906077812e+001
 3.2900000000e+000  7.7263555306e-001 1.4784414706e+001
 3.3000000000e+000  7.7380931468e-001 1.4664222191e+001
 3.3100000000e+000  7.7502829631e-001 1.4545212954e+001
 3.3200000000e+000  7.7629200923e-001 1.4427108092e+001
 3.3300000000e+000  7.7759977198e-001 1.4309637991e+001
 3.3400000000e+000  7.7895071938e-001 1.4192543143e+001
 3.3500000000e+000  7.8034381219e-001 1.4075574887e+001
 3.3600000000e+000  7.8177784755e-001 1.3958496067e+001
 3.3700000000e+000  7.8325147000e-001 1.3841081609e+001
 3.3800000000e+000  7.8476318298e-001 1.3723119005e+001
 3.3900000000e+000  7.8631136079e-001 1.3604408717e+001
 3.4000000000e+000  7.8789426080e-001 1.3484764487e+001
 3.4100000000e+000  7.8951003596e-001 1.3364013557e+001
 3.4200000000e+000  7.9115674736e-001 1.3241996806e+001
 3.4300000000e+000  7.9283237688e-001 1.3118568796e+001
 3.4400000000e+000  7.9453483975e-001 1.2993597739e+001
 3.4500000000e+000  7.9626199696e-001 1.2866965382e+001
 3.4600000000e+000  7.9801166743e-001 1.2738566818e+001
 3.4700000000e+000  7.9978163989e-001 1.2608310227e+001
 3.4800000000e+000  8.0156968432e-001 1.2476116552e+001
 3.4900000000e+000  8.0337356298e-001 1.2341919115e+001
 3.5000000000e+000  8.0519104089e-001 1.2205663181e+001
 3.5100000000e+000  8.0701989572e-001 1.2067305475e+001
 3.5200000000e+000  8.0885792710e-001 1.1926813659e+001
 3.5300000000e+000  8.1070296523e-001 1.1784165776e+001
 3.5400000000e+000  8.1255287886e-001 1.1639349665e+001
 3.5500000000e+000  8.1440558245e-001 1.1492362358e+001
 3.5600000000e+000  8.1625904275e-001 1.1343209461e+001
 3.5700000000e+000  8.1811128451e-001 1.1191904523e+001
 3.5800000000e+000  8.1996039559e-001 1.1038468412e+001
 3.5900000000e+000  8.2180453125e-001 1.0882928678e+001
 3.6000000000e+000  8.2364191779e-001 1.0725318939e+001
 3.6100000000e+000  8.2547085552e-001 1.0565678265e+001
 3.6200000000e+000  8.2728972100e-001 1.0404050585e+001
 3.6300000000e+000  8.2909696875e-001 1.0240484108e+001
 3.6400000000e+000  8.3089113231e-001 1.0075030773e+001
 3.6500000000e+000  8.3267082472e-001 9.9077457123e+000
 3.6600000000e+000  8.3443473856e-001 9.7386867483e+000
 3.6700000000e+000  8.3618164545e-001 9.5679139182e+000
 3.6800000000e+000  8.3791039513e-001 9.3954890245e+000
 3.6900000000e+000  8.3961991417e-001 9.2214752179e+000
 3.7000000000e+000  8.4130920433e-001 9.0459366096e+000
 3.7100000000e+000  8.4297734056e-001 8.8689379152e+000
 3.7200000000e+000  8.4462346880e-001 8.6905441283e+000
 3.7300000000e+000  8.4624680351e-001 8.5108202258e+000
 3.7400000000e+000  8.4784662507e-001 8.3298309014e+000
 3.7500000000e+000  8.4942227695e-001 8.1476403294e+000
 3.7600000000e+000  8.5097316281e-001 7.9643119560e+000
 3.7700000000e+000  8.5249874356e-001 7.7799083174e+000
 3.7800000000e+000  8.5399853427e-001 7.5944908844e+000
 3.7900000000e+000  8.5547210116e-001 7.4081199308e+000
 3.8000000000e+000  8.5691905853e-001 7.2208544252e+000
 3.8100000000e+000  8.5833906572e-001 7.0327519447e+000
 3.8200000000e+000  8.5973182421e-001 6.8438686084e+000
 3.8300000000e+000  8.6109707466e-001 6.6542590300e+000
 3.8400000000e+000  8.6243459415e-001 6.4639762872e+000
 3.8500000000e+000  8.6374419344e-001 6.2730719074e+000
 3.8600000000e+000  8.6502571445e-001 6.0815958670e+000
 3.8700000000e+000  8.6627902779e-001 5.8895966035e+000
 3.8800000000e+000  8.6750403042e-001 5.6971210392e+000
 3.8900000000e+000  8.6870064357e-001 5.5042146143e+000
 3.9000000000e+000  8.6986881069e-001 5.3109213284e+000
 3.9100000000e+000  8.7100849560e-001 5.1172837892e+000
