! IGNION VIRTUAL ANTENNA LIBRARY
!
! NN_RUN_B140x120_C120x11
! Virtual Antenna™ RUN mXTEND™: NN02-224 12.0 mm x 3.0 mm x 2.4 mm
! https://ignion.io/product/run-mxtend/
! Board: 140 mm x 120 mm
! Clearance Area: 120 mm x 11 mm
! Feeding line: L-shape; 11mm x 2mm and 5mm x 2mm
! Applications: Smart meter, Routers/Repeaters
! Frequency range 0.65GHz to 6GHz, step 10MHz
! Number of ports 1
!
! This product and its use is protected by at least one or more of the following patents and patent
! applications US 8,203,492 B2; US 8,237,615 B2; PCT/EP2013/064692; WO 2014/012842 A1; US 2019/190122 A1;
! US 62/072,671; and other domestic and international patents pending. Additional information about
! patents related to this product is available at https://ignion.io/files/Patent-list-NN.pdf, all
! rights reserved. Copyright, Ignion 2021.
!
! Need more help? Your platform is much different than these examples in the manual? Use our 
! Fast Track service (https://ignion.io/fast-track/), for free, and get a personalized antenna design in
! just 24 hours.
!
!
! Touchstone port 1 = "Series Port"
!
! IE3D S-Parameters Output Version 2.0
# GHZ S MA R 50
! Nport = 1
!

 6.5000000000e-001  9.7600742062e-001 -1.8114790968e+001
 6.6000000000e-001  9.7437059608e-001 -1.8464075644e+001
 6.7000000000e-001  9.7265384250e-001 -1.8813473963e+001
 6.8000000000e-001  9.7086071096e-001 -1.9162622471e+001
 6.9000000000e-001  9.6899599241e-001 -1.9511180479e+001
 7.0000000000e-001  9.6706569412e-001 -1.9858845244e+001
 7.1000000000e-001  9.6507695862e-001 -2.0205367772e+001
 7.2000000000e-001  9.6303792167e-001 -2.0550568401e+001
 7.3000000000e-001  9.6095750936e-001 -2.0894351208e+001
 7.4000000000e-001  9.5884518005e-001 -2.1236716260e+001
 7.5000000000e-001  9.5671062114e-001 -2.1577768796e+001
 7.6000000000e-001  9.5456341557e-001 -2.1917724584e+001
 7.7000000000e-001  9.5241269576e-001 -2.2256910967e+001
 7.8000000000e-001  9.5026680428e-001 -2.2595763448e+001
 7.9000000000e-001  9.4813297998e-001 -2.2934817995e+001
 8.0000000000e-001  9.4601708574e-001 -2.3274699594e+001
 8.1000000000e-001  9.4392339004e-001 -2.3616107842e+001
 8.2000000000e-001  9.4185440935e-001 -2.3959800530e+001
 8.3000000000e-001  9.3981081303e-001 -2.4306576243e+001
 8.4000000000e-001  9.3779138746e-001 -2.4657256949e+001
 8.5000000000e-001  9.3579305200e-001 -2.5012671399e+001
 8.6000000000e-001  9.3381091670e-001 -2.5373639978e+001
 8.7000000000e-001  9.3183837009e-001 -2.5740961402e+001
 8.8000000000e-001  9.2986718540e-001 -2.6115401424e+001
 8.9000000000e-001  9.2788763439e-001 -2.6497683505e+001
 9.0000000000e-001  9.2588859949e-001 -2.6888481232e+001
 9.1000000000e-001  9.2385767738e-001 -2.7288412121e+001
 9.2000000000e-001  9.2178126881e-001 -2.7698032366e+001
 9.3000000000e-001  9.1964465242e-001 -2.8117832029e+001
 9.4000000000e-001  9.1743204180e-001 -2.8548230134e+001
 9.5000000000e-001  9.1512662758e-001 -2.8989569137e+001
 9.6000000000e-001  9.1271060779e-001 -2.9442108224e+001
 9.7000000000e-001  9.1016521193e-001 -2.9906014905e+001
 9.8000000000e-001  9.0747072585e-001 -3.0381354407e+001
 9.9000000000e-001  9.0460652646e-001 -3.0868076363e+001
 1.0000000000e+000  9.0155113776e-001 -3.1365998351e+001
 1.0100000000e+000  8.9828232185e-001 -3.1874785886e+001
 1.0200000000e+000  8.9477722148e-001 -3.2393928558e+001
 1.0300000000e+000  8.9101257355e-001 -3.2922712161e+001
 1.0400000000e+000  8.8696501590e-001 -3.3460186880e+001
 1.0500000000e+000  8.8261151264e-001 -3.4005131942e+001
 1.0600000000e+000  8.7792992476e-001 -3.4556017625e+001
 1.0700000000e+000  8.7289975322e-001 -3.5110966171e+001
 1.0800000000e+000  8.6750307907e-001 -3.5667714042e+001
 1.0900000000e+000  8.6172571837e-001 -3.6223579068e+001
 1.1000000000e+000  8.5555859693e-001 -3.6775437377e+001
 1.1100000000e+000  8.4899932933e-001 -3.7319716440e+001
 1.1200000000e+000  8.4205395730e-001 -3.7852412073e+001
 1.1300000000e+000  8.3473876289e-001 -3.8369138354e+001
 1.1400000000e+000  8.2708202441e-001 -3.8865219905e+001
 1.1500000000e+000  8.1912553162e-001 -3.9335835156e+001
 1.1600000000e+000  8.1092562874e-001 -3.9776216512e+001
 1.1700000000e+000  8.0255352272e-001 -4.0181908218e+001
 1.1800000000e+000  7.9409459392e-001 -4.0549074828e+001
 1.1900000000e+000  7.8564649248e-001 -4.0874843047e+001
 1.2000000000e+000  7.7731590653e-001 -4.1157648379e+001
 1.2100000000e+000  7.6921404724e-001 -4.1397547948e+001
 1.2200000000e+000  7.6145109342e-001 -4.1596454912e+001
 1.2300000000e+000  7.5413004090e-001 -4.1758251312e+001
 1.2400000000e+000  7.4734056285e-001 -4.1888746752e+001
 1.2500000000e+000  7.4115355868e-001 -4.1995469936e+001
 1.2600000000e+000  7.3561702209e-001 -4.2087305291e+001
 1.2700000000e+000  7.3075369047e-001 -4.2174012340e+001
 1.2800000000e+000  7.2656068161e-001 -4.2265684555e+001
 1.2900000000e+000  7.2301103648e-001 -4.2372212348e+001
 1.3000000000e+000  7.2005683427e-001 -4.2502809901e+001
 1.3100000000e+000  7.1763337726e-001 -4.2665649949e+001
 1.3200000000e+000  7.1566388283e-001 -4.2867629205e+001
 1.3300000000e+000  7.1406415915e-001 -4.3114265495e+001
 1.3400000000e+000  7.1274685262e-001 -4.3409710505e+001
 1.3500000000e+000  7.1162499887e-001 -4.3756851530e+001
 1.3600000000e+000  7.1061475237e-001 -4.4157472004e+001
 1.3700000000e+000  7.0963728803e-001 -4.4612442393e+001
 1.3800000000e+000  7.0861995146e-001 -4.5121918137e+001
 1.3900000000e+000  7.0749678117e-001 -4.5685527804e+001
 1.4000000000e+000  7.0620854407e-001 -4.6302540878e+001
 1.4100000000e+000  7.0470242101e-001 -4.6972009928e+001
 1.4200000000e+000  7.0293146360e-001 -4.7692885817e+001
 1.4300000000e+000  7.0085392075e-001 -4.8464107201e+001
 1.4400000000e+000  6.9843251073e-001 -4.9284667107e+001
 1.4500000000e+000  6.9563369376e-001 -5.0153659988e+001
 1.4600000000e+000  6.9242698227e-001 -5.1070312810e+001
 1.4700000000e+000  6.8878431258e-001 -5.2034003428e+001
 1.4800000000e+000  6.8467949153e-001 -5.3044269166e+001
 1.4900000000e+000  6.8008772464e-001 -5.4100807988e+001
 1.5000000000e+000  6.7498522761e-001 -5.5203474212e+001
 1.5100000000e+000  6.6934892059e-001 -5.6352270299e+001
 1.5200000000e+000  6.6315620299e-001 -5.7547335886e+001
 1.5300000000e+000  6.5638480629e-001 -5.8788934966e+001
 1.5400000000e+000  6.4901272246e-001 -6.0077441896e+001
 1.5500000000e+000  6.4101820573e-001 -6.1413326752e+001
 1.5600000000e+000  6.3237984635e-001 -6.2797140492e+001
 1.5700000000e+000  6.2307671507e-001 -6.4229500317e+001
 1.5800000000e+000  6.1308857727e-001 -6.5711075658e+001
 1.5900000000e+000  6.0239617593e-001 -6.7242575255e+001
 1.6000000000e+000  5.9098158167e-001 -6.8824735943e+001
 1.6100000000e+000  5.7882860757e-001 -7.0458313897e+001
 1.6200000000e+000  5.6592328474e-001 -7.2144079325e+001
 1.6300000000e+000  5.5225439284e-001 -7.3882815920e+001
 1.6400000000e+000  5.3781403734e-001 -7.5675326749e+001
 1.6500000000e+000  5.2259826232e-001 -7.7522448794e+001
 1.6600000000e+000  5.0660768472e-001 -7.9425079000e+001
 1.6700000000e+000  4.8984813254e-001 -8.1384215593e+001
 1.6800000000e+000  4.7233126682e-001 -8.3401019612e+001
 1.6900000000e+000  4.5407516463e-001 -8.5476903235e+001
 1.7000000000e+000  4.3510483937e-001 -8.7613653813e+001
 1.7100000000e+000  4.1545267473e-001 -8.9813605905e+001
 1.7200000000e+000  3.9515875152e-001 -9.2079878588e+001
 1.7300000000e+000  3.7427105204e-001 -9.4416702977e+001
 1.7400000000e+000  3.5284553596e-001 -9.6829876710e+001
 1.7500000000e+000  3.3094609650e-001 -9.9327401136e+001
 1.7600000000e+000  3.0864442659e-001 -1.0192038777e+002
 1.7700000000e+000  2.8601985715e-001 -1.0462437240e+002
 1.7800000000e+000  2.6315927856e-001 -1.0746126419e+002
 1.7900000000e+000  2.4015733665e-001 -1.1046231553e+002
 1.8000000000e+000  2.1711723463e-001 -1.1367278819e+002
 1.8100000000e+000  1.9415273499e-001 -1.1715954379e+002
 1.8200000000e+000  1.7139248200e-001 -1.2102387631e+002
 1.8300000000e+000  1.4898889111e-001 -1.2542413542e+002
 1.8400000000e+000  1.2713640981e-001 -1.3061736919e+002
 1.8500000000e+000  1.0611008531e-001 -1.3703889933e+002
 1.8600000000e+000  8.6350473851e-002 -1.4545572633e+002
 1.8700000000e+000  6.8655251189e-002 -1.5723180375e+002
 1.8800000000e+000  5.4573235566e-002 -1.7450618555e+002
 1.8900000000e+000  4.6782581871e-002 1.6130391798e+002
 1.9000000000e+000  4.7701429019e-002 1.3447568633e+002
 1.9100000000e+000  5.6250356836e-002 1.1278129272e+002
 1.9200000000e+000  6.9113243964e-002 9.7930130974e+001
 1.9300000000e+000  8.3865588766e-002 8.7824473427e+001
 1.9400000000e+000  9.9271946269e-002 8.0579647437e+001
 1.9500000000e+000  1.1473000209e-001 7.5079693086e+001
 1.9600000000e+000  1.2993132670e-001 7.0697990004e+001
 1.9700000000e+000  1.4470882009e-001 6.7072720648e+001
 1.9800000000e+000  1.5896870697e-001 6.3985301936e+001
 1.9900000000e+000  1.7265840520e-001 6.1297551051e+001
 2.0000000000e+000  1.8575021989e-001 5.8918442155e+001
 2.0100000000e+000  1.9823246284e-001 5.6785797573e+001
 2.0200000000e+000  2.1010428424e-001 5.4855769886e+001
 2.0300000000e+000  2.2137247511e-001 5.3096555562e+001
 2.0400000000e+000  2.3204937641e-001 5.1484500561e+001
 2.0500000000e+000  2.4215144326e-001 5.0001609254e+001
 2.0600000000e+000  2.5169821691e-001 4.8633904812e+001
 2.0700000000e+000  2.6071156278e-001 4.7370322101e+001
 2.0800000000e+000  2.6921509000e-001 4.6201942740e+001
 2.0900000000e+000  2.7723369981e-001 4.5121455364e+001
 2.1000000000e+000  2.8479322882e-001 4.4122767391e+001
 2.1100000000e+000  2.9192016409e-001 4.3200720657e+001
 2.1200000000e+000  2.9864141395e-001 4.2350879530e+001
 2.1300000000e+000  3.0498412276e-001 4.1569370356e+001
 2.1400000000e+000  3.1097552051e-001 4.0852757785e+001
 2.1500000000e+000  3.1664280019e-001 4.0197947927e+001
 2.1600000000e+000  3.2201301698e-001 3.9602111244e+001
 2.1700000000e+000  3.2711300418e-001 3.9062620159e+001
 2.1800000000e+000  3.3196930157e-001 3.8576997777e+001
 2.1900000000e+000  3.3660809209e-001 3.8142875147e+001
 2.2000000000e+000  3.4105514360e-001 3.7757955236e+001
 2.2100000000e+000  3.4533575248e-001 3.7419982347e+001
 2.2200000000e+000  3.4947468642e-001 3.7126716130e+001
 2.2300000000e+000  3.5349612432e-001 3.6875909644e+001
 2.2400000000e+000  3.5742359144e-001 3.6665291161e+001
 2.2500000000e+000  3.6127988894e-001 3.6492549586e+001
 2.2600000000e+000  3.6508701695e-001 3.6355323477e+001
 2.2700000000e+000  3.6886609163e-001 3.6251193699e+001
 2.2800000000e+000  3.7263725666e-001 3.6177679798e+001
 2.2900000000e+000  3.7641959067e-001 3.6132240145e+001
 2.3000000000e+000  3.8023101245e-001 3.6112275850e+001
 2.3100000000e+000  3.8408818629e-001 3.6115138376e+001
 2.3200000000e+000  3.8800643020e-001 3.6138140678e+001
 2.3300000000e+000  3.9199962991e-001 3.6178571571e+001
 2.3400000000e+000  3.9608016178e-001 3.6233712934e+001
 2.3500000000e+000  4.0025882756e-001 3.6300859226e+001
 2.3600000000e+000  4.0454480372e-001 3.6377338709e+001
 2.3700000000e+000  4.0894560777e-001 3.6460535695e+001
 2.3800000000e+000  4.1346708353e-001 3.6547913095e+001
 2.3900000000e+000  4.1811340651e-001 3.6637034521e+001
 2.4000000000e+000  4.2288711027e-001 3.6725585259e+001
 2.4100000000e+000  4.2778913359e-001 3.6811391436e+001
 2.4200000000e+000  4.3281888780e-001 3.6892436831e+001
 2.4300000000e+000  4.3797434296e-001 3.6966876874e+001
 2.4400000000e+000  4.4325213109e-001 3.7033049501e+001
 2.4500000000e+000  4.4864766397e-001 3.7089482677e+001
 2.4600000000e+000  4.5415526287e-001 3.7134898508e+001
 2.4700000000e+000  4.5976829735e-001 3.7168214022e+001
 2.4800000000e+000  4.6547933002e-001 3.7188538763e+001
 2.4900000000e+000  4.7128026414e-001 3.7195169477e+001
 2.5000000000e+000  4.7716249131e-001 3.7187582213e+001
 2.5100000000e+000  4.8311703624e-001 3.7165422209e+001
 2.5200000000e+000  4.8913469637e-001 3.7128491982e+001
 2.5300000000e+000  4.9520617380e-001 3.7076738023e+001
 2.5400000000e+000  5.0132219802e-001 3.7010236519e+001
 2.5500000000e+000  5.0747363765e-001 3.6929178466e+001
 2.5600000000e+000  5.1365160018e-001 3.6833854543e+001
 2.5700000000e+000  5.1984751883e-001 3.6724640056e+001
 2.5800000000e+000  5.2605322612e-001 3.6601980225e+001
 2.5900000000e+000  5.3226101390e-001 3.6466376042e+001
 2.6000000000e+000  5.3846367992e-001 3.6318370895e+001
 2.6100000000e+000  5.4465456136e-001 3.6158538096e+001
 2.6200000000e+000  5.5082755578e-001 3.5987469426e+001
 2.6300000000e+000  5.5697713015e-001 3.5805764772e+001
 2.6400000000e+000  5.6309831900e-001 3.5614022905e+001
 2.6500000000e+000  5.6918671244e-001 3.5412833414e+001
 2.6600000000e+000  5.7523843527e-001 3.5202769806e+001
 2.6700000000e+000  5.8125011830e-001 3.4984383729e+001
 2.6800000000e+000  5.8721886289e-001 3.4758200320e+001
 2.6900000000e+000  5.9314220018e-001 3.4524714601e+001
 2.7000000000e+000  5.9901804603e-001 3.4284388872e+001
 2.7100000000e+000  6.0484465294e-001 3.4037651055e+001
 2.7200000000e+000  6.1062056011e-001 3.3784893892e+001
 2.7300000000e+000  6.1634454285e-001 3.3526474930e+001
 2.7400000000e+000  6.2201556235e-001 3.3262717217e+001
 2.7500000000e+000  6.2763271679e-001 3.2993910615e+001
 2.7600000000e+000  6.3319519492e-001 3.2720313640e+001
 2.7700000000e+000  6.3870223262e-001 3.2442155749e+001
 2.7800000000e+000  6.4415307345e-001 3.2159639972e+001
 2.7900000000e+000  6.4954693358e-001 3.1872945816e+001
 2.8000000000e+000  6.5488297160e-001 3.1582232336e+001
 2.8100000000e+000  6.6016026363e-001 3.1287641306e+001
 2.8200000000e+000  6.6537778364e-001 3.0989300394e+001
 2.8300000000e+000  6.7053438936e-001 3.0687326298e+001
 2.8400000000e+000  6.7562881332e-001 3.0381827742e+001
 2.8500000000e+000  6.8065965903e-001 3.0072908306e+001
 2.8600000000e+000  6.8562540187e-001 2.9760669034e+001
 2.8700000000e+000  6.9052439425e-001 2.9445210774e+001
 2.8800000000e+000  6.9535487452e-001 2.9126636243e+001
 2.8900000000e+000  7.0011497908e-001 2.8805051780e+001
 2.9000000000e+000  7.0480275706e-001 2.8480568806e+001
 2.9100000000e+000  7.0941618706e-001 2.8153304962e+001
 2.9200000000e+000  7.1395319509e-001 2.7823384968e+001
 2.9300000000e+000  7.1841167351e-001 2.7490941200e+001
 2.9400000000e+000  7.2278950009e-001 2.7156114014e+001
 2.9500000000e+000  7.2708455688e-001 2.6819051848e+001
 2.9600000000e+000  7.3129474856e-001 2.6479911132e+001
 2.9700000000e+000  7.3541801972e-001 2.6138856028e+001
 2.9800000000e+000  7.3945237099e-001 2.5796058053e+001
 2.9900000000e+000  7.4339587385e-001 2.5451695593e+001
 3.0000000000e+000  7.4724668378e-001 2.5105953352e+001
 3.0100000000e+000  7.5100305209e-001 2.4759021765e+001
 3.0200000000e+000  7.5466333601e-001 2.4411096381e+001
 3.0300000000e+000  7.5822600748e-001 2.4062377258e+001
 3.0400000000e+000  7.6168966048e-001 2.3713068375e+001
 3.0500000000e+000  7.6505301719e-001 2.3363377073e+001
 3.0600000000e+000  7.6831493301e-001 2.3013513536e+001
 3.0700000000e+000  7.7147440074e-001 2.2663690326e+001
 3.0800000000e+000  7.7453055395e-001 2.2314121959e+001
 3.0900000000e+000  7.7748266976e-001 2.1965024543e+001
 3.1000000000e+000  7.8033017124e-001 2.1616615453e+001
 3.1100000000e+000  7.8307262950e-001 2.1269113067e+001
 3.1200000000e+000  7.8570976561e-001 2.0922736532e+001
 3.1300000000e+000  7.8824145256e-001 2.0577705570e+001
 3.1400000000e+000  7.9066771722e-001 2.0234240321e+001
 3.1500000000e+000  7.9298874253e-001 1.9892561197e+001
 3.1600000000e+000  7.9520486994e-001 1.9552888762e+001
 3.1700000000e+000  7.9731660213e-001 1.9215443613e+001
 3.1800000000e+000  7.9932460614e-001 1.8880446265e+001
 3.1900000000e+000  8.0122971691e-001 1.8548117022e+001
 3.2000000000e+000  8.0303294125e-001 1.8218675830e+001
 3.2100000000e+000  8.0473546225e-001 1.7892342110e+001
 3.2200000000e+000  8.0633864423e-001 1.7569334536e+001
 3.2300000000e+000  8.0784403801e-001 1.7249870779e+001
 3.2400000000e+000  8.0925338664e-001 1.6934167181e+001
 3.2500000000e+000  8.1056863151e-001 1.6622438357e+001
 3.2600000000e+000  8.1179191854e-001 1.6314896716e+001
 3.2700000000e+000  8.1292560462e-001 1.6011751873e+001
 3.2800000000e+000  8.1397226388e-001 1.5713209969e+001
 3.2900000000e+000  8.1493469373e-001 1.5419472851e+001
 3.3000000000e+000  8.1581592029e-001 1.5130737133e+001
 3.3100000000e+000  8.1661920309e-001 1.4847193117e+001
 3.3200000000e+000  8.1734803850e-001 1.4569023569e+001
 3.3300000000e+000  8.1800616166e-001 1.4296402350e+001
 3.3400000000e+000  8.1859754648e-001 1.4029492908e+001
 3.3500000000e+000  8.1912640324e-001 1.3768446640e+001
 3.3600000000e+000  8.1959717339e-001 1.3513401133e+001
 3.3700000000e+000  8.2001452122e-001 1.3264478308e+001
 3.3800000000e+000  8.2038332184e-001 1.3021782503e+001
 3.3900000000e+000  8.2070864536e-001 1.2785398519e+001
 3.4000000000e+000  8.2099573674e-001 1.2555389672e+001
 3.4100000000e+000  8.2124999151e-001 1.2331795911e+001
 3.4200000000e+000  8.2147692692e-001 1.2114632038e+001
 3.4300000000e+000  8.2168214893e-001 1.1903886104e+001
 3.4400000000e+000  8.2187131510e-001 1.1699518021e+001
 3.4500000000e+000  8.2205009389e-001 1.1501458465e+001
 3.4600000000e+000  8.2222412081e-001 1.1309608118e+001
 3.4700000000e+000  8.2239895228e-001 1.1123837287e+001
 3.4800000000e+000  8.2258001790e-001 1.0943985965e+001
 3.4900000000e+000  8.2277257221e-001 1.0769864342e+001
 3.5000000000e+000  8.2298164692e-001 1.0601253793e+001
 3.5100000000e+000  8.2321200472e-001 1.0437908347e+001
 3.5200000000e+000  8.2346809581e-001 1.0279556618e+001
 3.5300000000e+000  8.2375401809e-001 1.0125904183e+001
 3.5400000000e+000  8.2407348207e-001 9.9766363454e+000
 3.5500000000e+000  8.2442978140e-001 9.8314212414e+000
 3.5600000000e+000  8.2482576948e-001 9.6899132207e+000
 3.5700000000e+000  8.2526384290e-001 9.5517564158e+000
 3.5800000000e+000  8.2574593184e-001 9.4165884257e+000
 3.5900000000e+000  8.2627349754e-001 9.2840440260e+000
 3.6000000000e+000  8.2684753674e-001 9.1537588228e+000
 3.6100000000e+000  8.2746859266e-001 9.0253727700e+000
 3.6200000000e+000  8.2813677217e-001 8.8985334809e+000
 3.6300000000e+000  8.2885176831e-001 8.7728992692e+000
 3.6400000000e+000  8.2961288750e-001 8.6481418708e+000
 3.6500000000e+000  8.3041908061e-001 8.5239488080e+000
 3.6600000000e+000  8.3126897689e-001 8.4000253702e+000
 3.6700000000e+000  8.3216091999e-001 8.2760962006e+000
 3.6800000000e+000  8.3309300506e-001 8.1519064861e+000
 3.6900000000e+000  8.3406311627e-001 8.0272227635e+000
 3.7000000000e+000  8.3506896391e-001 7.9018333590e+000
 3.7100000000e+000  8.3610812034e-001 7.7755484910e+000
 3.7200000000e+000  8.3717805450e-001 7.6482000655e+000
 3.7300000000e+000  8.3827616414e-001 7.5196412047e+000
 3.7400000000e+000  8.3939980583e-001 7.3897455433e+000
 3.7500000000e+000  8.4054632222e-001 7.2584063359e+000
 3.7600000000e+000  8.4171306645e-001 7.1255354113e+000
 3.7700000000e+000  8.4289742382e-001 6.9910620118e+000
 3.7800000000e+000  8.4409683045e-001 6.8549315522e+000
 3.7900000000e+000  8.4530878925e-001 6.7171043286e+000
 3.8000000000e+000  8.4653088309e-001 6.5775542061e+000
 3.8100000000e+000  8.4776078553e-001 6.4362673077e+000
 3.8200000000e+000  8.4899626919e-001 6.2932407261e+000
 3.8300000000e+000  8.5023521190e-001 6.1484812738e+000
 3.8400000000e+000  8.5147560098e-001 6.0020042857e+000
 3.8500000000e+000  8.5271553577e-001 5.8538324825e+000
 3.8600000000e+000  8.5395322865e-001 5.7039949045e+000
 3.8700000000e+000  8.5518700471e-001 5.5525259179e+000
 3.8800000000e+000  8.5641530036e-001 5.3994642979e+000
 3.8900000000e+000  8.5763666095e-001 5.2448523889e+000
 3.9000000000e+000  8.5884973762e-001 5.0887353405e+000
 3.9100000000e+000  8.6005328349e-001 4.9311604188e+000
