! IGNION VIRTUAL ANTENNA LIBRARY
!
! NN_RUN_B30x30_C14x5
! Virtual Antenna™ RUN mXTEND™: NN02-224 12.0 mm x 3.0 mm x 2.4 mm
! https://ignion.io/product/run-mxtend/
! Board: 30 mm x 30 mm
! Clearance Area: 14 mm x 5 mm
! Feeding line: straight line; 5mm x 2mm
! Applications: Wearables
! Frequency range 0.65GHz to 6GHz, step 10MHz
! Number of ports 1
!
! This product and its use is protected by at least one or more of the following patents and patent
! applications US 8,203,492 B2; US 8,237,615 B2; PCT/EP2013/064692; WO 2014/012842 A1; US 2019/190122 A1;
! US 62/072,671; and other domestic and international patents pending. Additional information about
! patents related to this product is available at https://ignion.io/files/Patent-list-NN.pdf, all
! rights reserved. Copyright, Ignion 2021.
!
! Need more help? Your platform is much different than these examples in the manual? Use our 
! Fast Track service (https://ignion.io/fast-track/), for free, and get a personalized antenna design in
! just 24 hours.
!
!
! Touchstone port 1 = "Series Port"
!
! IE3D S-Parameters Output Version 2.0  
# GHZ S MA R 50
! Nport = 1
!

 6.5000000000e-001  9.9739242615e-001 -1.5915684263e+001
 6.6000000000e-001  9.9733455600e-001 -1.6180728232e+001
 6.7000000000e-001  9.9727559341e-001 -1.6446756664e+001
 6.8000000000e-001  9.9721549999e-001 -1.6713789248e+001
 6.9000000000e-001  9.9715423618e-001 -1.6981845911e+001
 7.0000000000e-001  9.9709176126e-001 -1.7250946830e+001
 7.1000000000e-001  9.9702803333e-001 -1.7521112432e+001
 7.2000000000e-001  9.9696300920e-001 -1.7792363406e+001
 7.3000000000e-001  9.9689664441e-001 -1.8064720703e+001
 7.4000000000e-001  9.9682889320e-001 -1.8338205545e+001
 7.5000000000e-001  9.9675970841e-001 -1.8612839431e+001
 7.6000000000e-001  9.9668904150e-001 -1.8888644143e+001
 7.7000000000e-001  9.9661684246e-001 -1.9165641754e+001
 7.8000000000e-001  9.9654305979e-001 -1.9443854632e+001
 7.9000000000e-001  9.9646764046e-001 -1.9723305448e+001
 8.0000000000e-001  9.9639052984e-001 -2.0004017184e+001
 8.1000000000e-001  9.9631167165e-001 -2.0286013138e+001
 8.2000000000e-001  9.9623100794e-001 -2.0569316932e+001
 8.3000000000e-001  9.9614847899e-001 -2.0853952519e+001
 8.4000000000e-001  9.9606402330e-001 -2.1139944193e+001
 8.5000000000e-001  9.9597757751e-001 -2.1427316591e+001
 8.6000000000e-001  9.9588907635e-001 -2.1716094706e+001
 8.7000000000e-001  9.9579845255e-001 -2.2006303892e+001
 8.8000000000e-001  9.9570563683e-001 -2.2297969874e+001
 8.9000000000e-001  9.9561055780e-001 -2.2591118752e+001
 9.0000000000e-001  9.9551314189e-001 -2.2885777017e+001
 9.1000000000e-001  9.9541331330e-001 -2.3181971552e+001
 9.2000000000e-001  9.9531099392e-001 -2.3479729643e+001
 9.3000000000e-001  9.9520610326e-001 -2.3779078990e+001
 9.4000000000e-001  9.9509855836e-001 -2.4080047715e+001
 9.5000000000e-001  9.9498827373e-001 -2.4382664368e+001
 9.6000000000e-001  9.9487516126e-001 -2.4686957942e+001
 9.7000000000e-001  9.9475913013e-001 -2.4992957879e+001
 9.8000000000e-001  9.9464008674e-001 -2.5300694079e+001
 9.9000000000e-001  9.9451793460e-001 -2.5610196913e+001
 1.0000000000e+000  9.9439257424e-001 -2.5921497231e+001
 1.0100000000e+000  9.9426390315e-001 -2.6234626374e+001
 1.0200000000e+000  9.9413181561e-001 -2.6549616183e+001
 1.0300000000e+000  9.9399620267e-001 -2.6866499009e+001
 1.0400000000e+000  9.9385695198e-001 -2.7185307728e+001
 1.0500000000e+000  9.9371394772e-001 -2.7506075749e+001
 1.0600000000e+000  9.9356707045e-001 -2.7828837024e+001
 1.0700000000e+000  9.9341619703e-001 -2.8153626066e+001
 1.0800000000e+000  9.9326120049e-001 -2.8480477952e+001
 1.0900000000e+000  9.9310194990e-001 -2.8809428345e+001
 1.1000000000e+000  9.9293831022e-001 -2.9140513496e+001
 1.1100000000e+000  9.9277014222e-001 -2.9473770267e+001
 1.1200000000e+000  9.9259730229e-001 -2.9809236135e+001
 1.1300000000e+000  9.9241964233e-001 -3.0146949210e+001
 1.1400000000e+000  9.9223700959e-001 -3.0486948249e+001
 1.1500000000e+000  9.9204924654e-001 -3.0829272666e+001
 1.1600000000e+000  9.9185619068e-001 -3.1173962548e+001
 1.1700000000e+000  9.9165767439e-001 -3.1521058669e+001
 1.1800000000e+000  9.9145352480e-001 -3.1870602504e+001
 1.1900000000e+000  9.9124356355e-001 -3.2222636246e+001
 1.2000000000e+000  9.9102760669e-001 -3.2577202816e+001
 1.2100000000e+000  9.9080546444e-001 -3.2934345882e+001
 1.2200000000e+000  9.9057694102e-001 -3.3294109874e+001
 1.2300000000e+000  9.9034183446e-001 -3.3656539999e+001
 1.2400000000e+000  9.9009993640e-001 -3.4021682255e+001
 1.2500000000e+000  9.8985103186e-001 -3.4389583452e+001
 1.2600000000e+000  9.8959489908e-001 -3.4760291225e+001
 1.2700000000e+000  9.8933130924e-001 -3.5133854051e+001
 1.2800000000e+000  9.8906002626e-001 -3.5510321268e+001
 1.2900000000e+000  9.8878080657e-001 -3.5889743088e+001
 1.3000000000e+000  9.8849339887e-001 -3.6272170621e+001
 1.3100000000e+000  9.8819754386e-001 -3.6657655887e+001
 1.3200000000e+000  9.8789297401e-001 -3.7046251837e+001
 1.3300000000e+000  9.8757941329e-001 -3.7438012370e+001
 1.3400000000e+000  9.8725657690e-001 -3.7832992354e+001
 1.3500000000e+000  9.8692417097e-001 -3.8231247642e+001
 1.3600000000e+000  9.8658189231e-001 -3.8632835092e+001
 1.3700000000e+000  9.8622942807e-001 -3.9037812585e+001
 1.3800000000e+000  9.8586645550e-001 -3.9446239049e+001
 1.3900000000e+000  9.8549264156e-001 -3.9858174473e+001
 1.4000000000e+000  9.8510764268e-001 -4.0273679930e+001
 1.4100000000e+000  9.8471110436e-001 -4.0692817598e+001
 1.4200000000e+000  9.8430266087e-001 -4.1115650777e+001
 1.4300000000e+000  9.8388193492e-001 -4.1542243910e+001
 1.4400000000e+000  9.8344853726e-001 -4.1972662608e+001
 1.4500000000e+000  9.8300206634e-001 -4.2406973666e+001
 1.4600000000e+000  9.8254210795e-001 -4.2845245083e+001
 1.4700000000e+000  9.8206823482e-001 -4.3287546088e+001
 1.4800000000e+000  9.8158000623e-001 -4.3733947156e+001
 1.4900000000e+000  9.8107696762e-001 -4.4184520031e+001
 1.5000000000e+000  9.8055865018e-001 -4.4639337746e+001
 1.5100000000e+000  9.8002457043e-001 -4.5098474647e+001
 1.5200000000e+000  9.7947422979e-001 -4.5562006408e+001
 1.5300000000e+000  9.7890711418e-001 -4.6030010058e+001
 1.5400000000e+000  9.7832269354e-001 -4.6502563996e+001
 1.5500000000e+000  9.7772042140e-001 -4.6979748017e+001
 1.5600000000e+000  9.7709973443e-001 -4.7461643327e+001
 1.5700000000e+000  9.7646005197e-001 -4.7948332565e+001
 1.5800000000e+000  9.7580077557e-001 -4.8439899826e+001
 1.5900000000e+000  9.7512128852e-001 -4.8936430673e+001
 1.6000000000e+000  9.7442095538e-001 -4.9438012161e+001
 1.6100000000e+000  9.7369912145e-001 -4.9944732857e+001
 1.6200000000e+000  9.7295511237e-001 -5.0456682852e+001
 1.6300000000e+000  9.7218823357e-001 -5.0973953780e+001
 1.6400000000e+000  9.7139776980e-001 -5.1496638840e+001
 1.6500000000e+000  9.7058298466e-001 -5.2024832801e+001
 1.6600000000e+000  9.6974312007e-001 -5.2558632029e+001
 1.6700000000e+000  9.6887739585e-001 -5.3098134491e+001
 1.6800000000e+000  9.6798500921e-001 -5.3643439771e+001
 1.6900000000e+000  9.6706513427e-001 -5.4194649084e+001
 1.7000000000e+000  9.6611692161e-001 -5.4751865284e+001
 1.7100000000e+000  9.6513949782e-001 -5.5315192873e+001
 1.7200000000e+000  9.6413196506e-001 -5.5884738008e+001
 1.7300000000e+000  9.6309340062e-001 -5.6460608511e+001
 1.7400000000e+000  9.6202285654e-001 -5.7042913867e+001
 1.7500000000e+000  9.6091935921e-001 -5.7631765230e+001
 1.7600000000e+000  9.5978190901e-001 -5.8227275424e+001
 1.7700000000e+000  9.5860947999e-001 -5.8829558940e+001
 1.7800000000e+000  9.5740101955e-001 -5.9438731930e+001
 1.7900000000e+000  9.5615544817e-001 -6.0054912206e+001
 1.8000000000e+000  9.5487165922e-001 -6.0678219224e+001
 1.8100000000e+000  9.5354851873e-001 -6.1308774077e+001
 1.8200000000e+000  9.5218486531e-001 -6.1946699478e+001
 1.8300000000e+000  9.5077951002e-001 -6.2592119744e+001
 1.8400000000e+000  9.4933123638e-001 -6.3245160772e+001
 1.8500000000e+000  9.4783880042e-001 -6.3905950016e+001
 1.8600000000e+000  9.4630093079e-001 -6.4574616457e+001
 1.8700000000e+000  9.4471632896e-001 -6.5251290575e+001
 1.8800000000e+000  9.4308366953e-001 -6.5936104307e+001
 1.8900000000e+000  9.4140160056e-001 -6.6629191008e+001
 1.9000000000e+000  9.3966874409e-001 -6.7330685408e+001
 1.9100000000e+000  9.3788369672e-001 -6.8040723561e+001
 1.9200000000e+000  9.3604503031e-001 -6.8759442789e+001
 1.9300000000e+000  9.3415129283e-001 -6.9486981623e+001
 1.9400000000e+000  9.3220100930e-001 -7.0223479739e+001
 1.9500000000e+000  9.3019268293e-001 -7.0969077887e+001
 1.9600000000e+000  9.2812479639e-001 -7.1723917812e+001
 1.9700000000e+000  9.2599581324e-001 -7.2488142179e+001
 1.9800000000e+000  9.2380417953e-001 -7.3261894475e+001
 1.9900000000e+000  9.2154832562e-001 -7.4045318925e+001
 2.0000000000e+000  9.1922666816e-001 -7.4838560386e+001
 2.0100000000e+000  9.1683761227e-001 -7.5641764240e+001
 2.0200000000e+000  9.1437955403e-001 -7.6455076285e+001
 2.0300000000e+000  9.1185088304e-001 -7.7278642610e+001
 2.0400000000e+000  9.0924998537e-001 -7.8112609473e+001
 2.0500000000e+000  9.0657524666e-001 -7.8957123165e+001
 2.0600000000e+000  9.0382505555e-001 -7.9812329872e+001
 2.0700000000e+000  9.0099780732e-001 -8.0678375527e+001
 2.0800000000e+000  8.9809190783e-001 -8.1555405660e+001
 2.0900000000e+000  8.9510577778e-001 -8.2443565235e+001
 2.1000000000e+000  8.9203785717e-001 -8.3342998486e+001
 2.1100000000e+000  8.8888661020e-001 -8.4253848744e+001
 2.1200000000e+000  8.8565053030e-001 -8.5176258263e+001
 2.1300000000e+000  8.8232814564e-001 -8.6110368029e+001
 2.1400000000e+000  8.7891802481e-001 -8.7056317579e+001
 2.1500000000e+000  8.7541878289e-001 -8.8014244800e+001
 2.1600000000e+000  8.7182908778e-001 -8.8984285736e+001
 2.1700000000e+000  8.6814766686e-001 -8.9966574382e+001
 2.1800000000e+000  8.6437331396e-001 -9.0961242475e+001
 2.1900000000e+000  8.6050489650e-001 -9.1968419292e+001
 2.2000000000e+000  8.5654136311e-001 -9.2988231430e+001
 2.2100000000e+000  8.5248175128e-001 -9.4020802593e+001
 2.2200000000e+000  8.4832519539e-001 -9.5066253381e+001
 2.2300000000e+000  8.4407093493e-001 -9.6124701067e+001
 2.2400000000e+000  8.3971832287e-001 -9.7196259385e+001
 2.2500000000e+000  8.3526683421e-001 -9.8281038313e+001
 2.2600000000e+000  8.3071607466e-001 -9.9379143855e+001
 2.2700000000e+000  8.2606578942e-001 -1.0049067783e+002
 2.2800000000e+000  8.2131587194e-001 -1.0161573768e+002
 2.2900000000e+000  8.1646637278e-001 -1.0275441622e+002
 2.3000000000e+000  8.1151750834e-001 -1.0390680147e+002
 2.3100000000e+000  8.0646966950e-001 -1.0507297646e+002
 2.3200000000e+000  8.0132343017e-001 -1.0625301900e+002
 2.3300000000e+000  7.9607955552e-001 -1.0744700154e+002
 2.3400000000e+000  7.9073900999e-001 -1.0865499092e+002
 2.3500000000e+000  7.8530296496e-001 -1.0987704825e+002
 2.3600000000e+000  7.7977280597e-001 -1.1111322870e+002
 2.3700000000e+000  7.7415013949e-001 -1.1236358135e+002
 2.3800000000e+000  7.6843679911e-001 -1.1362814897e+002
 2.3900000000e+000  7.6263485116e-001 -1.1490696794e+002
 2.4000000000e+000  7.5674659952e-001 -1.1620006798e+002
 2.4100000000e+000  7.5077458983e-001 -1.1750747206e+002
 2.4200000000e+000  7.4472161273e-001 -1.1882919619e+002
 2.4300000000e+000  7.3859070625e-001 -1.2016524928e+002
 2.4400000000e+000  7.3238515732e-001 -1.2151563291e+002
 2.4500000000e+000  7.2610850209e-001 -1.2288034117e+002
 2.4600000000e+000  7.1976452534e-001 -1.2425936044e+002
 2.4700000000e+000  7.1335725873e-001 -1.2565266918e+002
 2.4800000000e+000  7.0689097782e-001 -1.2706023768e+002
 2.4900000000e+000  7.0037019797e-001 -1.2848202777e+002
 2.5000000000e+000  6.9379966902e-001 -1.2991799257e+002
 2.5100000000e+000  6.8718436868e-001 -1.3136807611e+002
 2.5200000000e+000  6.8052949471e-001 -1.3283221301e+002
 2.5300000000e+000  6.7384045584e-001 -1.3431032802e+002
 2.5400000000e+000  6.6712286145e-001 -1.3580233561e+002
 2.5500000000e+000  6.6038251000e-001 -1.3730813943e+002
 2.5600000000e+000  6.5362537630e-001 -1.3882763179e+002
 2.5700000000e+000  6.4685759761e-001 -1.4036069297e+002
 2.5800000000e+000  6.4008545859e-001 -1.4190719063e+002
 2.5900000000e+000  6.3331537521e-001 -1.4346697899e+002
 2.6000000000e+000  6.2655387770e-001 -1.4503989806e+002
 2.6100000000e+000  6.1980759249e-001 -1.4662577276e+002
 2.6200000000e+000  6.1308322337e-001 -1.4822441198e+002
 2.6300000000e+000  6.0638753187e-001 -1.4983560759e+002
 2.6400000000e+000  5.9972731694e-001 -1.5145913334e+002
 2.6500000000e+000  5.9310939407e-001 -1.5309474381e+002
 2.6600000000e+000  5.8654057398e-001 -1.5474217320e+002
 2.6700000000e+000  5.8002764090e-001 -1.5640113413e+002
 2.6800000000e+000  5.7357733059e-001 -1.5807131647e+002
 2.6900000000e+000  5.6719630831e-001 -1.5975238603e+002
 2.7000000000e+000  5.6089114663e-001 -1.6144398339e+002
 2.7100000000e+000  5.5466830350e-001 -1.6314572262e+002
 2.7200000000e+000  5.4853410043e-001 -1.6485719014e+002
 2.7300000000e+000  5.4249470106e-001 -1.6657794362e+002
 2.7400000000e+000  5.3655609022e-001 -1.6830751087e+002
 2.7500000000e+000  5.3072405354e-001 -1.7004538899e+002
 2.7600000000e+000  5.2500415781e-001 -1.7179104352e+002
 2.7700000000e+000  5.1940173220e-001 -1.7354390782e+002
 2.7800000000e+000  5.1392185040e-001 -1.7530338260e+002
 2.7900000000e+000  5.0856931383e-001 -1.7706883571e+002
 2.8000000000e+000  5.0334863613e-001 -1.7883960209e+002
 2.8100000000e+000  4.9826402887e-001 1.7938501595e+002
 2.8200000000e+000  4.9331938870e-001 1.7760574824e+002
 2.8300000000e+000  4.8851828602e-001 1.7582335586e+002
 2.8400000000e+000  4.8386395524e-001 1.7403863008e+002
 2.8500000000e+000  4.7935928672e-001 1.7225239084e+002
 2.8600000000e+000  4.7500682049e-001 1.7046548501e+002
 2.8700000000e+000  4.7080874170e-001 1.6867878425e+002
 2.8800000000e+000  4.6676687804e-001 1.6689318262e+002
 2.8900000000e+000  4.6288269896e-001 1.6510959378e+002
 2.9000000000e+000  4.5915731679e-001 1.6332894806e+002
 2.9100000000e+000  4.5559148978e-001 1.6155218908e+002
 2.9200000000e+000  4.5218562700e-001 1.5978027030e+002
 2.9300000000e+000  4.4893979506e-001 1.5801415126e+002
 2.9400000000e+000  4.4585372656e-001 1.5625479369e+002
 2.9500000000e+000  4.4292683031e-001 1.5450315757e+002
 2.9600000000e+000  4.4015820303e-001 1.5276019698e+002
 2.9700000000e+000  4.3754664260e-001 1.5102685610e+002
 2.9800000000e+000  4.3509066264e-001 1.4930406506e+002
 2.9900000000e+000  4.3278850823e-001 1.4759273600e+002
 3.0000000000e+000  4.3063817276e-001 1.4589375921e+002
 3.0100000000e+000  4.2863741557e-001 1.4420799940e+002
 3.0200000000e+000  4.2678378039e-001 1.4253629221e+002
 3.0300000000e+000  4.2507461422e-001 1.4087944100e+002
 3.0400000000e+000  4.2350708665e-001 1.3923821385e+002
 3.0500000000e+000  4.2207820930e-001 1.3761334089e+002
 3.0600000000e+000  4.2078485530e-001 1.3600551200e+002
 3.0700000000e+000  4.1962377866e-001 1.3441537475e+002
 3.0800000000e+000  4.1859163326e-001 1.3284353282e+002
 3.0900000000e+000  4.1768499148e-001 1.3129054466e+002
 3.1000000000e+000  4.1690036221e-001 1.2975692254e+002
 3.1100000000e+000  4.1623420820e-001 1.2824313198e+002
 3.1200000000e+000  4.1568296260e-001 1.2674959144e+002
 3.1300000000e+000  4.1524304465e-001 1.2527667240e+002
 3.1400000000e+000  4.1491087444e-001 1.2382469966e+002
 3.1500000000e+000  4.1468288664e-001 1.2239395195e+002
 3.1600000000e+000  4.1455554323e-001 1.2098466283e+002
 3.1700000000e+000  4.1452534513e-001 1.1959702174e+002
 3.1800000000e+000  4.1458884285e-001 1.1823117525e+002
 3.1900000000e+000  4.1474264593e-001 1.1688722857e+002
 3.2000000000e+000  4.1498343145e-001 1.1556524708e+002
 3.2100000000e+000  4.1530795143e-001 1.1426525807e+002
 3.2200000000e+000  4.1571303923e-001 1.1298725254e+002
 3.2300000000e+000  4.1619561502e-001 1.1173118706e+002
 3.2400000000e+000  4.1675269026e-001 1.1049698566e+002
 3.2500000000e+000  4.1738137133e-001 1.0928454184e+002
 3.2600000000e+000  4.1807886235e-001 1.0809372047e+002
 3.2700000000e+000  4.1884246717e-001 1.0692435974e+002
 3.2800000000e+000  4.1966959071e-001 1.0577627313e+002
 3.2900000000e+000  4.2055773956e-001 1.0464925124e+002
 3.3000000000e+000  4.2150452204e-001 1.0354306369e+002
 3.3100000000e+000  4.2250764766e-001 1.0245746089e+002
 3.3200000000e+000  4.2356492608e-001 1.0139217580e+002
 3.3300000000e+000  4.2467426568e-001 1.0034692557e+002
 3.3400000000e+000  4.2583367168e-001 9.9321413161e+001
 3.3500000000e+000  4.2704124392e-001 9.8315328865e+001
 3.3600000000e+000  4.2829517437e-001 9.7328351763e+001
 3.3700000000e+000  4.2959374435e-001 9.6360151101e+001
 3.3800000000e+000  4.3093532155e-001 9.5410387584e+001
 3.3900000000e+000  4.3231835687e-001 9.4478714609e+001
 3.4000000000e+000  4.3374138111e-001 9.3564779410e+001
 3.4100000000e+000  4.3520300153e-001 9.2668224140e+001
 3.4200000000e+000  4.3670189839e-001 9.1788686876e+001
 3.4300000000e+000  4.3823682134e-001 9.0925802556e+001
 3.4400000000e+000  4.3980658586e-001 9.0079203859e+001
 3.4500000000e+000  4.4141006965e-001 8.9248522011e+001
 3.4600000000e+000  4.4304620903e-001 8.8433387539e+001
 3.4700000000e+000  4.4471399536e-001 8.7633430964e+001
 3.4800000000e+000  4.4641247156e-001 8.6848283445e+001
 3.4900000000e+000  4.4814072860e-001 8.6077577368e+001
 3.5000000000e+000  4.4989790209e-001 8.5320946894e+001
 3.5100000000e+000  4.5168316902e-001 8.4578028451e+001
 3.5200000000e+000  4.5349574447e-001 8.3848461198e+001
 3.5300000000e+000  4.5533487847e-001 8.3131887439e+001
 3.5400000000e+000  4.5719985301e-001 8.2427953009e+001
 3.5500000000e+000  4.5908997907e-001 8.1736307619e+001
 3.5600000000e+000  4.6100459381e-001 8.1056605172e+001
 3.5700000000e+000  4.6294305789e-001 8.0388504057e+001
 3.5800000000e+000  4.6490475286e-001 7.9731667400e+001
 3.5900000000e+000  4.6688907871e-001 7.9085763303e+001
 3.6000000000e+000  4.6889545152e-001 7.8450465056e+001
 3.6100000000e+000  4.7092330124e-001 7.7825451326e+001
 3.6200000000e+000  4.7297206960e-001 7.7210406322e+001
 3.6300000000e+000  4.7504120815e-001 7.6605019948e+001
 3.6400000000e+000  4.7713017636e-001 7.6008987936e+001
 3.6500000000e+000  4.7923843992e-001 7.5422011961e+001
 3.6600000000e+000  4.8136546912e-001 7.4843799737e+001
 3.6700000000e+000  4.8351073735e-001 7.4274065112e+001
 3.6800000000e+000  4.8567371972e-001 7.3712528132e+001
 3.6900000000e+000  4.8785389177e-001 7.3158915107e+001
 3.7000000000e+000  4.9005072836e-001 7.2612958657e+001
 3.7100000000e+000  4.9226370255e-001 7.2074397750e+001
 3.7200000000e+000  4.9449228471e-001 7.1542977729e+001
 3.7300000000e+000  4.9673594165e-001 7.1018450330e+001
 3.7400000000e+000  4.9899413589e-001 7.0500573688e+001
 3.7500000000e+000  5.0126632499e-001 6.9989112339e+001
 3.7600000000e+000  5.0355196101e-001 6.9483837208e+001
 3.7700000000e+000  5.0585049002e-001 6.8984525595e+001
 3.7800000000e+000  5.0816135176e-001 6.8490961149e+001
 3.7900000000e+000  5.1048397929e-001 6.8002933837e+001
 3.8000000000e+000  5.1281779881e-001 6.7520239907e+001
 3.8100000000e+000  5.1516222948e-001 6.7042681840e+001
 3.8200000000e+000  5.1751668335e-001 6.6570068305e+001
 3.8300000000e+000  5.1988056539e-001 6.6102214099e+001
 3.8400000000e+000  5.2225327349e-001 6.5638940086e+001
 3.8500000000e+000  5.2463419861e-001 6.5180073130e+001
 3.8600000000e+000  5.2702272493e-001 6.4725446024e+001
 3.8700000000e+000  5.2941823011e-001 6.4274897412e+001
 3.8800000000e+000  5.3182008552e-001 6.3828271713e+001
 3.8900000000e+000  5.3422765659e-001 6.3385419029e+001
 3.9000000000e+000  5.3664030315e-001 6.2946195063e+001
