! IGNION VIRTUAL ANTENNA LIBRARY
!
! NN_RUN_B50x20_C20x11
! Virtual Antenna™ RUN mXTEND™: NN02-224 12.0 mm x 3.0 mm x 2.4 mm
! https://ignion.io/product/run-mxtend/
! Board: 50 mm x 20 mm
! Clearance Area: 20 mm x 11 mm
! Feeding line: L-shape; 11mm x 2mm and 5mm x 2mm
! Applications: Fleet management, IoT
! Frequency range 0.65GHz to 6GHz, step 10MHz
! Number of ports 9
!
! This product and its use is protected by at least one or more of the following patents and patent
! applications US 8,203,492 B2; US 8,237,615 B2; PCT/EP2013/064692; WO 2014/012842 A1; US 2019/190122 A1;
! US 62/072,671; and other domestic and international patents pending. Additional information about
! patents related to this product is available at https://ignion.io/files/Patent-list-NN.pdf, all
! rights reserved. Copyright, Ignion 2021.
!
! Need more help? Your platform is much different than these examples in the manual? Use our 
! Fast Track service (https://ignion.io/fast-track/), for free, and get a personalized antenna design in
! just 24 hours.
!
! 
! Touchstone port 1 = "Series Port"
! Touchstone port 2 = "Shunt Port"
! Touchstone port 3 = "Series Port"
! Touchstone port 4 = "Shunt Port"
! Touchstone port 5 = "Series Port"
! Touchstone port 6 = "Shunt Port"
! Touchstone port 7 = "Series Port"
! Touchstone port 8 = "Shunt Port"
! Touchstone port 9 = "Series Port"
!
! IE3D S-Parameters Output Version 2.0  
# GHZ S MA R 50
! Nport = 9
!

 6.5000000000e-001  2.4991295310e-001 1.5238476704e+002  7.6189742025e-001 -5.3918672491e+000  4.6704053396e-001 1.7217051147e+002  2.9319325070e-001 -8.0517835353e+000
          1.7456589266e-001 1.7193195947e+002  1.1841173395e-001 -9.3213160097e+000  5.6679766066e-002 1.7463846107e+002  6.1889846686e-002 -1.1457852564e+001
          8.2773064212e-003 -6.2275183879e+001
          7.6189742025e-001 -5.3918672491e+000  2.4192835401e-001 1.6133049482e+002  4.7040567408e-001 1.7693220842e+002  2.9434216354e-001 -2.2888700720e+000
          1.7629622444e-001 1.7501918930e+002  1.1738782114e-001 -5.4258115761e+000  5.8989462058e-002 1.7597452429e+002  5.8382852333e-002 -8.9884067992e+000
          5.4923982674e-003 -1.0318750131e+002
          4.6704053396e-001 1.7217051147e+002  4.7040567408e-001 1.7693220842e+002  9.7720588588e-002 4.6145594314e+001  5.8650576721e-001 -5.0566284616e+000
          3.5030616822e-001 1.7381859127e+002  2.3546539090e-001 -7.6114254260e+000  1.1565281243e-001 1.7582898207e+002  1.2005869786e-001 -1.1204004237e+001
          1.5082740553e-002 -8.2422956999e+001
          2.9319325070e-001 -8.0517835353e+000  2.9434216354e-001 -2.2888700720e+000  5.8650576721e-001 -5.0566284616e+000  1.2723553274e-001 1.5374620926e+002
          5.2942416250e-001 1.7725857947e+002  3.5173315183e-001 -2.9927257958e+000  1.7776006750e-001 1.7718765471e+002  1.7390279198e-001 -8.6841438283e+000
          1.8872278112e-002 -1.0767708310e+002
          1.7456589266e-001 1.7193195947e+002  1.7629622444e-001 1.7501918930e+002  3.5030616822e-001 1.7381859127e+002  5.2942416250e-001 1.7725857947e+002
          1.3016835428e-001 1.9561936925e+001  5.8647431155e-001 -4.7130673610e+000  2.9338204188e-001 1.7727384843e+002  2.9360876150e-001 -1.0074787945e+001
          3.6166282509e-002 -9.7058035185e+001
          1.1841173395e-001 -9.3213160097e+000  1.1738782114e-001 -5.4258115761e+000  2.3546539090e-001 -7.6114254260e+000  3.5173315183e-001 -2.9927257958e+000
          5.8647431155e-001 -4.7130673610e+000  6.7452936014e-002 1.5307586565e+002  4.7487390547e-001 1.7968459027e+002  4.6326711662e-001 -6.9257079525e+000
          5.4356749810e-002 -1.0610717320e+002
          5.6679766066e-002 1.7463846107e+002  5.8989462058e-002 1.7597452429e+002  1.1565281243e-001 1.7582898207e+002  1.7776006750e-001 1.7718765471e+002
          2.9338204188e-001 1.7727384843e+002  4.7487390547e-001 1.7968459027e+002  2.3156903839e-001 -9.2570359274e-001  7.5606377934e-001 -8.1519826141e+000
          9.5443295615e-002 -1.0230794371e+002
          6.1889846686e-002 -1.1457852564e+001  5.8382852333e-002 -8.9884067992e+000  1.2005869786e-001 -1.1204004237e+001  1.7390279198e-001 -8.6841438283e+000
          2.9360876150e-001 -1.0074787945e+001  4.6326711662e-001 -6.9257079525e+000  7.5606377934e-001 -8.1519826141e+000  2.1995526850e-001 -1.4734919726e+001
          1.4947304232e-001 -1.0479815344e+002
          8.2773064212e-003 -6.2275183879e+001  5.4923982674e-003 -1.0318750131e+002  1.5082740553e-002 -8.2422956999e+001  1.8872278112e-002 -1.0767708310e+002
          3.6166282509e-002 -9.7058035185e+001  5.4356749810e-002 -1.0610717320e+002  9.5443295615e-002 -1.0230794371e+002  1.4947304232e-001 -1.0479815344e+002
          9.7553442157e-001 -1.5332318952e+001
 6.6000000000e-001  2.5036437644e-001 1.5198683935e+002  7.6182530512e-001 -5.4746420662e+000  4.6693437224e-001 1.7205024028e+002  2.9316948475e-001 -8.1765414111e+000
          1.7450602866e-001 1.7180990114e+002  1.1843814563e-001 -9.4719167060e+000  5.6611453586e-002 1.7458162627e+002  6.1990790971e-002 -1.1666304971e+001
          8.5034939396e-003 -6.2197730905e+001
          7.6182530512e-001 -5.4746420662e+000  2.4214662198e-001 1.6105322571e+002  4.7040501077e-001 1.7688507374e+002  2.9435171153e-001 -2.3246767864e+000
          1.7629314359e-001 1.7494361298e+002  1.1737935271e-001 -5.5111352543e+000  5.8997396115e-002 1.7591901772e+002  5.8366336654e-002 -9.1371713699e+000
          5.5952492995e-003 -1.0342692968e+002
          4.6693437224e-001 1.7205024028e+002  4.7040501077e-001 1.7688507374e+002  9.8671167876e-002 4.6459802320e+001  5.8645964228e-001 -5.1349458532e+000
          3.5022624026e-001 1.7372530449e+002  2.3547276736e-001 -7.7331244535e+000  1.1559265418e-001 1.7578081269e+002  1.2013654762e-001 -1.1397825941e+001
          1.5406253013e-002 -8.2393638873e+001
          2.9316948475e-001 -8.1765414111e+000  2.9435171153e-001 -2.3246767864e+000  5.8645964228e-001 -5.1349458532e+000  1.2753143461e-001 1.5338166857e+002
          5.2943341701e-001 1.7721732082e+002  3.5169380261e-001 -3.0398564081e+000  1.7781070031e-001 1.7714898583e+002  1.7381284530e-001 -8.8265388619e+000
          1.9216722124e-002 -1.0798116582e+002
          1.7450602866e-001 1.7180990114e+002  1.7629314359e-001 1.7494361298e+002  3.5022624026e-001 1.7372530449e+002  5.2943341701e-001 1.7721732082e+002
          1.3052087484e-001 1.9805649465e+001  5.8641926742e-001 -4.7880557294e+000  2.9337208447e-001 1.7724082070e+002  2.9358565460e-001 -1.0243832771e+001
          3.6836651608e-002 -9.7198323862e+001
          1.1843814563e-001 -9.4719167060e+000  1.1737935271e-001 -5.5111352543e+000  2.3547276736e-001 -7.7331244535e+000  3.5169380261e-001 -3.0398564081e+000
          5.8641926742e-001 -4.7880557294e+000  6.7719212246e-002 1.5275804699e+002  4.7503672884e-001 1.7968373910e+002  4.6301290982e-001 -7.0409034522e+000
          5.5337968642e-002 -1.0638558165e+002
          5.6611453586e-002 1.7458162627e+002  5.8997396115e-002 1.7591901772e+002  1.1559265418e-001 1.7578081269e+002  1.7781070031e-001 1.7714898583e+002
          2.9337208447e-001 1.7724082070e+002  4.7503672884e-001 1.7968373910e+002  2.3141299080e-001 -9.5910099210e-001  7.5576093767e-001 -8.2881516798e+000
          9.7152426341e-002 -1.0252607761e+002
          6.1990790971e-002 -1.1666304971e+001  5.8366336654e-002 -9.1371713699e+000  1.2013654762e-001 -1.1397825941e+001  1.7381284530e-001 -8.8265388619e+000
          2.9358565460e-001 -1.0243832771e+001  4.6301290982e-001 -7.0409034522e+000  7.5576093767e-001 -8.2881516798e+000  2.1942238733e-001 -1.5032683388e+001
          1.5214816737e-001 -1.0505564429e+002
          8.5034939396e-003 -6.2197730905e+001  5.5952492995e-003 -1.0342692968e+002  1.5406253013e-002 -8.2393638873e+001  1.9216722124e-002 -1.0798116582e+002
          3.6836651608e-002 -9.7198323862e+001  5.5337968642e-002 -1.0638558165e+002  9.7152426341e-002 -1.0252607761e+002  1.5214816737e-001 -1.0505564429e+002
          9.7467404932e-001 -1.5608654172e+001
 6.7000000000e-001  2.5082152171e-001 1.5159000794e+002  7.6175213523e-001 -5.5574102334e+000  4.6682645330e-001 1.7192998226e+002  2.9314537443e-001 -8.3013506663e+000
          1.7444511115e-001 1.7168796874e+002  1.1846501733e-001 -9.6229135355e+000  5.6542040616e-002 1.7452627188e+002  6.2093567441e-002 -1.1876460075e+001
          8.7341391733e-003 -6.2130235709e+001
          7.6175213523e-001 -5.5574102334e+000  2.4236795070e-001 1.6077638872e+002  4.7040434767e-001 1.7683794426e+002  2.9436134609e-001 -2.3605097833e+000
          1.7629007733e-001 1.7486809008e+002  1.1737062921e-001 -5.5965446505e+000  5.9005647033e-002 1.7586381423e+002  5.8349292709e-002 -9.2864502615e+000
          5.6990263198e-003 -1.0366902355e+002
          4.6682645330e-001 1.7192998226e+002  4.7040434767e-001 1.7683794426e+002  9.9626609413e-002 4.6765800672e+001  5.8641276569e-001 -5.2132921520e+000
          3.5014504146e-001 1.7363211885e+002  2.3548015731e-001 -7.8550681629e+000  1.1553176777e-001 1.7573350867e+002  1.2021557870e-001 -1.1592782489e+001
          1.5734304034e-002 -8.2368865391e+001
          2.9314537443e-001 -8.3013506663e+000  2.9436134609e-001 -2.3605097833e+000  5.8641276569e-001 -5.2132921520e+000  1.2783117324e-001 1.5301871117e+002
          5.2944307692e-001 1.7717610610e+002  3.5165341505e-001 -3.0870288120e+000  1.7786280194e-001 1.7711051192e+002  1.7372052606e-001 -8.9693444813e+000
          1.9563885232e-002 -1.0828769721e+002
          1.7444511115e-001 1.7168796874e+002  1.7629007733e-001 1.7486809008e+002  3.5014504146e-001 1.7363211885e+002  5.2944307692e-001 1.7717610610e+002
          1.3087702103e-001 2.0047159583e+001  5.8636279641e-001 -4.8631661495e+000  2.9336291188e-001 1.7720823339e+002  2.9356115050e-001 -1.0413593840e+001
          3.7512765659e-002 -9.7341020782e+001
          1.1846501733e-001 -9.6229135355e+000  1.1737062921e-001 -5.5965446505e+000  2.3548015731e-001 -7.8550681629e+000  3.5165341505e-001 -3.0870288120e+000
          5.8636279641e-001 -4.8631661495e+000  6.7989283579e-002 1.5244396716e+002  4.7520395311e-001 1.7968304949e+002  4.6275208582e-001 -7.1564991289e+000
          5.6326448819e-002 -1.0666635692e+002
          5.6542040616e-002 1.7452627188e+002  5.9005647033e-002 1.7586381423e+002  1.1553176777e-001 1.7573350867e+002  1.7786280194e-001 1.7711051192e+002
          2.9336291188e-001 1.7720823339e+002  4.7520395311e-001 1.7968304949e+002  2.3125173811e-001 -9.9339506543e-001  7.5544963534e-001 -8.4248442982e+000
          9.8873592892e-002 -1.0274648253e+002
          6.2093567441e-002 -1.1876460075e+001  5.8349292709e-002 -9.2864502615e+000  1.2021557870e-001 -1.1592782489e+001  1.7372052606e-001 -8.9693444813e+000
          2.9356115050e-001 -1.0413593840e+001  4.6275208582e-001 -7.1564991289e+000  7.5544963534e-001 -8.4248442982e+000  2.1887678214e-001 -1.5334283222e+001
          1.5484205063e-001 -1.0531545951e+002
          8.7341391733e-003 -6.2130235709e+001  5.6990263198e-003 -1.0366902355e+002  1.5734304034e-002 -8.2368865391e+001  1.9563885232e-002 -1.0828769721e+002
          3.7512765659e-002 -9.7341020782e+001  5.6326448819e-002 -1.0666635692e+002  9.8873592892e-002 -1.0274648253e+002  1.5484205063e-001 -1.0531545951e+002
          9.7378977531e-001 -1.5887077589e+001
 6.8000000000e-001  2.5128434070e-001 1.5119428038e+002  7.6167791162e-001 -5.6401717765e+000  4.6671676944e-001 1.7180973810e+002  2.9312091894e-001 -8.4262130087e+000
          1.7438313411e-001 1.7156616702e+002  1.1849234875e-001 -9.7743182123e+000  5.6471531217e-002 1.7447244719e+002  6.2198185842e-002 -1.2088363320e+001
          8.9693188189e-003 -6.2072617508e+001
          7.6167791162e-001 -5.6401717765e+000  2.4259232951e-001 1.6049998877e+002  4.7040368553e-001 1.7679082023e+002  2.9437106362e-001 -2.3963693501e+000
          1.7628702954e-001 1.7479262178e+002  1.1736164296e-001 -5.6820409138e+000  5.9014226865e-002 1.7580891835e+002  5.8331703219e-002 -9.4362532287e+000
          5.8037496504e-003 -1.0391384885e+002
          4.6671676944e-001 1.7180973810e+002  4.7040368553e-001 1.7679082023e+002  1.0058675266e-001 4.7063778470e+001  5.8636513241e-001 -5.2916681902e+000
          3.5006257135e-001 1.7353903744e+002  2.3548755088e-001 -7.9772630459e+000  1.1547017158e-001 1.7568709400e+002  1.2029578178e-001 -1.1788903844e+001
          1.6066990445e-002 -8.2348703881e+001
          2.9312091894e-001 -8.4262130087e+000  2.9437106362e-001 -2.3963693501e+000  5.8636513241e-001 -5.2916681902e+000  1.2813472623e-001 1.5265734688e+002
          5.2945315791e-001 1.7713493603e+002  3.5161196379e-001 -3.1342426766e+000  1.7791641301e-001 1.7707223371e+002  1.7362577428e-001 -9.1125663596e+000
          1.9913826008e-002 -1.0859673919e+002
          1.7438313411e-001 1.7156616702e+002  1.7628702954e-001 1.7479262178e+002  3.5006257135e-001 1.7353903744e+002  5.2945315791e-001 1.7713493603e+002
          1.3123671648e-001 2.0286461073e+001  5.8630486041e-001 -4.9384009662e+000  2.9335458517e-001 1.7717609508e+002  2.9353517716e-001 -1.0584087495e+001
          3.8194750414e-002 -9.7486186200e+001
          1.1849234875e-001 -9.7743182123e+000  1.1736164296e-001 -5.6820409138e+000  2.3548755088e-001 -7.9772630459e+000  3.5161196379e-001 -3.1342426766e+000
          5.8630486041e-001 -4.9384009662e+000  6.8263167853e-002 1.5213364233e+002  4.7537568909e-001 1.7968252114e+002  4.6248448094e-001 -7.2725001322e+000
          5.7322344432e-002 -1.0694955907e+002
          5.6471531217e-002 1.7447244719e+002  5.9014226865e-002 1.7580891835e+002  1.1547017158e-001 1.7568709400e+002  1.7791641301e-001 1.7707223371e+002
          2.9335458517e-001 1.7717609508e+002  4.7537568909e-001 1.7968252114e+002  2.3108511146e-001 -1.0285987800e+000  7.5512963329e-001 -8.5620699872e+000
          1.0060704825e-001 -1.0296921646e+002
          6.2198185842e-002 -1.2088363320e+001  5.8331703219e-002 -9.4362532287e+000  1.2029578178e-001 -1.1788903844e+001  1.7362577428e-001 -9.1125663596e+000
          2.9353517716e-001 -1.0584087495e+001  4.6248448094e-001 -7.2725001322e+000  7.5512963329e-001 -8.5620699872e+000  2.1831817977e-001 -1.5639827567e+001
          1.5755508498e-001 -1.0557765818e+002
          8.9693188189e-003 -6.2072617508e+001  5.8037496504e-003 -1.0391384885e+002  1.6066990445e-002 -8.2348703881e+001  1.9913826008e-002 -1.0859673919e+002
          3.8194750414e-002 -9.7486186200e+001  5.7322344432e-002 -1.0694955907e+002  1.0060704825e-001 -1.0296921646e+002  1.5755508498e-001 -1.0557765818e+002
          9.7288090207e-001 -1.6167639525e+001
 6.9000000000e-001  2.5175278471e-001 1.5079966397e+002  7.6160263531e-001 -5.7229267284e+000  4.6660531282e-001 1.7168950850e+002  2.9309611737e-001 -8.5511301983e+000
          1.7432009147e-001 1.7144450092e+002  1.1852013929e-001 -9.9261427741e+000  5.6399930219e-002 1.7442020309e+002  6.2304655690e-002 -1.2302061252e+001
          9.2091108693e-003 -6.2024798722e+001
          7.6160263531e-001 -5.7229267284e+000  2.4281974763e-001 1.6022403069e+002  4.7040302517e-001 1.7674370194e+002  2.9438086038e-001 -2.4322557637e+000
          1.7628400431e-001 1.7471720926e+002  1.1735238605e-001 -5.7676251589e+000  5.9023148092e-002 1.7575433453e+002  5.8313550276e-002 -9.5865900319e+000
          5.9094398732e-003 -1.0416147288e+002
          4.6660531282e-001 1.7168950850e+002  4.7040302517e-001 1.7674370194e+002  1.0155144169e-001 4.7353920674e+001  5.8631673715e-001 -5.3700748187e+000
          3.4997882971e-001 1.7344606347e+002  2.3549493755e-001 -8.0997157385e+000  1.1540788514e-001 1.7564159320e+002  1.2037714656e-001 -1.1986220668e+001
          1.6404410481e-002 -8.2333222371e+001
          2.9309611737e-001 -8.5511301983e+000  2.9438086038e-001 -2.4322557637e+000  5.8631673715e-001 -5.3700748187e+000  1.2844207138e-001 1.5229758512e+002
          5.2946367622e-001 1.7709381132e+002  3.5156942273e-001 -3.1814975869e+000  1.7797157539e-001 1.7703415172e+002  1.7352852802e-001 -9.2562100064e+000
          2.0266603701e-002 -1.0890835506e+002
          1.7432009147e-001 1.7144450092e+002  1.7628400431e-001 1.7471720926e+002  3.4997882971e-001 1.7344606347e+002  5.2946367622e-001 1.7709381132e+002
          1.3159988380e-001 2.0523548563e+001  5.8624541984e-001 -5.0137625274e+000  2.9334716780e-001 1.7714441440e+002  2.9350765956e-001 -1.0755330311e+001
          3.8882733232e-002 -9.7633881703e+001
          1.1852013929e-001 -9.9261427741e+000  1.1735238605e-001 -5.7676251589e+000  2.3549493755e-001 -8.0997157385e+000  3.5156942273e-001 -3.1814975869e+000
          5.8624541984e-001 -5.0137625274e+000  6.8540885268e-002 1.5182708758e+002  4.7555205096e-001 1.7968215350e+002  4.6220992620e-001 -7.3889114228e+000
          5.8325811197e-002 -1.0723524955e+002
          5.6399930219e-002 1.7442020309e+002  5.9023148092e-002 1.7575433453e+002  1.1540788514e-001 1.7564159320e+002  1.7797157539e-001 1.7703415172e+002
          2.9334716780e-001 1.7714441440e+002  4.7555205096e-001 1.7968215350e+002  2.3091293657e-001 -1.0647248317e+000  7.5480068407e-001 -8.6998382423e+000
          1.0235304794e-001 -1.0319433872e+002
          6.2304655690e-002 -1.2302061252e+001  5.8313550276e-002 -9.5865900319e+000  1.2037714656e-001 -1.1986220668e+001  1.7352852802e-001 -9.2562100064e+000
          2.9350765956e-001 -1.0755330311e+001  4.6220992620e-001 -7.3889114228e+000  7.5480068407e-001 -8.6998382423e+000  2.1774629876e-001 -1.5949427852e+001
          1.6028766709e-001 -1.0584230076e+002
          9.2091108693e-003 -6.2024798722e+001  5.9094398732e-003 -1.0416147288e+002  1.6404410481e-002 -8.2333222371e+001  2.0266603701e-002 -1.0890835506e+002
          3.8882733232e-002 -9.7633881703e+001  5.8325811197e-002 -1.0723524955e+002  1.0235304794e-001 -1.0319433872e+002  1.6028766709e-001 -1.0584230076e+002
          9.7194670659e-001 -1.6450391247e+001
 7.0000000000e-001  2.5222680453e-001 1.5040616570e+002  7.6152630727e-001 -5.8056751296e+000  4.6649207537e-001 1.7156929421e+002  2.9307096862e-001 -8.6761040484e+000
          1.7425597719e-001 1.7132297554e+002  1.1854838806e-001 -1.0078399591e+001  5.6327243285e-002 1.7436959210e+002  6.2412986236e-002 -1.2517601549e+001
          9.4535946505e-003 -6.1986705109e+001
          7.6152630727e-001 -5.8056751296e+000  2.4305019422e-001 1.5994851927e+002  4.7040236749e-001 1.7669658968e+002  2.9439073256e-001 -2.4681692900e+000
          1.7628100587e-001 1.7464185373e+002  1.1734285027e-001 -5.8532984627e+000  5.9032423643e-002 1.7570006713e+002  5.8294815317e-002 -9.7374704271e+000
          6.0161178289e-003 -1.0441196443e+002
          4.6649207537e-001 1.7156929421e+002  4.7040236749e-001 1.7669658968e+002  1.0252052501e-001 4.7636408102e+001  5.8626757430e-001 -5.4485129076e+000
          3.4989381649e-001 1.7335320023e+002  2.3550230619e-001 -8.2224330232e+000  1.1534492923e-001 1.7559703136e+002  1.2045966177e-001 -1.2184764332e+001
          1.6746663801e-002 -8.2322489636e+001
          2.9307096862e-001 -8.6761040484e+000  2.9439073256e-001 -2.4681692900e+000  5.8626757430e-001 -5.4485129076e+000  1.2875318668e-001 1.5193943484e+002
          5.2947464870e-001 1.7705273267e+002  3.5152576503e-001 -3.2287930382e+000  1.7802833227e-001 1.7699626624e+002  1.7342872327e-001 -9.4002807500e+000
          2.0622278225e-002 -1.0922260954e+002
          1.7425597719e-001 1.7132297554e+002  1.7628100587e-001 1.7464185373e+002  3.4989381649e-001 1.7335320023e+002  5.2947464870e-001 1.7705273267e+002
          1.3196644462e-001 2.0758417515e+001  5.8618443369e-001 -5.0892531820e+000  2.9334072573e-001 1.7711319996e+002  2.9347851949e-001 -1.0927339096e+001
          3.9576843086e-002 -9.7784170240e+001
