! IGNION VIRTUAL ANTENNA LIBRARY
!
! NN_RUN_B120x60_C60x11
! Virtual Antenna™ RUN mXTEND™: NN02-224 12.0 mm x 3.0 mm x 2.4 mm
! https://ignion.io/product/run-mxtend/
! Board: 120 mm x 60 mm
! Clearance Area: 60 mm x 11 mm
! Feeding line: L-shape; 11mm x 2mm and 5mm x 2mm
! Applications: Smartphone, Fleet management, IoT
! Frequency range 0.65GHz to 6GHz, step 10MHz
! Number of ports 9
!
! This product and its use is protected by at least one or more of the following patents and patent
! applications US 8,203,492 B2; US 8,237,615 B2; PCT/EP2013/064692; WO 2014/012842 A1; US 2019/190122 A1;
! US 62/072,671; and other domestic and international patents pending. Additional information about
! patents related to this product is available at https://ignion.io/files/Patent-list-NN.pdf, all
! rights reserved. Copyright, Ignion 2021.
!
! Need more help? Your platform is much different than these examples in the manual? Use our 
! Fast Track service (https://ignion.io/fast-track/), for free, and get a personalized antenna design in
! just 24 hours.
!
!
! Touchstone port 1 = "Series Port"
! Touchstone port 2 = "Shunt Port"
! Touchstone port 3 = "Series Port"
! Touchstone port 4 = "Shunt Port"
! Touchstone port 5 = "Series Port"
! Touchstone port 6 = "Shunt Port"
! Touchstone port 7 = "Series Port"
! Touchstone port 8 = "Shunt Port"
! Touchstone port 9 = "Series Port"
!
! IE3D S-Parameters Output Version 2.0
# GHZ S MA R 50
! Nport = 9
!

6.50000000000000e-001 2.50028149038240e-001 1.52222005430009e+002 7.61852817287792e-001 -5.44749018686176e+000 4.66935753292005e-001 1.72171688377951e+002 2.93190508373919e-001 -8.12902389142518e+000
          1.74489385972711e-001 1.72046800749381e+002 1.18441702584939e-001 -9.66650091342533e+000 5.66739310354636e-002 1.75654730092527e+002 6.20540858321524e-002 -1.30246985210964e+001
          1.05679777628907e-002 -7.03218845950055e+001
          7.61852817287792e-001 -5.44749018686170e+000 2.42040295262357e-001 1.61210561206988e+002 4.70443153698315e-001 1.76957356551589e+002 2.94253960510276e-001 -2.31481768358266e+000
          1.76401134721465e-001 1.75117244506408e+002 1.17164289208570e-001 -5.64361512459247e+000 5.93299175129434e-002 1.76642556972089e+002 5.79010716283638e-002 -1.01583400382172e+001
          7.41779237152581e-003 -1.08010885815064e+002
          4.66935753292005e-001 1.72171688377951e+002 4.70443153698316e-001 1.76957356551589e+002 9.76611587891418e-002 4.60678438242759e+001 5.86425820353548e-001 -5.09945877344537e+000
          3.50323951259658e-001 1.73898103169007e+002 2.35322568639776e-001 -7.83311575358925e+000 1.15906270768220e-001 1.76472100795975e+002 1.19863868468361e-001 -1.22728357751056e+001
          1.83183716900422e-002 -8.68633933341592e+001
          2.93190508373919e-001 -8.12902389142530e+000 2.94253960510276e-001 -2.31481768358300e+000 5.86425820353548e-001 -5.09945877344532e+000 1.27349669747216e-001 1.53958718243378e+002
          5.29781538271051e-001 1.77335613905343e+002 3.51008161727539e-001 -3.16001120884671e+000 1.78818739672071e-001 1.77706079565151e+002 1.72375600953558e-001 -9.61493408119037e+000
          2.36433250245228e-002 -1.11755353190322e+002
          1.74489385972711e-001 1.72046800749381e+002 1.76401134721465e-001 1.75117244506408e+002 3.50323951259658e-001 1.73898103169007e+002 5.29781538271051e-001 1.77335613905343e+002
          1.29430119824011e-001 1.92044446081659e+001 5.85663553084859e-001 -4.87713621582882e+000 2.94617517802138e-001 1.77760480298233e+002 2.92015573593149e-001 -1.09335771796370e+001
          4.29483705696399e-002 -1.00876279112723e+002
          1.18441702584939e-001 -9.66650091342522e+000 1.17164289208570e-001 -5.64361512459225e+000 2.35322568639776e-001 -7.83311575358926e+000 3.51008161727539e-001 -3.16001120884675e+000
          5.85663553084858e-001 -4.87713621582889e+000 6.81384487311034e-002 1.55605844154890e+002 4.77632094230715e-001 -1.79866150508895e+002 4.59296984513390e-001 -7.74903923932439e+000
          6.57061092196639e-002 -1.10027014790252e+002
          5.66739310354637e-002 1.75654730092526e+002 5.93299175129435e-002 1.76642556972089e+002 1.15906270768220e-001 1.76472100795975e+002 1.78818739672071e-001 1.77706079565150e+002
          2.94617517802138e-001 1.77760480298233e+002 4.77632094230715e-001 -1.79866150508895e+002 2.27761415853133e-001 -2.38872881850599e+000 7.50629312358514e-001 -8.93729169757406e+000
          1.12344538226983e-001 -1.06047225110224e+002
          6.20540858321525e-002 -1.30246985210965e+001 5.79010716283639e-002 -1.01583400382177e+001 1.19863868468361e-001 -1.22728357751057e+001 1.72375600953558e-001 -9.61493408119036e+000
          2.92015573593149e-001 -1.09335771796370e+001 4.59296984513390e-001 -7.74903923932435e+000 7.50629312358514e-001 -8.93729169757409e+000 2.12992513692386e-001 -1.94874530486556e+001
          1.77605620500637e-001 -1.08617419786151e+002
          1.05679777628907e-002 -7.03218845950056e+001 7.41779237152582e-003 -1.08010885815063e+002 1.83183716900422e-002 -8.68633933341591e+001 2.36433250245227e-002 -1.11755353190322e+002
          4.29483705696398e-002 -1.00876279112723e+002 6.57061092196639e-002 -1.10027014790252e+002 1.12344538226983e-001 -1.06047225110224e+002 1.77605620500637e-001 -1.08617419786151e+002
          9.58690453523206e-001 -1.79425012021472e+001
         
6.60000000000000e-001 2.50479918239404e-001 1.51822641747011e+002 7.61778332604910e-001 -5.53132230397835e+000 4.66825580006140e-001 1.72052113455289e+002 2.93163680555551e-001 -8.25632765947685e+000
          1.74429346103005e-001 1.71930108887877e+002 1.18462537351552e-001 -9.83058331599290e+000 5.66168158424402e-002 1.75640513101664e+002 6.21474615926891e-002 -1.32946835211974e+001
          1.08714843576059e-002 -7.04979329760910e+001
          7.61778332604909e-001 -5.53132230397848e+000 2.42263000057016e-001 1.60931879113767e+002 4.70445522609613e-001 1.76910929582240e+002 2.94257654740889e-001 -2.35115786303644e+000
          1.76405618357345e-001 1.75044177086803e+002 1.17141393684525e-001 -5.73352899056068e+000 5.93598588637317e-002 1.76601194161918e+002 5.78516896732199e-002 -1.03347115144215e+001
          7.57144556927205e-003 -1.08497462433575e+002
          4.66825580006140e-001 1.72052113455289e+002 4.70445522609613e-001 1.76910929582240e+002 9.86047237374211e-002 4.63793194041222e+001 5.86372223080721e-001 -5.17906877481069e+000
          3.50249722129045e-001 1.73807941159294e+002 2.35314331118887e-001 -7.96225538493085e+000 1.15871897456088e-001 1.76446263904665e+002 1.19912025089132e-001 -1.25036936578321e+001
          1.87433948596467e-002 -8.70310848687964e+001
          2.93163680555551e-001 -8.25632765947686e+000 2.94257654740889e-001 -2.35115786303655e+000 5.86372223080720e-001 -5.17906877481065e+000 1.27656143606348e-001 1.53599565925610e+002
          5.29813604061974e-001 1.77296078328814e+002 3.50926783395646e-001 -3.20986376490225e+000 1.78931935909373e-001 1.77676381449627e+002 1.72190744750010e-001 -9.77692703324127e+000
          2.41119629296871e-002 -1.12264661205742e+002
          1.74429346103005e-001 1.71930108887877e+002 1.76405618357345e-001 1.75044177086803e+002 3.50249722129045e-001 1.73807941159294e+002 5.29813604061975e-001 1.77296078328814e+002
          1.29742196252926e-001 1.94433185745974e+001 5.85555559802039e-001 -4.95607892819804e+000 2.94688354825627e-001 1.77739272357688e+002 2.91879304381959e-001 -1.11258433578218e+001
          4.38023796743945e-002 -1.01191893096795e+002
          1.18462537351552e-001 -9.83058331599259e+000 1.17141393684525e-001 -5.73352899056058e+000 2.35314331118887e-001 -7.96225538493076e+000 3.50926783395647e-001 -3.20986376490237e+000
          5.85555559802039e-001 -4.95607892819825e+000 6.84711165710782e-002 1.55344318159184e+002 4.77952852324923e-001 -1.79859954701611e+002 4.58803165819297e-001 -7.88087877070924e+000
          6.69787378123172e-002 -1.10492994633386e+002
          5.66168158424402e-002 1.75640513101665e+002 5.93598588637317e-002 1.76601194161918e+002 1.15871897456088e-001 1.76446263904665e+002 1.78931935909373e-001 1.77676381449627e+002
          2.94688354825627e-001 1.77739272357688e+002 4.77952852324923e-001 -1.79859954701611e+002 2.27381454629367e-001 -2.45271591542328e+000 7.49985735983762e-001 -9.09118478895341e+000
          1.14485515111888e-001 -1.06437263529186e+002
          6.21474615926892e-002 -1.32946835211972e+001 5.78516896732199e-002 -1.03347115144211e+001 1.19912025089132e-001 -1.25036936578321e+001 1.72190744750010e-001 -9.77692703324122e+000
          2.91879304381959e-001 -1.11258433578221e+001 4.58803165819297e-001 -7.88087877070934e+000 7.49985735983762e-001 -9.09118478895350e+000 2.12002116804767e-001 -1.99225089158817e+001
          1.80994063109397e-001 -1.09053391769533e+002
          1.08714843576059e-002 -7.04979329760909e+001 7.57144556927204e-003 -1.08497462433575e+002 1.87433948596467e-002 -8.70310848687962e+001 2.41119629296871e-002 -1.12264661205741e+002
          4.38023796743944e-002 -1.01191893096795e+002 6.69787378123172e-002 -1.10492994633386e+002 1.14485515111888e-001 -1.06437263529186e+002 1.80994063109397e-001 -1.09053391769533e+002
          9.56685986107549e-001 -1.82889902435066e+001
         
6.70000000000000e-001 2.50937188831222e-001 1.51424460829659e+002 7.61702599974646e-001 -5.61516110968541e+000 4.66713646126963e-001 1.71932613133223e+002 2.93136036827574e-001 -8.38376892716057e+000
          1.74368696934333e-001 1.71813812204389e+002 1.18482773108755e-001 -9.99559452828277e+000 5.65604097858750e-002 1.75629516634281e+002 6.22404682661288e-002 -1.35688902470925e+001
          1.11811526261253e-002 -7.06971916338114e+001
          7.61702599974646e-001 -5.61516110968552e+000 2.42488928515239e-001 1.60653641956193e+002 4.70448154630219e-001 1.76864523059190e+002 2.94261089411557e-001 -2.38749897353451e+000
          1.76410646935111e-001 1.74971166992321e+002 1.17117381230575e-001 -5.82341648971980e+000 5.93914447636885e-002 1.76559815772680e+002 5.77996558566131e-002 -1.05113578582347e+001
          7.72640730560112e-003 -1.08999417797003e+002
          4.66713646126963e-001 1.71932613133223e+002 4.70448154630219e-001 1.76864523059190e+002 9.95525460092749e-002 4.66825918882636e+001 5.86317185520771e-001 -5.25873517613311e+000
          3.50175011498221e-001 1.73717996627441e+002 2.35304533635482e-001 -8.09183516836282e+000 1.15839301968206e-001 1.76421876504040e+002 1.19957901420427e-001 -1.27368122247207e+001
          1.91749137005192e-002 -8.72139793704644e+001
          2.93136036827573e-001 -8.38376892716041e+000 2.94261089411557e-001 -2.38749897353438e+000 5.86317185520770e-001 -5.25873517613318e+000 1.27967317961831e-001 1.53241996420432e+002
          5.29847481270556e-001 1.77256561125639e+002 3.50842190500625e-001 -3.25958654466240e+000 1.79049971586747e-001 1.77646424072448e+002 1.71997998307954e-001 -9.93885354319570e+000
          2.45839883090420e-002 -1.12786982471493e+002
          1.74368696934333e-001 1.71813812204389e+002 1.76410646935111e-001 1.74971166992321e+002 3.50175011498220e-001 1.73717996627441e+002 5.29847481270555e-001 1.77256561125639e+002
          1.30055811793378e-001 1.96803953176697e+001 5.85442749688756e-001 -5.03511324347876e+000 2.94765183911819e-001 1.77718414767883e+002 2.91733587781466e-001 -1.13189719961565e+001
          4.46636616782581e-002 -1.01518824684349e+002
          1.18482773108755e-001 -9.99559452828262e+000 1.17117381230574e-001 -5.82341648971982e+000 2.35304533635482e-001 -8.09183516836308e+000 3.50842190500625e-001 -3.25958654466261e+000
          5.85442749688756e-001 -5.03511324347877e+000 6.88130053580167e-002 1.55086058400476e+002 4.78286182494814e-001 -1.79854067102979e+002 4.58289232806115e-001 -8.01261591211087e+000
          6.82596204977413e-002 -1.10970746934065e+002
          5.65604097858749e-002 1.75629516634281e+002 5.93914447636885e-002 1.76559815772680e+002 1.15839301968206e-001 1.76421876504040e+002 1.79049971586747e-001 1.77646424072448e+002
          2.94765183911819e-001 1.77718414767883e+002 4.78286182494814e-001 -1.79854067102979e+002 2.26983784593121e-001 -2.51680469917123e+000 7.49313169413010e-001 -9.24533024287095e+000
          1.16639626122409e-001 -1.06838042388760e+002
          6.22404682661288e-002 -1.35688902470929e+001 5.77996558566130e-002 -1.05113578582349e+001 1.19957901420427e-001 -1.27368122247209e+001 1.71997998307954e-001 -9.93885354319586e+000
          2.91733587781466e-001 -1.13189719961567e+001 4.58289232806115e-001 -8.01261591211096e+000 7.49313169413010e-001 -9.24533024287084e+000 2.10968851326591e-001 -2.03631110673774e+001
          1.84402549833715e-001 -1.09500498469050e+002
          1.11811526261253e-002 -7.06971916338114e+001 7.72640730560111e-003 -1.08999417797004e+002 1.91749137005192e-002 -8.72139793704647e+001 2.45839883090420e-002 -1.12786982471493e+002
          4.46636616782580e-002 -1.01518824684349e+002 6.82596204977413e-002 -1.10970746934065e+002 1.16639626122409e-001 -1.06838042388760e+002 1.84402549833716e-001 -1.09500498469050e+002
          9.54580295437839e-001 -1.86379646860792e+001
         
6.80000000000000e-001 2.51399906164687e-001 1.51027477384630e+002 7.61625599837758e-001 -5.69900677991080e+000 4.66599968631936e-001 1.71813192090893e+002 2.93107522844147e-001 -8.51134988298988e+000
          1.74307502652979e-001 1.71697925006527e+002 1.18502282930646e-001 -1.01615524285120e+001 5.65049232025483e-002 1.75621801756352e+002 6.23328253404007e-002 -1.38474133755901e+001
          1.14969006125354e-002 -7.09202479967983e+001
          7.61625599837758e-001 -5.69900677991084e+000 2.42718078002442e-001 1.60375853137909e+002 4.70451072880996e-001 1.76818136471246e+002 2.94264249097891e-001 -2.42383567795526e+000
          1.76416255080694e-001 1.74898205701242e+002 1.17092209491589e-001 -5.91324691348747e+000 5.94247432543982e-002 1.76518332886751e+002 5.77448502255224e-002 -1.06881478964138e+001
          7.88255597794430e-003 -1.09517290592622e+002
          4.66599968631936e-001 1.71813192090893e+002 4.70451072880996e-001 1.76818136471246e+002 1.00504422360988e-001 4.69778650308200e+001 5.86260645696917e-001 -5.33845681154643e+000
          3.50099903565498e-001 1.73628273081039e+002 2.35293027646443e-001 -8.22185282772994e+000 1.15808718771208e-001 1.76398930873521e+002 1.20001152258716e-001 -1.29722022330772e+001
          1.96128244607627e-002 -8.74126713875471e+001
          2.93107522844147e-001 -8.51134988298988e+000 2.94264249097891e-001 -2.42383567795524e+000 5.86260645696917e-001 -5.33845681154657e+000 1.28283224646839e-001 1.52885997392218e+002
          5.29883252770640e-001 1.77217052905472e+002 3.50754297314076e-001 -3.30914817098406e+000 1.79172997418581e-001 1.77616120301738e+002 1.71797080920047e-001 -1.01005807710222e+001
          2.50590700262262e-002 -1.13322769515450e+002
          1.74307502652979e-001 1.71697925006527e+002 1.76416255080694e-001 1.74898205701242e+002 3.50099903565498e-001 1.73628273081039e+002 5.29883252770640e-001 1.77217052905472e+002
          1.30370814185589e-001 1.99157361116392e+001 5.85324908499709e-001 -5.11422105418108e+000 2.94848342169073e-001 1.77697854655886e+002 2.91577857261329e-001 -1.15128997545695e+001
          4.55318025926979e-002 -1.01857496179489e+002
          1.18502282930646e-001 -1.01615524285121e+001 1.17092209491589e-001 -5.91324691348764e+000 2.35293027646443e-001 -8.22185282772985e+000 3.50754297314075e-001 -3.30914817098380e+000
          5.85324908499709e-001 -5.11422105418108e+000 6.91644622580667e-002 1.54830813130700e+002 4.78632437328202e-001 -1.79848570162814e+002 4.57754508917546e-001 -8.14412590628795e+000
          6.95479139227618e-002 -1.11460670623862e+002
          5.65049232025482e-002 1.75621801756352e+002 5.94247432543981e-002 1.76518332886751e+002 1.15808718771208e-001 1.76398930873521e+002 1.79172997418581e-001 1.77616120301738e+002
          2.94848342169073e-001 1.77697854655886e+002 4.78632437328203e-001 -1.79848570162814e+002 2.26567731520996e-001 -2.58077898175398e+000 7.48610437965272e-001 -9.39963055306851e+000
          1.18805583702640e-001 -1.07249924682936e+002
          6.23328253404007e-002 -1.38474133755902e+001 5.77448502255223e-002 -1.06881478964137e+001 1.20001152258716e-001 -1.29722022330773e+001 1.71797080920047e-001 -1.01005807710223e+001
          2.91577857261329e-001 -1.15128997545695e+001 4.57754508917546e-001 -8.14412590628803e+000 7.48610437965271e-001 -9.39963055306848e+000 2.09890735836648e-001 -2.08089928948051e+001
          1.87828879784761e-001 -1.09959108783999e+002
          1.14969006125354e-002 -7.09202479967981e+001 7.88255597794428e-003 -1.09517290592622e+002 1.96128244607626e-002 -8.74126713875471e+001 2.50590700262261e-002 -1.13322769515450e+002
          4.55318025926979e-002 -1.01857496179489e+002 6.95479139227618e-002 -1.11460670623862e+002 1.18805583702640e-001 -1.07249924682936e+002 1.87828879784761e-001 -1.09959108783999e+002
          9.52368283982835e-001 -1.89892292208141e+001
         
6.90000000000000e-001 2.51868017133402e-001 1.50631706453946e+002 7.61547310805669e-001 -5.78285938486732e+000 4.66484568735693e-001 1.71693855135992e+002 2.93078079642134e-001 -8.63907196557362e+000
          1.74245835211334e-001 1.71582460727066e+002 1.18520928457827e-001 -1.03284708768629e+001 5.64505844006567e-002 1.75617414744469e+002 6.24242239637724e-002 -1.41303324860380e+001
          1.18186046835053e-002 -7.11676767744554e+001
          7.61547310805669e-001 -5.78285938486732e+000 2.42950445885356e-001 1.60098515712889e+002 4.70454301791379e-001 1.76771769034132e+002 2.94267119813019e-001 -2.46016199468318e+000
          1.76422477463417e-001 1.74825283122337e+002 1.17065838676414e-001 -6.00298556596273e+000 5.94598189651690e-002 1.76476644954760e+002 5.76871563282487e-002 -1.08649301785469e+001
          8.03974518269500e-003 -1.10051589294831e+002
          4.66484568735693e-001 1.71693855135992e+002 4.70454301791379e-001 1.76771769034132e+002 1.01460152703732e-001 4.72653408666214e+001 5.86202538538286e-001 -5.41823192567067e+000
          3.50024489476616e-001 1.73538773052187e+002 2.35279656063387e-001 -8.35230283237585e+000 1.15780395353752e-001 1.76377408656263e+002 1.20041408466000e-001 -1.32098610892106e+001
          2.00569737807007e-002 -8.76277468685714e+001
          2.93078079642134e-001 -8.63907196557373e+000 2.94267119813019e-001 -2.46016199468328e+000 5.86202538538286e-001 -5.41823192567055e+000 1.28603895786958e-001 1.52531552553445e+002
          5.29920999465355e-001 1.77177542887793e+002 3.50663028635657e-001 -3.35851389834708e+000 1.79301150833919e-001 1.77585373297638e+002 1.71587727679512e-001 -1.02619579493715e+001
          2.55368112793139e-002 -1.13872447565421e+002
          1.74245835211333e-001 1.71582460727065e+002 1.76422477463417e-001 1.74825283122337e+002 3.50024489476616e-001 1.73538773052186e+002 5.29920999465356e-001 1.77177542887793e+002
          1.30687057168644e-001 2.01494104838960e+001 5.85201824204043e-001 -5.19338123339718e+000 2.94938164614521e-001 1.77677530122781e+002 2.91411539167082e-001 -1.17075491620008e+001
          4.64062910931522e-002 -1.02208311615096e+002
          1.18520928457827e-001 -1.03284708768634e+001 1.17065838676414e-001 -6.00298556596327e+000 2.35279656063387e-001 -8.35230283237636e+000 3.50663028635657e-001 -3.35851389834750e+000
          5.85201824204042e-001 -5.19338123339708e+000 6.95258354730037e-002 1.54578291982612e+002 4.78991934029345e-001 -1.79843555090896e+002 4.57198359253069e-001 -8.27526761268677e+000
          7.08426119088911e-002 -1.11963138301882e+002
