! IGNION VIRTUAL ANTENNA LIBRARY
!
! NN_RUN_B70x55_C55x11
! Virtual Antenna™ RUN mXTEND™: NN02-224 12.0 mm x 3.0 mm x 2.4 mm
! https://ignion.io/product/run-mxtend/
! Board: 70 mm x 55 mm
! Clearance Area: 55 mm x 11 mm
! Feeding line: L-shape; 11mm x 2mm and 5mm x 2mm
! Applications: Fleet management, IoT
! Frequency range 0.65GHz to 6GHz, step 10MHz
! Number of ports 9
!
! This product and its use is protected by at least one or more of the following patents and patent
! applications US 8,203,492 B2; US 8,237,615 B2; PCT/EP2013/064692; WO 2014/012842 A1; US 2019/190122 A1;
! US 62/072,671; and other domestic and international patents pending. Additional information about
! patents related to this product is available at https://ignion.io/files/Patent-list-NN.pdf, all
! rights reserved. Copyright, Ignion 2021.
!
! Need more help? Your platform is much different than these examples in the manual? Use our 
! Fast Track service (https://ignion.io/fast-track/), for free, and get a personalized antenna design in
! just 24 hours.
!
!
! Touchstone port 1 = "Series Port"
! Touchstone port 2 = "Shunt Port"
! Touchstone port 3 = "Series Port"
! Touchstone port 4 = "Shunt Port"
! Touchstone port 5 = "Series Port"
! Touchstone port 6 = "Shunt Port"
! Touchstone port 7 = "Series Port"
! Touchstone port 8 = "Shunt Port"
! Touchstone port 9 = "Series Port"
!
! IE3D S-Parameters Output Version 2.0  
# GHZ S MA R 50
! Nport = 9
!

 6.5000000000e-001  2.4890085689e-001 1.5319835542e+002  7.6208934496e-001 -5.1919781779e+000  4.6711243101e-001 1.7232030489e+002  2.9323534238e-001 -7.9284447058e+000
          1.7458488540e-001 1.7212118553e+002  1.1840596197e-001 -9.4139587389e+000  5.6750653722e-002 1.7537913575e+002  6.1893015345e-002 -1.2403884174e+001
          9.6719296241e-003 -6.8724131209e+001
          7.6208934496e-001 -5.1919781779e+000  2.4161048461e-001 1.6175054416e+002  4.7029812709e-001 1.7685372219e+002  2.9422924061e-001 -2.4198531083e+000
          1.7630225109e-001 1.7502520695e+002  1.1729000755e-001 -5.6817011733e+000  5.9117292810e-002 1.7646949083e+002  5.8235601317e-002 -9.9531738330e+000
          6.9737486383e-003 -1.0429474340e+002
          4.6711243101e-001 1.7232030489e+002  4.7029812709e-001 1.7685372219e+002  9.7398434428e-002 4.6010737009e+001  5.8649302898e-001 -5.0654670239e+000
          3.5033751225e-001 1.7388752733e+002  2.3538529868e-001 -7.7549968297e+000  1.1582488740e-001 1.7629644734e+002  1.1994907779e-001 -1.1958712578e+001
          1.7396201191e-002 -8.5619695252e+001
          2.9323534238e-001 -7.9284447058e+000  2.9422924061e-001 -2.4198531083e+000  5.8649302898e-001 -5.0654670239e+000  1.2721424515e-001 1.5397643314e+002
          5.2961704638e-001 1.7731234791e+002  3.5131656465e-001 -3.1360136987e+000  1.7836799786e-001 1.7760279766e+002  1.7309487620e-001 -9.4225634964e+000
          2.2529393133e-002 -1.0951021075e+002
          1.7458488540e-001 1.7212118553e+002  1.7630225109e-001 1.7502520695e+002  3.5033751225e-001 1.7388752733e+002  5.2961704638e-001 1.7731234791e+002
          1.2964748695e-001 1.9278151463e+001  5.8599798591e-001 -4.8387108744e+000  2.9414279519e-001 1.7765089293e+002  2.9272672098e-001 -1.0728070966e+001
          4.1340338005e-002 -9.9378597041e+001
          1.1840596197e-001 -9.4139587389e+000  1.1729000755e-001 -5.6817011733e+000  2.3538529868e-001 -7.7549968297e+000  3.5131656465e-001 -3.1360136987e+000
          5.8599798591e-001 -4.8387108744e+000  6.7635372697e-002 1.5501656467e+002  4.7657230888e-001 -1.7995141161e+002  4.6098490000e-001 -7.5799782101e+000
          6.3114781013e-002 -1.0814426177e+002
          5.6750653722e-002 1.7537913575e+002  5.9117292810e-002 1.7646949083e+002  1.1582488740e-001 1.7629644734e+002  1.7836799786e-001 1.7760279766e+002
          2.9414279519e-001 1.7765089293e+002  4.7657230888e-001 -1.7995141161e+002  2.2919717532e-001 -2.0883110245e+000  7.5292955593e-001 -8.7687834561e+000
          1.0853610327e-001 -1.0443063689e+002
          6.1893015345e-002 -1.2403884174e+001  5.8235601317e-002 -9.9531738330e+000  1.1994907779e-001 -1.1958712578e+001  1.7309487620e-001 -9.4225634964e+000
          2.9272672098e-001 -1.0728070966e+001  4.6098490000e-001 -7.5799782101e+000  7.5292955593e-001 -8.7687834561e+000  2.1641235583e-001 -1.8397639637e+001
          1.7128110273e-001 -1.0686336112e+002
          9.6719296241e-003 -6.8724131209e+001  6.9737486383e-003 -1.0429474340e+002  1.7396201191e-002 -8.5619695252e+001  2.2529393133e-002 -1.0951021075e+002
          4.1340338005e-002 -9.9378597041e+001  6.3114781013e-002 -1.0814426177e+002  1.0853610327e-001 -1.0443063689e+002  1.7128110273e-001 -1.0686336112e+002
          9.6685207736e-001 -1.7353638038e+001
 6.6000000000e-001  2.4932306377e-001 1.5281090429e+002  7.6202364645e-001 -5.2717920951e+000  4.6700857804e-001 1.7220261262e+002  2.9321249161e-001 -8.0518767517e+000
          1.7452616406e-001 1.7200354002e+002  1.1843091123e-001 -9.5693147496e+000  5.6687605743e-002 1.7534508891e+002  6.1992112905e-002 -1.2641555945e+001
          9.9356095085e-003 -6.8727842436e+001
          7.6202364645e-001 -5.2717920951e+000  2.4181986441e-001 1.6147928184e+002  4.7029428176e-001 1.7680559446e+002  2.9423417408e-001 -2.4578515829e+000
          1.7630041813e-001 1.7495050261e+002  1.1727619265e-001 -5.7725110409e+000  5.9132693737e-002 1.7642624282e+002  5.8209642300e-002 -1.0125819030e+001
          7.1144490919e-003 -1.0459422976e+002
          4.6700857804e-001 1.7220261262e+002  4.7029428176e-001 1.7680559446e+002  9.8339885831e-002 4.6324766743e+001  5.8644528127e-001 -5.1442478881e+000
          3.5025993634e-001 1.7379620522e+002  2.3538729776e-001 -7.8808954437e+000  1.1577539058e-001 1.7626174357e+002  1.2001826085e-001 -1.2173940889e+001
          1.7781346353e-002 -8.5668722705e+001
          2.9321249161e-001 -8.0518767517e+000  2.9423417408e-001 -2.4578515829e+000  5.8644528127e-001 -5.1442478881e+000  1.2751137106e-001 1.5361657117e+002
          5.2963601300e-001 1.7727236871e+002  3.5125764556e-001 -3.1860748760e+000  1.7844761345e-001 1.7757274304e+002  1.7296507107e-001 -9.5820795245e+000
          2.2964786002e-002 -1.0987821141e+002
          1.7452616406e-001 1.7200354002e+002  1.7630041813e-001 1.7495050261e+002  3.5025993634e-001 1.7379620522e+002  5.2963601300e-001 1.7727236871e+002
          1.2997763658e-001 1.9517586821e+001  5.8591928139e-001 -4.9166984435e+000  2.9417065900e-001 1.7762680658e+002  2.9265777011e-001 -1.0913685211e+001
          4.2140549674e-002 -9.9586775498e+001
          1.1843091123e-001 -9.5693147496e+000  1.1727619265e-001 -5.7725110409e+000  2.3538729776e-001 -7.8808954437e+000  3.5125764556e-001 -3.1860748760e+000
          5.8591928139e-001 -4.9166984435e+000  6.7920730223e-002 1.5473985878e+002  4.7681348701e-001 -1.7994517191e+002  4.6062195494e-001 -7.7099445517e+000
          6.4312273339e-002 -1.0848750814e+002
          5.6687605743e-002 1.7534508891e+002  5.9132693737e-002 1.7642624282e+002  1.1577539058e-001 1.7626174357e+002  1.7844761345e-001 1.7757274304e+002
          2.9417065900e-001 1.7762680658e+002  4.7681348701e-001 -1.7994517191e+002  2.2893188627e-001 -2.1479046298e+000  7.5247472326e-001 -8.9194717707e+000
          1.1056713344e-001 -1.0471310983e+002
          6.1992112905e-002 -1.2641555945e+001  5.8209642300e-002 -1.0125819030e+001  1.2001826085e-001 -1.2173940889e+001  1.7296507107e-001 -9.5820795245e+000
          2.9265777011e-001 -1.0913685211e+001  4.6062195494e-001 -7.7099445517e+000  7.5247472326e-001 -8.9194717707e+000  2.1571248188e-001 -1.8796806237e+001
          1.7449190354e-001 -1.0718496577e+002
          9.9356095085e-003 -6.8727842436e+001  7.1144490919e-003 -1.0459422976e+002  1.7781346353e-002 -8.5668722705e+001  2.2964786002e-002 -1.0987821141e+002
          4.2140549674e-002 -9.9586775498e+001  6.4312273339e-002 -1.0848750814e+002  1.1056713344e-001 -1.0471310983e+002  1.7449190354e-001 -1.0718496577e+002
          9.6555822937e-001 -1.7682450513e+001
 6.7000000000e-001  2.4975059000e-001 1.5242447927e+002  7.6195696996e-001 -5.3516061787e+000  4.6690299130e-001 1.7208495272e+002  2.9318924068e-001 -8.1753956569e+000
          1.7446646854e-001 1.7188611901e+002  1.1845614137e-001 -9.7252760949e+000  5.6623862000e-002 1.7531324107e+002  6.2092751986e-002 -1.2881850817e+001
          1.0204747482e-002 -6.8743258748e+001
          7.6195696996e-001 -5.3516061787e+000  2.4203220756e-001 1.6120843448e+002  4.7029042851e-001 1.7675748396e+002  2.9423904629e-001 -2.4958828823e+000
          1.7629872088e-001 1.7487589110e+002  1.1726185568e-001 -5.8634738931e+000  5.9148818972e-002 1.7638349347e+002  5.8182597715e-002 -1.0299424106e+001
          7.2568656274e-003 -1.0489901770e+002
          4.6690299130e-001 1.7208495272e+002  4.7029042851e-001 1.7675748396e+002  9.9286009804e-002 4.6630586668e+001  5.8639663129e-001 -5.2230760487e+000
          3.5018126504e-001 1.7370503965e+002  2.3538894429e-001 -8.0071538451e+000  1.1572583321e-001 1.7622826156e+002  1.2008794808e-001 -1.2390887984e+001
          1.8172472291e-002 -8.5724319751e+001
          2.9318924068e-001 -8.1753956569e+000  2.9423904629e-001 -2.4958828823e+000  5.8639663129e-001 -5.2230760487e+000  1.2781251358e-001 1.5325835250e+002
          5.2965584481e-001 1.7723245171e+002  3.5119687254e-001 -3.2361934257e+000  1.7852994250e-001 1.7754293329e+002  1.7283107915e-001 -9.7422451401e+000
          2.3404691022e-002 -1.1025091448e+002
          1.7446646854e-001 1.7188611901e+002  1.7629872088e-001 1.7487589110e+002  3.5018126504e-001 1.7370503965e+002  5.2965584481e-001 1.7723245171e+002
          1.3031058111e-001 1.9754870407e+001  5.8583804262e-001 -4.9948548804e+000  2.9420107883e-001 1.7760329193e+002  2.9258510612e-001 -1.1100351111e+001
          4.2949105249e-002 -9.9799411344e+001
          1.1845614137e-001 -9.7252760949e+000  1.1726185568e-001 -5.8634738931e+000  2.3538894429e-001 -8.0071538451e+000  3.5119687254e-001 -3.2361934257e+000
          5.8583804262e-001 -4.9948548804e+000  6.8211346380e-002 1.5446739789e+002  4.7706226789e-001 -1.7993876146e+002  4.6024766586e-001 -7.8404891023e+000
          6.5521178291e-002 -1.0883524147e+002
          5.6623862000e-002 1.7531324107e+002  5.9148818972e-002 1.7638349347e+002  1.1572583321e-001 1.7622826156e+002  1.7852994250e-001 1.7754293329e+002
          2.9420107883e-001 1.7760329193e+002  4.7706226789e-001 -1.7993876146e+002  2.2865684436e-001 -2.2087182501e+000  7.5200457177e-001 -9.0709023506e+000
          1.1261625547e-001 -1.0499986253e+002
          6.2092751986e-002 -1.2881850817e+001  5.8182597715e-002 -1.0299424106e+001  1.2008794808e-001 -1.2390887984e+001  1.7283107915e-001 -9.7422451401e+000
          2.9258510612e-001 -1.1100351111e+001  4.6024766586e-001 -7.8404891023e+000  7.5200457177e-001 -9.0709023506e+000  2.1499251136e-001 -1.9202491225e+001
          1.7773153700e-001 -1.0751094359e+002
          1.0204747482e-002 -6.8743258748e+001  7.2568656274e-003 -1.0489901770e+002  1.8172472291e-002 -8.5724319751e+001  2.3404691022e-002 -1.1025091448e+002
          4.2949105249e-002 -9.9799411344e+001  6.5521178291e-002 -1.0883524147e+002  1.1261625547e-001 -1.0499986253e+002  1.7773153700e-001 -1.0751094359e+002
          9.6421962618e-001 -1.8014515935e+001
 6.8000000000e-001  2.5018338723e-001 1.5203908867e+002  7.6188931430e-001 -5.4314206906e+000  4.6679566382e-001 1.7196732684e+002  2.9316558196e-001 -8.2990044066e+000
          1.7440580030e-001 1.7176893142e+002  1.1848163638e-001 -9.8818622915e+000  5.6559457921e-002 1.7528366770e+002  6.2194913544e-002 -1.3124849208e+001
          1.0479448457e-002 -6.8770427379e+001
          7.6188931430e-001 -5.4314206906e+000  2.4224750572e-001 1.6093800697e+002  4.7028657168e-001 1.7670939129e+002  2.9424384842e-001 -2.5339470943e+000
          1.7629717104e-001 1.7480137416e+002  1.1724697610e-001 -5.9545906291e+000  5.9165701104e-002 1.7634124570e+002  5.8154420236e-002 -1.0474004518e+001
          7.4010354432e-003 -1.0520926606e+002
          4.6679566382e-001 1.7196732684e+002  4.7028657168e-001 1.7670939129e+002  1.0023663652e-001 4.6928385165e+001  5.8634706352e-001 -5.3019528071e+000
          3.5010151099e-001 1.7361403568e+002  2.3539020406e-001 -8.1337818403e+000  1.1567627628e-001 1.7619603447e+002  1.2015808086e-001 -1.2609603062e+001
          1.8569710893e-002 -8.5786638163e+001
          2.9316558196e-001 -8.2990044066e+000  2.9424384842e-001 -2.5339470943e+000  5.8634706352e-001 -5.3019528071e+000  1.2811766270e-001 1.5290178784e+002
          5.2967657922e-001 1.7719259735e+002  3.5113418748e-001 -3.2863667544e+000  1.7861507751e-001 1.7751336252e+002  1.7269275839e-001 -9.9030632685e+000
          2.3849200894e-002 -1.1062846496e+002
          1.7440580030e-001 1.7176893142e+002  1.7629717104e-001 1.7480137416e+002  3.5010151099e-001 1.7361403568e+002  5.2967657922e-001 1.7719259735e+002
          1.3064621262e-001 1.9990003036e+001  5.8575417844e-001 -5.0731823199e+000  2.9423420080e-001 1.7758035598e+002  2.9250853557e-001 -1.1288090600e+001
          4.3766178124e-002 -1.0001664136e+002
          1.1848163638e-001 -9.8818622915e+000  1.1724697610e-001 -5.9545906291e+000  2.3539020406e-001 -8.1337818403e+000  3.5113418748e-001 -3.2863667544e+000
          5.8575417844e-001 -5.0731823199e+000  6.8507327345e-002 1.5419919417e+002  4.7731888903e-001 -1.7993218824e+002  4.5986166352e-001 -7.9716123103e+000
          6.6741720627e-002 -1.0918760006e+002
          5.6559457921e-002 1.7528366770e+002  5.9165701104e-002 1.7634124570e+002  1.1567627628e-001 1.7619603447e+002  1.7861507751e-001 1.7751336252e+002
          2.9423420080e-001 1.7758035598e+002  4.7731888903e-001 -1.7993218824e+002  2.2837168760e-001 -2.2707573633e+000  7.5151854672e-001 -9.2230835254e+000
          1.1468381484e-001 -1.0529102716e+002
          6.2194913544e-002 -1.3124849208e+001  5.8154420236e-002 -1.0474004518e+001  1.2015808086e-001 -1.2609603062e+001  1.7269275839e-001 -9.9030632685e+000
          2.9250853557e-001 -1.1288090600e+001  4.5986166352e-001 -7.9716123103e+000  7.5151854672e-001 -9.2230835254e+000  2.1425183156e-001 -1.9614896293e+001
          1.8100055266e-001 -1.0784142922e+002
          1.0479448457e-002 -6.8770427379e+001  7.4010354432e-003 -1.0520926606e+002  1.8569710893e-002 -8.5786638163e+001  2.3849200894e-002 -1.1062846496e+002
          4.3766178124e-002 -1.0001664136e+002  6.6741720627e-002 -1.0918760006e+002  1.1468381484e-001 -1.0529102716e+002  1.8100055266e-001 -1.0784142922e+002
          9.6283452239e-001 -1.8349912922e+001
 6.9000000000e-001  2.5062140648e-001 1.5165474062e+002  7.6182067805e-001 -5.5112359057e+000  4.6668658864e-001 1.7184973670e+002  2.9314150714e-001 -8.4227060668e+000
          1.7434416146e-001 1.7165198653e+002  1.1850737873e-001 -1.0039093381e+001  5.6494432038e-002 1.7525644636e+002  6.2298575910e-002 -1.3370633693e+001
          1.0759818304e-002 -6.8809400088e+001
          7.6182067805e-001 -5.5112359057e+000  2.4246575053e-001 1.6066800413e+002  4.7028271594e-001 1.7666131707e+002  2.9424857132e-001 -2.5720442565e+000
          1.7629578085e-001 1.7472695354e+002  1.1723153254e-001 -6.0458619096e+000  5.9183374056e-002 1.7629950164e+002  5.8125060458e-002 -1.0649575124e+001
          7.5469957558e-003 -1.0552513784e+002
          4.6668658864e-001 1.7184973670e+002  4.7028271594e-001 1.7666131707e+002  1.0119160023e-001 4.7218346660e+001  5.8629656148e-001 -5.3808794778e+000
          3.5002068798e-001 1.7352319851e+002  2.3539104070e-001 -8.2607893863e+000  1.1562678461e-001 1.7616509588e+002  1.2022859623e-001 -1.2830136382e+001
          1.8973194972e-002 -8.5855833204e+001
          2.9314150714e-001 -8.4227060668e+000  2.9424857132e-001 -2.5720442565e+000  5.8629656148e-001 -5.3808794778e+000  1.2842680925e-001 1.5254688736e+002
          5.2969825511e-001 1.7715280595e+002  3.5106953046e-001 -3.3365919116e+000  1.7870311409e-001 1.7748402380e+002  1.7254996141e-001 -1.0064535712e+001
          2.4298407903e-002 -1.1101101176e+002
          1.7434416146e-001 1.7165198653e+002  1.7629578085e-001 1.7472695354e+002  3.5002068798e-001 1.7352319851e+002  5.2969825511e-001 1.7715280595e+002
          1.3098442111e-001 2.0222987004e+001  5.8566759377e-001 -5.1516827411e+000  2.9427017731e-001 1.7755800519e+002  2.9242785573e-001 -1.1476925479e+001
          4.4591941298e-002 -1.0023860610e+002
          1.1850737873e-001 -1.0039093381e+001  1.1723153254e-001 -6.0458619096e+000  2.3539104070e-001 -8.2607893863e+000  3.5106953046e-001 -3.3365919116e+000
          5.8566759377e-001 -5.1516827411e+000  6.8808786156e-002 1.5393525662e+002  4.7758359544e-001 -1.7992546128e+002  4.5946356516e-001 -8.1033134278e+000
          6.7974123245e-002 -1.0954472597e+002
          5.6494432038e-002 1.7525644636e+002  5.9183374056e-002 1.7629950164e+002  1.1562678461e-001 1.7616509588e+002  1.7870311409e-001 1.7748402380e+002
          2.9427017731e-001 1.7755800519e+002  4.7758359544e-001 -1.7992546128e+002  2.2807604074e-001 -2.3340253960e+000  7.5101607106e-001 -9.3760228469e+000
          1.1677015324e-001 -1.0558673951e+002
          6.2298575910e-002 -1.3370633693e+001  5.8125060458e-002 -1.0649575124e+001  1.2022859623e-001 -1.2830136382e+001  1.7254996141e-001 -1.0064535712e+001
          2.9242785573e-001 -1.1476925479e+001  4.5946356516e-001 -8.1033134278e+000  7.5101607106e-001 -9.3760228469e+000  2.1348980597e-001 -2.0034229137e+001
          1.8429949379e-001 -1.0817656098e+002
          1.0759818304e-002 -6.8809400088e+001  7.5469957558e-003 -1.0552513784e+002  1.8973194972e-002 -8.5855833204e+001  2.4298407903e-002 -1.1101101176e+002
          4.4591941298e-002 -1.0023860610e+002  6.7974123245e-002 -1.0954472597e+002  1.1677015324e-001 -1.0558673951e+002  1.8429949379e-001 -1.0817656098e+002
          9.6140109455e-001 -1.8688720843e+001
 7.0000000000e-001  2.5106459815e-001 1.5127144305e+002  7.6175105957e-001 -5.5910521132e+000  4.6657575882e-001 1.7173218411e+002  2.9311700721e-001 -8.5465037834e+000
          1.7428155488e-001 1.7153529395e+002  1.1853334930e-001 -1.0196989930e+001  5.6428826206e-002 1.7523165665e+002  6.2403714582e-002 -1.3619289038e+001
          1.1045963763e-002 -6.8860233369e+001
          7.6175105957e-001 -5.5910521132e+000  2.4268693368e-001 1.6039843073e+002  4.7027886631e-001 1.7661326193e+002  2.9425320553e-001 -2.6101743526e+000
          1.7629456316e-001 1.7465263092e+002  1.1721550282e-001 -6.1372881324e+000  5.9201873115e-002 1.7625826258e+002  5.8094466823e-002 -1.0826150090e+001
          7.6947837305e-003 -1.0584680029e+002
          4.6657575882e-001 1.7173218411e+002  4.7027886631e-001 1.7661326193e+002  1.0215073905e-001 4.7500651629e+001  5.8624510775e-001 -5.4598573866e+000
          3.4993881104e-001 1.7343253348e+002  2.3539141554e-001 -8.3881865821e+000  1.1557742709e-001 1.7613547975e+002  1.2029942665e-001 -1.3052539249e+001
          1.9383058122e-002 -8.5932063721e+001
          2.9311700721e-001 -8.5465037834e+000  2.9425320553e-001 -2.6101743526e+000  5.8624510775e-001 -5.4598573866e+000  1.2873994497e-001 1.5219366068e+002
          5.2972091297e-001 1.7711307775e+002  3.5100283967e-001 -3.3868655625e+000  1.7879415104e-001 1.7745490912e+002  1.7240253526e-001 -1.0226663035e+001
          2.4752403698e-002 -1.1139870787e+002
          1.7428155488e-001 1.7153529395e+002  1.7629456316e-001 1.7465263092e+002  3.4993881104e-001 1.7343253348e+002  5.2972091297e-001 1.7711307775e+002
          1.3132509446e-001 2.0453826133e+001  5.8557818953e-001 -5.2303579482e+000  2.9430916734e-001 1.7753624539e+002  2.9234285414e-001 -1.1666877354e+001
          4.5426567009e-002 -1.0046544998e+002
