! IGNION VIRTUAL ANTENNA LIBRARY
!
! NN_RUN_B50x55_C55x11
! Virtual Antenna™ RUN mXTEND™: NN02-224 12.0 mm x 3.0 mm x 2.4 mm
! https://ignion.io/product/run-mxtend/
! Board: 50 mm x 55 mm
! Clearance Area: 55 mm x 11 mm
! Feeding line: L-shape; 11mm x 2mm and 5mm x 2mm
! Applications: Fleet management, IoT
! Frequency range 0.65GHz to 6GHz, step 10MHz
! Number of ports 9
!
! This product and its use is protected by at least one or more of the following patents and patent
! applications US 8,203,492 B2; US 8,237,615 B2; PCT/EP2013/064692; WO 2014/012842 A1; US 2019/190122 A1;
! US 62/072,671; and other domestic and international patents pending. Additional information about
! patents related to this product is available at https://ignion.io/files/Patent-list-NN.pdf, all
! rights reserved. Copyright, Ignion 2021.
!
! Need more help? Your platform is much different than these examples in the manual? Use our 
! Fast Track service (https://ignion.io/fast-track/), for free, and get a personalized antenna design in
! just 24 hours.
!
!
! Touchstone port 1 = "Series Port"
! Touchstone port 2 = "Shunt Port"
! Touchstone port 3 = "Series Port"
! Touchstone port 4 = "Shunt Port"
! Touchstone port 5 = "Series Port"
! Touchstone port 6 = "Shunt Port"
! Touchstone port 7 = "Series Port"
! Touchstone port 8 = "Shunt Port"
! Touchstone port 9 = "Series Port"
!
! IE3D S-Parameters Output Version 2.0  
# GHZ S MA R 50
! Nport = 9
!

 6.5000000000e-001  2.4986311863e-001 1.5240646914e+002  7.6190202147e-001 -5.3957501423e+000  4.6702762883e-001 1.7218635515e+002  2.9319031622e-001 -8.0784818495e+000
          1.7456441960e-001 1.7200962049e+002  1.1839996682e-001 -9.4882034532e+000  5.6735720188e-002 1.7519291145e+002  6.1892755381e-002 -1.2270463104e+001
          9.3976682538e-003 -6.7696483222e+001
          7.6190202147e-001 -5.3957501423e+000  2.4192141937e-001 1.6134277000e+002  4.7041072931e-001 1.7694174714e+002  2.9430706185e-001 -2.3131584464e+000
          1.7632943545e-001 1.7507721321e+002  1.1731222601e-001 -5.5732260565e+000  5.9111898248e-002 1.7641136079e+002  5.8242708307e-002 -9.7402989128e+000
          6.7018764891e-003 -1.0438475588e+002
          4.6702762883e-001 1.7218635515e+002  4.7041072931e-001 1.7694174714e+002  9.7589359272e-002 4.6084849918e+001  5.8647132756e-001 -5.0761751328e+000
          3.5034211902e-001 1.7387184774e+002  2.3538723169e-001 -7.7327126813e+000  1.1581671723e-001 1.7621128149e+002  1.1994074786e-001 -1.1810869291e+001
          1.6942619188e-002 -8.5246809022e+001
          2.9319031622e-001 -8.0784818495e+000  2.9430706185e-001 -2.3131584464e+000  5.8647132756e-001 -5.0761751328e+000  1.2722981345e-001 1.5389167352e+002
          5.2958325237e-001 1.7730537738e+002  3.5141947651e-001 -3.1090088126e+000  1.7823180386e-001 1.7753411164e+002  1.7329975905e-001 -9.2968309492e+000
          2.1893645311e-002 -1.0898086540e+002
          1.7456441960e-001 1.7200962049e+002  1.7632943545e-001 1.7507721321e+002  3.5034211902e-001 1.7387184774e+002  5.2958325237e-001 1.7730537738e+002
          1.2972450351e-001 1.9326432723e+001  5.8609378573e-001 -4.8167337844e+000  2.9400930507e-001 1.7758792567e+002  2.9290660026e-001 -1.0611677630e+001
          4.0442080133e-002 -9.8974024287e+001
          1.1839996682e-001 -9.4882034532e+000  1.1731222601e-001 -5.5732260565e+000  2.3538723169e-001 -7.7327126813e+000  3.5141947651e-001 -3.1090088126e+000
          5.8609378573e-001 -4.8167337844e+000  6.7527711870e-002 1.5467704711e+002  4.7620373524e-001 1.7998937230e+002  4.6154052194e-001 -7.4717878332e+000
          6.1622274278e-002 -1.0760630586e+002
          5.6735720188e-002 1.7519291145e+002  5.9111898248e-002 1.7641136079e+002  1.1581671723e-001 1.7621128149e+002  1.7823180386e-001 1.7753411164e+002
          2.9400930507e-001 1.7758792567e+002  4.7620373524e-001 1.7998937230e+002  2.2966814967e-001 -1.8976946595e+000  7.5364769374e-001 -8.6650386436e+000
          1.0633379635e-001 -1.0396277236e+002
          6.1892755381e-002 -1.2270463104e+001  5.8242708307e-002 -9.7402989128e+000  1.1994074786e-001 -1.1810869291e+001  1.7329975905e-001 -9.2968309492e+000
          2.9290660026e-001 -1.0611677630e+001  4.6154052194e-001 -7.4717878332e+000  7.5364769374e-001 -8.6650386436e+000  2.1737736858e-001 -1.7772945544e+001
          1.6760806171e-001 -1.0634370091e+002
          9.3976682538e-003 -6.7696483222e+001  6.7018764891e-003 -1.0438475588e+002  1.6942619188e-002 -8.5246809022e+001  2.1893645311e-002 -1.0898086540e+002
          4.0442080133e-002 -9.8974024287e+001  6.1622274278e-002 -1.0760630586e+002  1.0633379635e-001 -1.0396277236e+002  1.6760806171e-001 -1.0634370091e+002
          9.6909771124e-001 -1.7013213839e+001
 6.6000000000e-001  2.5031253498e-001 1.5200903392e+002  7.6182992956e-001 -5.4786412502e+000  4.6692106967e-001 1.7206653723e+002  2.9316600581e-001 -8.2040158096e+000
          1.7450500408e-001 1.7188981315e+002  1.1842495109e-001 -9.6435813858e+000  5.6671551453e-002 1.7515246348e+002  6.1992075531e-002 -1.2501093087e+001
          9.6506588968e-003 -6.7675880382e+001
          7.6182992956e-001 -5.4786412502e+000  2.4213953930e-001 1.6106578530e+002  4.7041049436e-001 1.7689487249e+002  2.9431494525e-001 -2.3495024430e+000
          1.7632810928e-001 1.7500305288e+002  1.1730009022e-001 -5.6619212205e+000  5.9125783432e-002 1.7636579336e+002  5.8219079986e-002 -9.9070363654e+000
          6.8340662346e-003 -1.0466373228e+002
          4.6692106967e-001 1.7206653723e+002  4.7041049436e-001 1.7689487249e+002  9.8535341734e-002 4.6398622162e+001  5.8642324610e-001 -5.1550081329e+000
          3.5026438612e-001 1.7378001674e+002  2.3539016929e-001 -7.8576268996e+000  1.1576546679e-001 1.7617329579e+002  1.2001127570e-001 -1.2020698331e+001
          1.7311641398e-002 -8.5277452705e+001
          2.9316600581e-001 -8.2040158096e+000  2.9431494525e-001 -2.3495024430e+000  5.8642324610e-001 -5.1550081329e+000  1.2752644631e-001 1.5353027952e+002
          5.2959983415e-001 1.7726516419e+002  3.5136632748e-001 -3.1585242910e+000  1.7830342292e-001 1.7750251607e+002  1.7318229574e-001 -9.4531317764e+000
          2.2310276478e-002 -1.0932393424e+002
          1.7450500408e-001 1.7188981315e+002  1.7632810928e-001 1.7500305288e+002  3.5026438612e-001 1.7378001674e+002  5.2959983415e-001 1.7726516419e+002
          1.3005917399e-001 1.9566944219e+001  5.8602123060e-001 -4.8940911031e+000  2.9402824745e-001 1.7756198264e+002  2.9285012278e-001 -1.0793713768e+001
          4.1214462932e-002 -9.9163323088e+001
          1.1842495109e-001 -9.6435813858e+000  1.1730009022e-001 -5.6619212205e+000  2.3539016929e-001 -7.8576268996e+000  3.5136632748e-001 -3.1585242910e+000
          5.8602123060e-001 -4.8940911031e+000  6.7804412710e-002 1.5439156979e+002  4.7642423918e-001 1.7999439498e+002  4.6120950382e-001 -7.5990870279e+000
          6.2776063984e-002 -1.0792638691e+002
          5.6671551453e-002 1.7515246348e+002  5.9125783432e-002 1.7636579336e+002  1.1576546679e-001 1.7617329579e+002  1.7830342292e-001 1.7750251607e+002
          2.9402824745e-001 1.7756198264e+002  4.7642423918e-001 1.7999439498e+002  2.2943031895e-001 -1.9522914337e+000  7.5323597326e-001 -8.8129307029e+000
          1.0830003419e-001 -1.0422488536e+002
          6.1992075531e-002 -1.2501093087e+001  5.8219079986e-002 -9.9070363654e+000  1.2001127570e-001 -1.2020698331e+001  1.7318229574e-001 -9.4531317764e+000
          2.9285012278e-001 -1.0793713768e+001  4.6120950382e-001 -7.5990870279e+000  7.5323597326e-001 -8.8129307029e+000  2.1673505877e-001 -1.8151503077e+001
          1.7071191430e-001 -1.0664326204e+002
          9.6506588968e-003 -6.7675880382e+001  6.8340662346e-003 -1.0466373228e+002  1.7311641398e-002 -8.5277452705e+001  2.2310276478e-002 -1.0932393424e+002
          4.1214462932e-002 -9.9163323088e+001  6.2776063984e-002 -1.0792638691e+002  1.0830003419e-001 -1.0422488536e+002  1.7071191430e-001 -1.0664326204e+002
          9.6794505185e-001 -1.7331470255e+001
 6.7000000000e-001  2.5076761060e-001 1.5161270660e+002  7.6175677063e-001 -5.5615291302e+000  4.6681275539e-001 1.7194674603e+002  2.9314129885e-001 -8.3296227651e+000
          1.7444459557e-001 1.7177019690e+002  1.1845027005e-001 -9.7994864435e+000  5.6606573474e-002 1.7511396209e+002  6.2093024236e-002 -1.2733995879e+001
          9.9086876045e-003 -6.7665931856e+001
          7.6175677063e-001 -5.5615291302e+000  2.4236072511e-001 1.6078923819e+002  4.7041029127e-001 1.7684800948e+002  2.9432284324e-001 -2.3858801319e+000
          1.7632688672e-001 1.7492897325e+002  1.1728753419e-001 -5.7507553444e+000  5.9140254021e-002 1.7632067831e+002  5.8194578776e-002 -1.0074625389e+001
          6.9677703016e-003 -1.0494669675e+002
          4.6681275539e-001 1.7194674603e+002  4.7041029127e-001 1.7684800948e+002  9.9486044542e-002 4.6704188377e+001  5.8637430450e-001 -5.2338818512e+000
          3.5018551817e-001 1.7368832414e+002  2.3539287118e-001 -7.9828614974e+000  1.1571396363e-001 1.7613641101e+002  1.2008252689e-001 -1.2232046783e+001
          1.7686121157e-002 -8.5313755247e+001
          2.9314129885e-001 -8.3296227651e+000  2.9432284324e-001 -2.3858801319e+000  5.8637430450e-001 -5.2338818512e+000  1.2782701001e-001 1.5317051870e+002
          5.2961712807e-001 1.7722500943e+002  3.5131160918e-001 -3.2081028415e+000  1.7837733448e-001 1.7747117491e+002  1.7306131869e-001 -9.6100583083e+000
          2.2731017874e-002 -1.0967064859e+002
          1.7444459557e-001 1.7177019690e+002  1.7632688672e-001 1.7492897325e+002  3.5018551817e-001 1.7368832414e+002  5.2961712807e-001 1.7722500943e+002
          1.3039687875e-001 1.9805297602e+001  5.8594651105e-001 -4.9716069068e+000  2.9404919196e-001 1.7753657993e+002  2.9279074601e-001 -1.0976716985e+001
          4.1994517044e-002 -9.9356242174e+001
          1.1845027005e-001 -9.7994864435e+000  1.1728753419e-001 -5.7507553444e+000  2.3539287118e-001 -7.9828614974e+000  3.5131160918e-001 -3.2081028415e+000
          5.8594651105e-001 -4.9716069068e+000  6.8085764512e-002 1.5411022896e+002  4.7665130881e-001 1.7999960639e+002  4.6086881401e-001 -7.7269547147e+000
          6.3940367730e-002 -1.0825000704e+002
          5.6606573474e-002 1.7511396209e+002  5.9140254021e-002 1.7632067831e+002  1.1571396363e-001 1.7613641101e+002  1.7837733448e-001 1.7747117491e+002
          2.9404919196e-001 1.7753657993e+002  4.7665130881e-001 1.7999960639e+002  2.2918420385e-001 -2.0080668728e+000  7.5281133397e-001 -8.9615317263e+000
          1.1028303905e-001 -1.0449042941e+002
          6.2093024236e-002 -1.2733995879e+001  5.8194578776e-002 -1.0074625389e+001  1.2008252689e-001 -1.2232046783e+001  1.7306131869e-001 -9.6100583083e+000
          2.9279074601e-001 -1.0976716985e+001  4.6086881401e-001 -7.7269547147e+000  7.5281133397e-001 -8.9615317263e+000  2.1607586890e-001 -1.8535970304e+001
          1.7384247559e-001 -1.0694629883e+002
          9.9086876045e-003 -6.7665931856e+001  6.9677703016e-003 -1.0494669675e+002  1.7686121157e-002 -8.5313755247e+001  2.2731017874e-002 -1.0967064859e+002
          4.1994517044e-002 -9.9356242174e+001  6.3940367730e-002 -1.0825000704e+002  1.1028303905e-001 -1.0449042941e+002  1.7384247559e-001 -1.0694629883e+002
          9.6675600530e-001 -1.7652723407e+001
 6.8000000000e-001  2.5122829544e-001 1.5121749537e+002  7.6168254450e-001 -5.6444139312e+000  4.6670267966e-001 1.7182698280e+002  2.9311619079e-001 -8.4553051508e+000
          1.7438319311e-001 1.7165077896e+002  1.1847591443e-001 -9.9559348014e+000  5.6540809633e-002 1.7507747183e+002  6.2195594988e-002 -1.2969236488e+001
          1.0171847071e-002 -6.7666632339e+001
          7.6168254450e-001 -5.6444139312e+000  2.4258496680e-001 1.6051313375e+002  4.7041012286e-001 1.7680115857e+002  2.9433074905e-001 -2.4222918370e+000
          1.7632577628e-001 1.7485497607e+002  1.1727454266e-001 -5.8397302345e+000  5.9155334443e-002 1.7627602130e+002  5.8169170294e-002 -1.0243083290e+001
          7.1030251468e-003 -1.0523376423e+002
          4.6670267966e-001 1.7182698280e+002  4.7041012286e-001 1.7680115857e+002  1.0044130113e-001 4.7001737948e+001  5.8632449165e-001 -5.3127974271e+000
          3.5010552321e-001 1.7359677426e+002  2.3539531320e-001 -8.1084251130e+000  1.1566225242e-001 1.7610065696e+002  1.2015446374e-001 -1.2444956851e+001
          1.8066178583e-002 -8.5355828048e+001
          2.9311619079e-001 -8.4553051508e+000  2.9433074905e-001 -2.4222918370e+000  5.8632449165e-001 -5.3127974271e+000  1.2813148863e-001 1.5281240208e+002
          5.2963516318e-001 1.7718491385e+002  3.5125527550e-001 -3.2577435095e+000  1.7845361207e-001 1.7744008671e+002  1.7293671852e-001 -9.7676186641e+000
          2.3155964122e-002 -1.1002111491e+002
          1.7438319311e-001 1.7165077896e+002  1.7632577628e-001 1.7485497607e+002  3.5010552321e-001 1.7359677426e+002  5.2963516318e-001 1.7718491385e+002
          1.3073752114e-001 2.0041490639e+001  5.8586955625e-001 -5.0492838527e+000  2.9407225343e-001 1.7751172621e+002  2.9272832564e-001 -1.1160709343e+001
          4.2782413948e-002 -9.9552885075e+001
          1.1847591443e-001 -9.9559348014e+000  1.1727454266e-001 -5.8397302345e+000  2.3539531320e-001 -8.1084251130e+000  3.5125527550e-001 -3.2577435095e+000
          5.8586955625e-001 -5.0492838527e+000  6.8371836620e-002 1.5383304546e+002  4.7688513697e-001 -1.7999499695e+002  4.6051816199e-001 -7.8553967617e+000
          6.5115419623e-002 -1.0857726940e+002
          5.6540809633e-002 1.7507747183e+002  5.9155334443e-002 1.7627602130e+002  1.1566225242e-001 1.7610065696e+002  1.7845361207e-001 1.7744008671e+002
          2.9407225343e-001 1.7751172621e+002  4.7688513697e-001 -1.7999499695e+002  2.2892951352e-001 -2.0650347241e+000  7.5237334370e-001 -9.1108534800e+000
          1.1228317337e-001 -1.0475950454e+002
          6.2195594988e-002 -1.2969236488e+001  5.8169170294e-002 -1.0243083290e+001  1.2015446374e-001 -1.2444956851e+001  1.7293671852e-001 -9.7676186641e+000
          2.9272832564e-001 -1.1160709343e+001  4.6051816199e-001 -7.8553967617e+000  7.5237334370e-001 -9.1108534800e+000  2.1539935654e-001 -1.8926534888e+001
          1.7700032717e-001 -1.0725291250e+002
          1.0171847071e-002 -6.7666632339e+001  7.1030251468e-003 -1.0523376423e+002  1.8066178583e-002 -8.5355828048e+001  2.3155964122e-002 -1.1002111491e+002
          4.2782413948e-002 -9.9552885075e+001  6.5115419623e-002 -1.0857726940e+002  1.1228317337e-001 -1.0475950454e+002  1.7700032717e-001 -1.0725291250e+002
          9.6552929352e-001 -1.7977051150e+001
 6.9000000000e-001  2.5169453889e-001 1.5082340819e+002  7.6160725091e-001 -5.7272958130e+000  4.6659083607e-001 1.7170724885e+002  2.9309067662e-001 -8.5810654721e+000
          1.7432079612e-001 1.7153156682e+002  1.1850187406e-001 -1.0112943081e+001  5.6474285329e-002 1.7504305916e+002  6.2299779910e-002 -1.3206881631e+001
          1.0440231266e-002 -6.7677979963e+001
          7.6160725091e-001 -5.7272958130e+000  2.4281225432e-001 1.6023747698e+002  4.7040999211e-001 1.7675432024e+002  2.9433865567e-001 -2.4587378585e+000
          1.7632478683e-001 1.7478106309e+002  1.1726109973e-001 -5.9288476021e+000  5.9171050126e-002 1.7623182762e+002  5.8142818671e-002 -1.0412427336e+001
          7.2398677529e-003 -1.0552505287e+002
          4.6659083607e-001 1.7170724885e+002  4.7040999211e-001 1.7675432024e+002  1.0140094927e-001 4.7291456206e+001  5.8627379583e-001 -5.3917560199e+000
          3.5002441002e-001 1.7350537155e+002  2.3539746975e-001 -8.2343265546e+000  1.1561038056e-001 1.7606606398e+002  1.2022704587e-001 -1.2659471734e+001
          1.8451935298e-002 -8.5403784732e+001
          2.9309067662e-001 -8.5810654721e+000  2.9433865567e-001 -2.4587378585e+000  5.8627379583e-001 -5.3917560199e+000  1.2843986683e-001 1.5245594027e+002
          5.2965396968e-001 1.7714487816e+002  3.5119727881e-001 -3.3074451446e+000  1.7853233178e-001 1.7740924949e+002  1.7280838163e-001 -9.9258205213e+000
          2.3585210917e-002 -1.1037544269e+002
          1.7432079612e-001 1.7153156682e+002  1.7632478683e-001 1.7478106309e+002  3.5002441002e-001 1.7350537155e+002  5.2965396968e-001 1.7714487816e+002
          1.3108100277e-001 2.0275522262e+001  5.8579029243e-001 -5.1271245427e+000  2.9409755156e-001 1.7748742990e+002  2.9266271065e-001 -1.1345713101e+001
          4.3578326808e-002 -9.9753358158e+001
          1.1850187406e-001 -1.0112943081e+001  1.1726109973e-001 -5.9288476021e+000  2.3539746975e-001 -8.2343265546e+000  3.5119727881e-001 -3.3074451446e+000
          5.8579029243e-001 -5.1271245427e+000  6.8662703413e-002 1.5356003834e+002  4.7712592292e-001 -1.7998941916e+002  4.6015724642e-001 -7.9844185051e+000
          6.6301455878e-002 -1.0890828004e+002
          5.6474285329e-002 1.7504305916e+002  5.9171050126e-002 1.7623182762e+002  1.1561038056e-001 1.7606606398e+002  1.7853233178e-001 1.7740924949e+002
          2.9409755156e-001 1.7748742990e+002  4.7712592292e-001 -1.7998941916e+002  2.2866594646e-001 -2.1232078198e+000  7.5192155303e-001 -9.2609074771e+000
          1.1430080207e-001 -1.0503221359e+002
          6.2299779910e-002 -1.3206881631e+001  5.8142818671e-002 -1.0412427336e+001  1.2022704587e-001 -1.2659471734e+001  1.7280838163e-001 -9.9258205213e+000
          2.9266271065e-001 -1.1345713101e+001  4.6015724642e-001 -7.9844185051e+000  7.5192155303e-001 -9.2609074771e+000  2.1470506347e-001 -1.9323390880e+001
          1.8018605490e-001 -1.0756320711e+002
          1.0440231266e-002 -6.7677979963e+001  7.2398677529e-003 -1.0552505287e+002  1.8451935298e-002 -8.5403784732e+001  2.3585210917e-002 -1.1037544269e+002
          4.3578326808e-002 -9.9753358158e+001  6.6301455878e-002 -1.0890828004e+002  1.1430080207e-001 -1.0503221359e+002  1.8018605490e-001 -1.0756320711e+002
          9.6426358367e-001 -1.8304532908e+001
 7.0000000000e-001  2.5216628983e-001 1.5043045274e+002  7.6153088948e-001 -5.8101749469e+000  4.6647721820e-001 1.7158754556e+002  2.9306475096e-001 -8.7069063060e+000
          1.7425740441e-001 1.7141256823e+002  1.1852813783e-001 -1.0270528358e+001  5.6407028124e-002 1.7501079242e+002  6.2405569637e-002 -1.3446999777e+001
          1.0713935429e-002 -6.7699976500e+001
          7.6153088948e-001 -5.8101749469e+000  2.4304257757e-001 1.5996227283e+002  4.7040990225e-001 1.7670749497e+002  2.9434655581e-001 -2.4952184709e+000
          1.7632392771e-001 1.7470723604e+002  1.1724718890e-001 -6.0181090524e+000  5.9187427540e-002 1.7618810222e+002  5.8115486487e-002 -1.0582674717e+001
          7.3783356185e-003 -1.0582068408e+002
          4.6647721820e-001 1.7158754556e+002  4.7040990225e-001 1.7670749497e+002  1.0236483087e-001 4.7573524426e+001  5.8622220466e-001 -5.4707588085e+000
          3.4994218818e-001 1.7341412056e+002  2.3539931369e-001 -8.3605748002e+000  1.1555839822e-001 1.7603266291e+002  1.2030023002e-001 -1.2875635645e+001
          1.8843514399e-002 -8.5457741249e+001
          2.9306475096e-001 -8.7069063060e+000  2.9434655581e-001 -2.4952184709e+000  5.8622220466e-001 -5.4707588085e+000  1.2875212984e-001 1.5210114343e+002
          5.2967357898e-001 1.7710490300e+002  3.5113756986e-001 -3.3572063859e+000  1.7861357234e-001 1.7737866066e+002  1.7267619009e-001 -1.0084671062e+001
          2.4018854976e-002 -1.1073374446e+002
          1.7425740441e-001 1.7141256823e+002  1.7632392771e-001 1.7470723604e+002  3.4994218818e-001 1.7341412056e+002  5.2967357898e-001 1.7710490300e+002
          1.3142722349e-001 2.0507392591e+001  5.8570864275e-001 -5.2051315136e+000  2.9412521116e-001 1.7746369918e+002  2.9259374298e-001 -1.1531750698e+001
          4.4382430360e-002 -9.9957770716e+001
