! IGNION VIRTUAL ANTENNA LIBRARY
!
! NN_RUN_B50x40_C40x11
! Virtual Antenna™ RUN mXTEND™: NN02-224 12.0 mm x 3.0 mm x 2.4 mm
! https://ignion.io/product/run-mxtend/
! Board: 50 mm x 40 mm
! Clearance Area: 40 mm x 11 mm
! Feeding line: L-shape; 11mm x 2mm and 5mm x 2mm
! Applications: Fleet management, IoT
! Frequency range 0.65GHz to 6GHz, step 10MHz
! Number of ports 1
!
! This product and its use is protected by at least one or more of the following patents and patent
! applications US 8,203,492 B2; US 8,237,615 B2; PCT/EP2013/064692; WO 2014/012842 A1; US 2019/190122 A1;
! US 62/072,671; and other domestic and international patents pending. Additional information about
! patents related to this product is available at https://ignion.io/files/Patent-list-NN.pdf, all
! rights reserved. Copyright, Ignion 2021.
!
! Need more help? Your platform is much different than these examples in the manual? Use our 
! Fast Track service (https://ignion.io/fast-track/), for free, and get a personalized antenna design in
! just 24 hours.
!
! 
! Touchstone port 1 = "Series Port"
!
! IE3D S-Parameters Output Version 2.0  
# GHZ S MA R 50
! Nport = 1
!

 6.5000000000e-001  9.9297837580e-001 -1.6255869248e+001
 6.6000000000e-001  9.9274410635e-001 -1.6563763171e+001
 6.7000000000e-001  9.9250083474e-001 -1.6874797952e+001
 6.8000000000e-001  9.9224812114e-001 -1.7189064394e+001
 6.9000000000e-001  9.9198550393e-001 -1.7506655940e+001
 7.0000000000e-001  9.9171249854e-001 -1.7827668780e+001
 7.1000000000e-001  9.9142859615e-001 -1.8152201958e+001
 7.2000000000e-001  9.9113326243e-001 -1.8480357481e+001
 7.3000000000e-001  9.9082593608e-001 -1.8812240440e+001
 7.4000000000e-001  9.9050602740e-001 -1.9147959125e+001
 7.5000000000e-001  9.9017291668e-001 -1.9487625156e+001
 7.6000000000e-001  9.8982595254e-001 -1.9831353610e+001
 7.7000000000e-001  9.8946445019e-001 -2.0179263161e+001
 7.8000000000e-001  9.8908768954e-001 -2.0531476220e+001
 7.9000000000e-001  9.8869491323e-001 -2.0888119084e+001
 8.0000000000e-001  9.8828532453e-001 -2.1249322090e+001
 8.1000000000e-001  9.8785808511e-001 -2.1615219777e+001
 8.2000000000e-001  9.8741231271e-001 -2.1985951049e+001
 8.3000000000e-001  9.8694707861e-001 -2.2361659357e+001
 8.4000000000e-001  9.8646140501e-001 -2.2742492872e+001
 8.5000000000e-001  9.8595426220e-001 -2.3128604679e+001
 8.6000000000e-001  9.8542456559e-001 -2.3520152972e+001
 8.7000000000e-001  9.8487117260e-001 -2.3917301261e+001
 8.8000000000e-001  9.8429287926e-001 -2.4320218582e+001
 8.9000000000e-001  9.8368841669e-001 -2.4729079719e+001
 9.0000000000e-001  9.8305644735e-001 -2.5144065438e+001
 9.1000000000e-001  9.8239556106e-001 -2.5565362724e+001
 9.2000000000e-001  9.8170427078e-001 -2.5993165032e+001
 9.3000000000e-001  9.8098100815e-001 -2.6427672543e+001
 9.4000000000e-001  9.8022411874e-001 -2.6869092439e+001
 9.5000000000e-001  9.7943185705e-001 -2.7317639179e+001
 9.6000000000e-001  9.7860238123e-001 -2.7773534790e+001
 9.7000000000e-001  9.7773374741e-001 -2.8237009168e+001
 9.8000000000e-001  9.7682390379e-001 -2.8708300393e+001
 9.9000000000e-001  9.7587068437e-001 -2.9187655048e+001
 1.0000000000e+000  9.7487180226e-001 -2.9675328559e+001
 1.0100000000e+000  9.7382484274e-001 -3.0171585539e+001
 1.0200000000e+000  9.7272725575e-001 -3.0676700145e+001
 1.0300000000e+000  9.7157634816e-001 -3.1190956452e+001
 1.0400000000e+000  9.7036927549e-001 -3.1714648831e+001
 1.0500000000e+000  9.6910303323e-001 -3.2248082343e+001
 1.0600000000e+000  9.6777444769e-001 -3.2791573143e+001
 1.0700000000e+000  9.6638016646e-001 -3.3345448895e+001
 1.0800000000e+000  9.6491664825e-001 -3.3910049201e+001
 1.0900000000e+000  9.6338015241e-001 -3.4485726029e+001
 1.1000000000e+000  9.6176672780e-001 -3.5072844164e+001
 1.1100000000e+000  9.6007220132e-001 -3.5671781661e+001
 1.1200000000e+000  9.5829216579e-001 -3.6282930301e+001
 1.1300000000e+000  9.5642196750e-001 -3.6906696064e+001
 1.1400000000e+000  9.5445669321e-001 -3.7543499594e+001
 1.1500000000e+000  9.5239115670e-001 -3.8193776679e+001
 1.1600000000e+000  9.5021988493e-001 -3.8857978723e+001
 1.1700000000e+000  9.4793710387e-001 -3.9536573220e+001
 1.1800000000e+000  9.4553672393e-001 -4.0230044228e+001
 1.1900000000e+000  9.4301232525e-001 -4.0938892831e+001
 1.2000000000e+000  9.4035714273e-001 -4.1663637591e+001
 1.2100000000e+000  9.3756405116e-001 -4.2404814996e+001
 1.2200000000e+000  9.3462555027e-001 -4.3162979876e+001
 1.2300000000e+000  9.3153375018e-001 -4.3938705815e+001
 1.2400000000e+000  9.2828035719e-001 -4.4732585519e+001
 1.2500000000e+000  9.2485666031e-001 -4.5545231173e+001
 1.2600000000e+000  9.2125351862e-001 -4.6377274747e+001
 1.2700000000e+000  9.1746134993e-001 -4.7229368270e+001
 1.2800000000e+000  9.1347012100e-001 -4.8102184053e+001
 1.2900000000e+000  9.0926933968e-001 -4.8996414871e+001
 1.3000000000e+000  9.0484804955e-001 -4.9912774078e+001
 1.3100000000e+000  9.0019482749e-001 -5.0851995673e+001
 1.3200000000e+000  8.9529778474e-001 -5.1814834298e+001
 1.3300000000e+000  8.9014457218e-001 -5.2802065172e+001
 1.3400000000e+000  8.8472239052e-001 -5.3814483968e+001
 1.3500000000e+000  8.7901800611e-001 -5.4852906618e+001
 1.3600000000e+000  8.7301777339e-001 -5.5918169075e+001
 1.3700000000e+000  8.6670766478e-001 -5.7011127017e+001
 1.3800000000e+000  8.6007330901e-001 -5.8132655534e+001
 1.3900000000e+000  8.5310003908e-001 -5.9283648797e+001
 1.4000000000e+000  8.4577295074e-001 -6.0465019755e+001
 1.4100000000e+000  8.3807697276e-001 -6.1677699895e+001
 1.4200000000e+000  8.2999695001e-001 -6.2922639116e+001
 1.4300000000e+000  8.2151774055e-001 -6.4200805787e+001
 1.4400000000e+000  8.1262432761e-001 -6.5513187077e+001
 1.4500000000e+000  8.0330194751e-001 -6.6860789652e+001
 1.4600000000e+000  7.9353623427e-001 -6.8244640888e+001
 1.4700000000e+000  7.8331338140e-001 -6.9665790742e+001
 1.4800000000e+000  7.7262032126e-001 -7.1125314489e+001
 1.4900000000e+000  7.6144492197e-001 -7.2624316551e+001
 1.5000000000e+000  7.4977620135e-001 -7.4163935697e+001
 1.5100000000e+000  7.3760455723e-001 -7.5745351962e+001
 1.5200000000e+000  7.2492201255e-001 -7.7369795651e+001
 1.5300000000e+000  7.1172247359e-001 -7.9038558925e+001
 1.5400000000e+000  6.9800199869e-001 -8.0753010488e+001
 1.5500000000e+000  6.8375907468e-001 -8.2514614039e+001
 1.5600000000e+000  6.6899489748e-001 -8.4324951222e+001
 1.5700000000e+000  6.5371365294e-001 -8.6185749964e+001
 1.5800000000e+000  6.3792279399e-001 -8.8098919227e+001
 1.5900000000e+000  6.2163330983e-001 -9.0066591379e+001
 1.6000000000e+000  6.0485998315e-001 -9.2091173603e+001
 1.6100000000e+000  5.8762163225e-001 -9.4175410001e+001
 1.6200000000e+000  5.6994133533e-001 -9.6322456359e+001
 1.6300000000e+000  5.5184663617e-001 -9.8535969876e+001
 1.6400000000e+000  5.3336973214e-001 -1.0082021656e+002
 1.6500000000e+000  5.1454764798e-001 -1.0318019948e+002
 1.6600000000e+000  4.9542240249e-001 -1.0562181154e+002
 1.6700000000e+000  4.7604117850e-001 -1.0815201695e+002
 1.6800000000e+000  4.5645651202e-001 -1.1077906609e+002
 1.6900000000e+000  4.3672652127e-001 -1.1351274856e+002
 1.7000000000e+000  4.1691520290e-001 -1.1636468900e+002
 1.7100000000e+000  3.9709282911e-001 -1.1934868886e+002
 1.7200000000e+000  3.7733648643e-001 -1.2248111429e+002
 1.7300000000e+000  3.5773080258e-001 -1.2578132314e+002
 1.7400000000e+000  3.3836891099e-001 -1.2927211214e+002
 1.7500000000e+000  3.1935369886e-001 -1.3298014239e+002
 1.7600000000e+000  3.0079936791e-001 -1.3693626374e+002
 1.7700000000e+000  2.8283329398e-001 -1.4117559732e+002
 1.7800000000e+000  2.6559808501e-001 -1.4573714245e+002
 1.7900000000e+000  2.4925357612e-001 -1.5066254611e+002
 1.8000000000e+000  2.3397823407e-001 -1.5599352249e+002
 1.8100000000e+000  2.1996904724e-001 -1.6176729694e+002
 1.8200000000e+000  2.0743848792e-001 -1.6800951233e+002
 1.8300000000e+000  1.9660672956e-001 -1.7472452750e+002
 1.8400000000e+000  1.8768740176e-001 1.7811576793e+002
 1.8500000000e+000  1.8086639664e-001 1.7058161297e+002
 1.8600000000e+000  1.7627601647e-001 1.6278876042e+002
 1.8700000000e+000  1.7397040748e-001 1.5489105098e+002
 1.8800000000e+000  1.7391048431e-001 1.4706130301e+002
 1.8900000000e+000  1.7596477968e-001 1.3946556960e+002
 1.9000000000e+000  1.7992674444e-001 1.3223976725e+002
 1.9100000000e+000  1.8554253668e-001 1.2547622655e+002
 1.9200000000e+000  1.9254050208e-001 1.1922215862e+002
 1.9300000000e+000  2.0065532930e-001 1.1348686810e+002
 1.9400000000e+000  2.0964386833e-001 1.0825269701e+002
 1.9500000000e+000  2.1929302026e-001 1.0348571620e+002
 1.9600000000e+000  2.2942177479e-001 9.9144167044e+001
 1.9700000000e+000  2.3987968679e-001 9.5184232493e+001
 1.9800000000e+000  2.5054359440e-001 9.1563528409e+001
 1.9900000000e+000  2.6131375041e-001 8.8242944484e+001
 2.0000000000e+000  2.7211002204e-001 8.5187414040e+001
 2.0100000000e+000  2.8286846838e-001 8.2366048260e+001
 2.0200000000e+000  2.9353840217e-001 7.9751927561e+001
 2.0300000000e+000  3.0407993639e-001 7.7321732134e+001
 2.0400000000e+000  3.1446196840e-001 7.5055317739e+001
 2.0500000000e+000  3.2466053835e-001 7.2935294474e+001
 2.0600000000e+000  3.3465749788e-001 7.0946636995e+001
 2.0700000000e+000  3.4443943176e-001 6.9076337882e+001
 2.0800000000e+000  3.5399678384e-001 6.7313106635e+001
 2.0900000000e+000  3.6332314702e-001 6.5647112107e+001
 2.1000000000e+000  3.7241468500e-001 6.4069764081e+001
 2.1100000000e+000  3.8126965975e-001 6.2573529016e+001
 2.1200000000e+000  3.8988804426e-001 6.1151775044e+001
 2.1300000000e+000  3.9827120406e-001 5.9798641690e+001
 2.1400000000e+000  4.0642163452e-001 5.8508930358e+001
 2.1500000000e+000  4.1434274362e-001 5.7278012145e+001
 2.1600000000e+000  4.2203867191e-001 5.6101750117e+001
 2.1700000000e+000  4.2951414288e-001 5.4976433609e+001
 2.1800000000e+000  4.3677433861e-001 5.3898722556e+001
 2.1900000000e+000  4.4382479610e-001 5.2865600183e+001
 2.2000000000e+000  4.5067132102e-001 5.1874332672e+001
 2.2100000000e+000  4.5731991570e-001 5.0922434670e+001
 2.2200000000e+000  4.6377671934e-001 5.0007639700e+001
 2.2300000000e+000  4.7004795807e-001 4.9127874684e+001
 2.2400000000e+000  4.7613990361e-001 4.8281237949e+001
 2.2500000000e+000  4.8205883897e-001 4.7465980159e+001
 2.2600000000e+000  4.8781103010e-001 4.6680487744e+001
 2.2700000000e+000  4.9340270256e-001 4.5923268443e+001
 2.2800000000e+000  4.9884002241e-001 4.5192938656e+001
 2.2900000000e+000  5.0412908066e-001 4.4488212336e+001
 2.3000000000e+000  5.0927588066e-001 4.3807891216e+001
 2.3100000000e+000  5.1428632803e-001 4.3150856169e+001
 2.3200000000e+000  5.1916622262e-001 4.2516059560e+001
 2.3300000000e+000  5.2392125225e-001 4.1902518453e+001
 2.3400000000e+000  5.2855698785e-001 4.1309308554e+001
 2.3500000000e+000  5.3307887983e-001 4.0735558808e+001
 2.3600000000e+000  5.3749225534e-001 4.0180446560e+001
 2.3700000000e+000  5.4180231636e-001 3.9643193213e+001
 2.3800000000e+000  5.4601413847e-001 3.9123060326e+001
 2.3900000000e+000  5.5013266994e-001 3.8619346096e+001
 2.4000000000e+000  5.5416273140e-001 3.8131382183e+001
 2.4100000000e+000  5.5810901563e-001 3.7658530848e+001
 2.4200000000e+000  5.6197608763e-001 3.7200182352e+001
 2.4300000000e+000  5.6576838479e-001 3.6755752615e+001
 2.4400000000e+000  5.6949021714e-001 3.6324681078e+001
 2.4500000000e+000  5.7314576764e-001 3.5906428785e+001
 2.4600000000e+000  5.7673909243e-001 3.5500476628e+001
 2.4700000000e+000  5.8027412107e-001 3.5106323767e+001
 2.4800000000e+000  5.8375465673e-001 3.4723486201e+001
 2.4900000000e+000  5.8718437624e-001 3.4351495471e+001
 2.5000000000e+000  5.9056683015e-001 3.3989897502e+001
 2.5100000000e+000  5.9390544262e-001 3.3638251551e+001
 2.5200000000e+000  5.9720351125e-001 3.3296129273e+001
 2.5300000000e+000  6.0046420686e-001 3.2963113885e+001
 2.5400000000e+000  6.0369057312e-001 3.2638799427e+001
 2.5500000000e+000  6.0688552617e-001 3.2322790111e+001
 2.5600000000e+000  6.1005185416e-001 3.2014699750e+001
 2.5700000000e+000  6.1319221677e-001 3.1714151270e+001
 2.5800000000e+000  6.1630914469e-001 3.1420776289e+001
 2.5900000000e+000  6.1940503914e-001 3.1134214767e+001
 2.6000000000e+000  6.2248217138e-001 3.0854114714e+001
 2.6100000000e+000  6.2554268223e-001 3.0580131964e+001
 2.6200000000e+000  6.2858858179e-001 3.0311929997e+001
 2.6300000000e+000  6.3162174909e-001 3.0049179811e+001
 2.6400000000e+000  6.3464393200e-001 2.9791559844e+001
 2.6500000000e+000  6.3765674717e-001 2.9538755934e+001
 2.6600000000e+000  6.4066168020e-001 2.9290461316e+001
 2.6700000000e+000  6.4366008601e-001 2.9046376655e+001
 2.6800000000e+000  6.4665318936e-001 2.8806210105e+001
 2.6900000000e+000  6.4964208563e-001 2.8569677396e+001
 2.7000000000e+000  6.5262774184e-001 2.8336501941e+001
 2.7100000000e+000  6.5561099798e-001 2.8106414957e+001
 2.7200000000e+000  6.5859256852e-001 2.7879155604e+001
 2.7300000000e+000  6.6157304428e-001 2.7654471131e+001
 2.7400000000e+000  6.6455289456e-001 2.7432117029e+001
 2.7500000000e+000  6.6753246960e-001 2.7211857178e+001
 2.7600000000e+000  6.7051200334e-001 2.6993464006e+001
 2.7700000000e+000  6.7349161640e-001 2.6776718632e+001
 2.7800000000e+000  6.7647131950e-001 2.6561411005e+001
 2.7900000000e+000  6.7945101705e-001 2.6347340030e+001
 2.8000000000e+000  6.8243051109e-001 2.6134313687e+001
 2.8100000000e+000  6.8540950546e-001 2.5922149121e+001
 2.8200000000e+000  6.8838761026e-001 2.5710672726e+001
 2.8300000000e+000  6.9136434651e-001 2.5499720205e+001
 2.8400000000e+000  6.9433915108e-001 2.5289136603e+001
 2.8500000000e+000  6.9731138173e-001 2.5078776325e+001
 2.8600000000e+000  7.0028032241e-001 2.4868503126e+001
 2.8700000000e+000  7.0324518865e-001 2.4658190073e+001
 2.8800000000e+000  7.0620513306e-001 2.4447719492e+001
 2.8900000000e+000  7.0915925099e-001 2.4236982874e+001
 2.9000000000e+000  7.1210658614e-001 2.4025880776e+001
 2.9100000000e+000  7.1504613631e-001 2.3814322678e+001
 2.9200000000e+000  7.1797685907e-001 2.3602226830e+001
 2.9300000000e+000  7.2089767744e-001 2.3389520066e+001
 2.9400000000e+000  7.2380748554e-001 2.3176137609e+001
 2.9500000000e+000  7.2670515409e-001 2.2962022839e+001
 2.9600000000e+000  7.2958953585e-001 2.2747127056e+001
 2.9700000000e+000  7.3245947093e-001 2.2531409221e+001
 2.9800000000e+000  7.3531379190e-001 2.2314835674e+001
 2.9900000000e+000  7.3815132879e-001 2.2097379852e+001
 3.0000000000e+000  7.4097091380e-001 2.1879021986e+001
 3.0100000000e+000  7.4377138589e-001 2.1659748785e+001
 3.0200000000e+000  7.4655159508e-001 2.1439553123e+001
 3.0300000000e+000  7.4931040648e-001 2.1218433709e+001
 3.0400000000e+000  7.5204670420e-001 2.0996394757e+001
 3.0500000000e+000  7.5475939479e-001 2.0773445656e+001
 3.0600000000e+000  7.5744741062e-001 2.0549600632e+001
 3.0700000000e+000  7.6010971280e-001 2.0324878420e+001
 3.0800000000e+000  7.6274529398e-001 2.0099301933e+001
 3.0900000000e+000  7.6535318078e-001 1.9872897932e+001
 3.1000000000e+000  7.6793243598e-001 1.9645696709e+001
 3.1100000000e+000  7.7048216038e-001 1.9417731776e+001
 3.1200000000e+000  7.7300149454e-001 1.9189039551e+001
 3.1300000000e+000  7.7548962007e-001 1.8959659068e+001
 3.1400000000e+000  7.7794576084e-001 1.8729631687e+001
 3.1500000000e+000  7.8036918383e-001 1.8499000820e+001
 3.1600000000e+000  7.8275919983e-001 1.8267811662e+001
 3.1700000000e+000  7.8511516386e-001 1.8036110942e+001
 3.1800000000e+000  7.8743647543e-001 1.7803946678e+001
 3.1900000000e+000  7.8972257859e-001 1.7571367953e+001
 3.2000000000e+000  7.9197296177e-001 1.7338424698e+001
 3.2100000000e+000  7.9418715753e-001 1.7105167491e+001
 3.2200000000e+000  7.9636474207e-001 1.6871647368e+001
 3.2300000000e+000  7.9850533465e-001 1.6637915643e+001
 3.2400000000e+000  8.0060859688e-001 1.6404023753e+001
 3.2500000000e+000  8.0267423187e-001 1.6170023103e+001
 3.2600000000e+000  8.0470198334e-001 1.5935964928e+001
 3.2700000000e+000  8.0669163459e-001 1.5701900171e+001
 3.2800000000e+000  8.0864300741e-001 1.5467879366e+001
 3.2900000000e+000  8.1055596091e-001 1.5233952540e+001
 3.3000000000e+000  8.1243039041e-001 1.5000169118e+001
 3.3100000000e+000  8.1426622610e-001 1.4766577847e+001
 3.3200000000e+000  8.1606343185e-001 1.4533226722e+001
 3.3300000000e+000  8.1782200393e-001 1.4300162929e+001
 3.3400000000e+000  8.1954196968e-001 1.4067432789e+001
 3.3500000000e+000  8.2122338627e-001 1.3835081719e+001
 3.3600000000e+000  8.2286633941e-001 1.3603154197e+001
 3.3700000000e+000  8.2447094210e-001 1.3371693730e+001
 3.3800000000e+000  8.2603733336e-001 1.3140742837e+001
 3.3900000000e+000  8.2756567706e-001 1.2910343035e+001
 3.4000000000e+000  8.2905616073e-001 1.2680534827e+001
 3.4100000000e+000  8.3050899445e-001 1.2451357702e+001
 3.4200000000e+000  8.3192440972e-001 1.2222850134e+001
 3.4300000000e+000  8.3330265845e-001 1.1995049590e+001
 3.4400000000e+000  8.3464401199e-001 1.1767992536e+001
 3.4500000000e+000  8.3594876014e-001 1.1541714453e+001
 3.4600000000e+000  8.3721721033e-001 1.1316249849e+001
 3.4700000000e+000  8.3844968676e-001 1.1091632279e+001
 3.4800000000e+000  8.3964652966e-001 1.0867894363e+001
 3.4900000000e+000  8.4080809460e-001 1.0645067807e+001
 3.5000000000e+000  8.4193475183e-001 1.0423183426e+001
 3.5100000000e+000  8.4302688572e-001 1.0202271162e+001
 3.5200000000e+000  8.4408489422e-001 9.9823601104e+000
 3.5300000000e+000  8.4510918844e-001 9.7634785419e+000
 3.5400000000e+000  8.4610019223e-001 9.5456539209e+000
 3.5500000000e+000  8.4705834183e-001 9.3289129278e+000
 3.5600000000e+000  8.4798408560e-001 9.1132814779e+000
 3.5700000000e+000  8.4887788379e-001 8.8987847383e+000
 3.5800000000e+000  8.4974020833e-001 8.6854471431e+000
 3.5900000000e+000  8.5057154274e-001 8.4732924067e+000
 3.6000000000e+000  8.5137238197e-001 8.2623435338e+000
 3.6100000000e+000  8.5214323242e-001 8.0526228269e+000
 3.6200000000e+000  8.5288461186e-001 7.8441518907e+000
 3.6300000000e+000  8.5359704946e-001 7.6369516329e+000
 3.6400000000e+000  8.5428108586e-001 7.4310422614e+000
 3.6500000000e+000  8.5493727318e-001 7.2264432782e+000
 3.6600000000e+000  8.5556617511e-001 7.0231734684e+000
 3.6700000000e+000  8.5616836702e-001 6.8212508859e+000
 3.6800000000e+000  8.5674443598e-001 6.6206928346e+000
 3.6900000000e+000  8.5729498091e-001 6.4215158452e+000
 3.7000000000e+000  8.5782061261e-001 6.2237356477e+000
 3.7100000000e+000  8.5832195382e-001 6.0273671395e+000
 3.7200000000e+000  8.5879963924e-001 5.8324243492e+000
 3.7300000000e+000  8.5925431553e-001 5.6389203957e+000
 3.7400000000e+000  8.5968664128e-001 5.4468674441e+000
 3.7500000000e+000  8.6009728689e-001 5.2562766561e+000
 3.7600000000e+000  8.6048693442e-001 5.0671581380e+000
 3.7700000000e+000  8.6085627743e-001 4.8795208843e+000
 3.7800000000e+000  8.6120602061e-001 4.6933727182e+000
 3.7900000000e+000  8.6153687951e-001 4.5087202293e+000
 3.8000000000e+000  8.6184958004e-001 4.3255687088e+000
 3.8100000000e+000  8.6214485795e-001 4.1439220832e+000
 3.8200000000e+000  8.6242345821e-001 3.9637828453e+000
 3.8300000000e+000  8.6268613427e-001 3.7851519861e+000
 3.8400000000e+000  8.6293364723e-001 3.6080289252e+000
 3.8500000000e+000  8.6316676490e-001 3.4324114421e+000
 3.8600000000e+000  8.6338626071e-001 3.2582956095e+000
 3.8700000000e+000  8.6359291259e-001 3.0856757272e+000
 3.8800000000e+000  8.6378750163e-001 2.9145442605e+000
 3.8900000000e+000  8.6397081071e-001 2.7448917813e+000
 3.9000000000e+000  8.6414362303e-001 2.5767069142e+000
 3.9100000000e+000  8.6430672041e-001 2.4099762879e+000
