! IGNION VIRTUAL ANTENNA LIBRARY
!
! NN_RUN_B50x20_C20x11
! Virtual Antenna™ RUN mXTEND™: NN02-224 12.0 mm x 3.0 mm x 2.4 mm
! https://ignion.io/product/run-mxtend/
! Board: 50 mm x 20 mm
! Clearance Area: 20 mm x 11 mm
! Feeding line: L-shape; 11mm x 2mm and 5mm x 2mm
! Applications: Fleet management, IoT
! Frequency range 0.65GHz to 6GHz, step 10MHz
! Number of ports 1
!
! This product and its use is protected by at least one or more of the following patents and patent
! applications US 8,203,492 B2; US 8,237,615 B2; PCT/EP2013/064692; WO 2014/012842 A1; US 2019/190122 A1;
! US 62/072,671; and other domestic and international patents pending. Additional information about
! patents related to this product is available at https://ignion.io/files/Patent-list-NN.pdf, all
! rights reserved. Copyright, Ignion 2021.
!
! Need more help? Your platform is much different than these examples in the manual? Use our 
! Fast Track service (https://ignion.io/fast-track/), for free, and get a personalized antenna design in
! just 24 hours.
!
!
! Touchstone port 1 = "Series Port"
!
! IE3D S-Parameters Output Version 2.0  
# GHZ S MA R 50
! Nport = 1
!

 6.5000000000e-001  9.9401405402e-001 -1.4947681305e+001
 6.6000000000e-001  9.9382551277e-001 -1.5223371743e+001
 6.7000000000e-001  9.9363028530e-001 -1.5501497832e+001
 6.8000000000e-001  9.9342806353e-001 -1.5782125926e+001
 6.9000000000e-001  9.9321852525e-001 -1.6065324126e+001
 7.0000000000e-001  9.9300133343e-001 -1.6351162350e+001
 7.1000000000e-001  9.9277613545e-001 -1.6639712396e+001
 7.2000000000e-001  9.9254256227e-001 -1.6931048013e+001
 7.3000000000e-001  9.9230022768e-001 -1.7225244971e+001
 7.4000000000e-001  9.9204872733e-001 -1.7522381137e+001
 7.5000000000e-001  9.9178763785e-001 -1.7822536552e+001
 7.6000000000e-001  9.9151651584e-001 -1.8125793509e+001
 7.7000000000e-001  9.9123489685e-001 -1.8432236642e+001
 7.8000000000e-001  9.9094229427e-001 -1.8741953008e+001
 7.9000000000e-001  9.9063819817e-001 -1.9055032179e+001
 8.0000000000e-001  9.9032207408e-001 -1.9371566335e+001
 8.1000000000e-001  9.8999336169e-001 -1.9691650362e+001
 8.2000000000e-001  9.8965147349e-001 -2.0015381954e+001
 8.3000000000e-001  9.8929579333e-001 -2.0342861717e+001
 8.4000000000e-001  9.8892567485e-001 -2.0674193278e+001
 8.5000000000e-001  9.8854043994e-001 -2.1009483401e+001
 8.6000000000e-001  9.8813937697e-001 -2.1348842102e+001
 8.7000000000e-001  9.8772173900e-001 -2.1692382775e+001
 8.8000000000e-001  9.8728674190e-001 -2.2040222317e+001
 8.9000000000e-001  9.8683356227e-001 -2.2392481261e+001
 9.0000000000e-001  9.8636133537e-001 -2.2749283917e+001
 9.1000000000e-001  9.8586915285e-001 -2.3110758511e+001
 9.2000000000e-001  9.8535606030e-001 -2.3477037335e+001
 9.3000000000e-001  9.8482105481e-001 -2.3848256902e+001
 9.4000000000e-001  9.8426308225e-001 -2.4224558109e+001
 9.5000000000e-001  9.8368103444e-001 -2.4606086396e+001
 9.6000000000e-001  9.8307374620e-001 -2.4992991929e+001
 9.7000000000e-001  9.8243999215e-001 -2.5385429770e+001
 9.8000000000e-001  9.8177848337e-001 -2.5783560070e+001
 9.9000000000e-001  9.8108786390e-001 -2.6187548259e+001
 1.0000000000e+000  9.8036670698e-001 -2.6597565246e+001
 1.0100000000e+000  9.7961351108e-001 -2.7013787625e+001
 1.0200000000e+000  9.7882669577e-001 -2.7436397895e+001
 1.0300000000e+000  9.7800459729e-001 -2.7865584675e+001
 1.0400000000e+000  9.7714546386e-001 -2.8301542939e+001
 1.0500000000e+000  9.7624745082e-001 -2.8744474252e+001
 1.0600000000e+000  9.7530861537e-001 -2.9194587013e+001
 1.0700000000e+000  9.7432691116e-001 -2.9652096713e+001
 1.0800000000e+000  9.7330018245e-001 -3.0117226192e+001
 1.0900000000e+000  9.7222615802e-001 -3.0590205909e+001
 1.1000000000e+000  9.7110244482e-001 -3.1071274219e+001
 1.1100000000e+000  9.6992652112e-001 -3.1560677657e+001
 1.1200000000e+000  9.6869572945e-001 -3.2058671228e+001
 1.1300000000e+000  9.6740726912e-001 -3.2565518709e+001
 1.1400000000e+000  9.6605818837e-001 -3.3081492953e+001
 1.1500000000e+000  9.6464537613e-001 -3.3606876198e+001
 1.1600000000e+000  9.6316555342e-001 -3.4141960391e+001
 1.1700000000e+000  9.6161526428e-001 -3.4687047504e+001
 1.1800000000e+000  9.5999086638e-001 -3.5242449865e+001
 1.1900000000e+000  9.5828852116e-001 -3.5808490488e+001
 1.2000000000e+000  9.5650418360e-001 -3.6385503407e+001
 1.2100000000e+000  9.5463359161e-001 -3.6973834007e+001
 1.2200000000e+000  9.5267225493e-001 -3.7573839358e+001
 1.2300000000e+000  9.5061544381e-001 -3.8185888549e+001
 1.2400000000e+000  9.4845817725e-001 -3.8810363015e+001
 1.2500000000e+000  9.4619521091e-001 -3.9447656854e+001
 1.2600000000e+000  9.4382102481e-001 -4.0098177145e+001
 1.2700000000e+000  9.4132981081e-001 -4.0762344246e+001
 1.2800000000e+000  9.3871545984e-001 -4.1440592079e+001
 1.2900000000e+000  9.3597154917e-001 -4.2133368406e+001
 1.3000000000e+000  9.3309132963e-001 -4.2841135068e+001
 1.3100000000e+000  9.3006771301e-001 -4.3564368215e+001
 1.3200000000e+000  9.2689325968e-001 -4.4303558493e+001
 1.3300000000e+000  9.2356016671e-001 -4.5059211205e+001
 1.3400000000e+000  9.2006025653e-001 -4.5831846429e+001
 1.3500000000e+000  9.1638496655e-001 -4.6621999092e+001
 1.3600000000e+000  9.1252533971e-001 -4.7430218994e+001
 1.3700000000e+000  9.0847201657e-001 -4.8257070777e+001
 1.3800000000e+000  9.0421522900e-001 -4.9103133833e+001
 1.3900000000e+000  8.9974479599e-001 -4.9969002143e+001
 1.4000000000e+000  8.9505012195e-001 -5.0855284044e+001
 1.4100000000e+000  8.9012019794e-001 -5.1762601926e+001
 1.4200000000e+000  8.8494360643e-001 -5.2691591839e+001
 1.4300000000e+000  8.7950853007e-001 -5.3642903025e+001
 1.4400000000e+000  8.7380276513e-001 -5.4617197358e+001
 1.4500000000e+000  8.6781374028e-001 -5.5615148709e+001
 1.4600000000e+000  8.6152854144e-001 -5.6637442227e+001
 1.4700000000e+000  8.5493394346e-001 -5.7684773549e+001
 1.4800000000e+000  8.4801644947e-001 -5.8757847950e+001
 1.4900000000e+000  8.4076233864e-001 -5.9857379454e+001
 1.5000000000e+000  8.3315772335e-001 -6.0984089927e+001
 1.5100000000e+000  8.2518861644e-001 -6.2138708179e+001
 1.5200000000e+000  8.1684100953e-001 -6.3321969139e+001
 1.5300000000e+000  8.0810096308e-001 -6.4534613127e+001
 1.5400000000e+000  7.9895470891e-001 -6.5777385331e+001
 1.5500000000e+000  7.8938876574e-001 -6.7051035535e+001
 1.5600000000e+000  7.7939006819e-001 -6.8356318243e+001
 1.5700000000e+000  7.6894610944e-001 -6.9693993303e+001
 1.5800000000e+000  7.5804509752e-001 -7.1064827207e+001
 1.5900000000e+000  7.4667612488e-001 -7.2469595254e+001
 1.6000000000e+000  7.3482935060e-001 -7.3909084791e+001
 1.6100000000e+000  7.2249619411e-001 -7.5384099839e+001
 1.6200000000e+000  7.0966953908e-001 -7.6895467387e+001
 1.6300000000e+000  6.9634394527e-001 -7.8444045777e+001
 1.6400000000e+000  6.8251586636e-001 -8.0030735608e+001
 1.6500000000e+000  6.6818387051e-001 -8.1656493716e+001
 1.6600000000e+000  6.5334886073e-001 -8.3322350861e+001
 1.6700000000e+000  6.3801429142e-001 -8.5029433894e+001
 1.6800000000e+000  6.2218637729e-001 -8.6778993299e+001
 1.6900000000e+000  6.0587429094e-001 -8.8572437226e+001
 1.7000000000e+000  5.8909034535e-001 -9.0411373320e+001
 1.7100000000e+000  5.7185015822e-001 -9.2297659972e+001
 1.7200000000e+000  5.5417279533e-001 -9.4233468981e+001
 1.7300000000e+000  5.3608089181e-001 -9.6221362068e+001
 1.7400000000e+000  5.1760075110e-001 -9.8264384347e+001
 1.7500000000e+000  4.9876242374e-001 -1.0036617859e+002
 1.7600000000e+000  4.7959977062e-001 -1.0253112526e+002
 1.7700000000e+000  4.6015051846e-001 -1.0476451450e+002
 1.7800000000e+000  4.4045631951e-001 -1.0707275825e+002
 1.7900000000e+000  4.2056283254e-001 -1.0946365270e+002
 1.8000000000e+000  4.0051984854e-001 -1.1194670453e+002
 1.8100000000e+000  3.8038149308e-001 -1.1453353779e+002
 1.8200000000e+000  3.6020654767e-001 -1.1723840315e+002
 1.8300000000e+000  3.4005894657e-001 -1.2007881616e+002
 1.8400000000e+000  3.2000852383e-001 -1.2307635687e+002
 1.8500000000e+000  3.0013210906e-001 -1.2625766659e+002
 1.8600000000e+000  2.8051510088e-001 -1.2965567637e+002
 1.8700000000e+000  2.6125368301e-001 -1.3331108655e+002
 1.8800000000e+000  2.4245788511e-001 -1.3727407073e+002
 1.8900000000e+000  2.2425571227e-001 -1.4160606740e+002
 1.9000000000e+000  2.0679853334e-001 -1.4638128554e+002
 1.9100000000e+000  1.9026773558e-001 -1.5168708630e+002
 1.9200000000e+000  1.7488213783e-001 -1.5762157881e+002
 1.9300000000e+000  1.6090448990e-001 -1.6428553149e+002
 1.9400000000e+000  1.4864320813e-001 -1.7176444307e+002
 1.9500000000e+000  1.3844237392e-001 1.7990302417e+002
 1.9600000000e+000  1.3065075705e-001 1.7076852178e+002
 1.9700000000e+000  1.2556421520e-001 1.6101389530e+002
 1.9800000000e+000  1.2335094904e-001 1.5095645902e+002
 1.9900000000e+000  1.2399091003e-001 1.4099419252e+002
 2.0000000000e+000  1.2726615484e-001 1.3150609434e+002
 2.0100000000e+000  1.3281114461e-001 1.2276356580e+002
 2.0200000000e+000  1.4019386664e-001 1.1489812319e+002
 2.0300000000e+000  1.4898836536e-001 1.0792306323e+002
 2.0400000000e+000  1.5881828962e-001 1.0177755616e+002
 2.0500000000e+000  1.6937280601e-001 9.6366750222e+001
 2.0600000000e+000  1.8040531445e-001 9.1588207257e+001
 2.0700000000e+000  1.9172456928e-001 8.7345791795e+001
 2.0800000000e+000  2.0318400815e-001 8.3555309743e+001
 2.0900000000e+000  2.1467194676e-001 8.0145664278e+001
 2.1000000000e+000  2.2610349839e-001 7.7057944718e+001
 2.1100000000e+000  2.3741425318e-001 7.4243766072e+001
 2.1200000000e+000  2.4855545746e-001 7.1663496359e+001
 2.1300000000e+000  2.5949037573e-001 6.9284640213e+001
 2.1400000000e+000  2.7019155118e-001 6.7080465406e+001
 2.1500000000e+000  2.8063873683e-001 6.5028877016e+001
 2.1600000000e+000  2.9081732399e-001 6.3111511865e+001
 2.1700000000e+000  3.0071713938e-001 6.1313016995e+001
 2.1800000000e+000  3.1033151689e-001 5.9620476988e+001
 2.1900000000e+000  3.1965657481e-001 5.8022959610e+001
 2.2000000000e+000  3.2869064843e-001 5.6511154694e+001
 2.2100000000e+000  3.3743384097e-001 5.5077086220e+001
 2.2200000000e+000  3.4588766534e-001 5.3713881826e+001
 2.2300000000e+000  3.5405475657e-001 5.2415587460e+001
 2.2400000000e+000  3.6193863954e-001 5.1177017595e+001
 2.2500000000e+000  3.6954354034e-001 4.9993633573e+001
 2.2600000000e+000  3.7687423259e-001 4.8861444305e+001
 2.2700000000e+000  3.8393591171e-001 4.7776924783e+001
 2.2800000000e+000  3.9073409194e-001 4.6736948895e+001
 2.2900000000e+000  3.9727452189e-001 4.5738733748e+001
 2.3000000000e+000  4.0356311535e-001 4.4779793306e+001
 2.3100000000e+000  4.0960589466e-001 4.3857899602e+001
 2.3200000000e+000  4.1540894461e-001 4.2971050147e+001
 2.3300000000e+000  4.2097837504e-001 4.2117440415e+001
 2.3400000000e+000  4.2632029086e-001 4.1295440511e+001
 2.3500000000e+000  4.3144076829e-001 4.0503575316e+001
 2.3600000000e+000  4.3634583628e-001 3.9740507506e+001
 2.3700000000e+000  4.4104146253e-001 3.9005022987e+001
 2.3800000000e+000  4.4553354324e-001 3.8296018337e+001
 2.3900000000e+000  4.4982789620e-001 3.7612489948e+001
 2.4000000000e+000  4.5393025674e-001 3.6953524596e+001
 2.4100000000e+000  4.5784627602e-001 3.6318291221e+001
 2.4200000000e+000  4.6158152156e-001 3.5706033738e+001
 2.4300000000e+000  4.6514147954e-001 3.5116064706e+001
 2.4400000000e+000  4.6853155880e-001 3.4547759757e+001
 2.4500000000e+000  4.7175709619e-001 3.4000552641e+001
 2.4600000000e+000  4.7482336325e-001 3.3473930821e+001
 2.4700000000e+000  4.7773557402e-001 3.2967431517e+001
 2.4800000000e+000  4.8049889378e-001 3.2480638140e+001
 2.4900000000e+000  4.8311844883e-001 3.2013177057e+001
 2.5000000000e+000  4.8559933692e-001 3.1564714624e+001
 2.5100000000e+000  4.8794663860e-001 3.1134954445e+001
 2.5200000000e+000  4.9016542909e-001 3.0723634820e+001
 2.5300000000e+000  4.9226079083e-001 3.0330526334e+001
 2.5400000000e+000  4.9423782657e-001 2.9955429552e+001
 2.5500000000e+000  4.9610167288e-001 2.9598172802e+001
 2.5600000000e+000  4.9785751413e-001 2.9258609992e+001
 2.5700000000e+000  4.9951059682e-001 2.8936618452e+001
 2.5800000000e+000  5.0106624413e-001 2.8632096768e+001
 2.5900000000e+000  5.0252987072e-001 2.8344962575e+001
 2.6000000000e+000  5.0390699759e-001 2.8075150291e+001
 2.6100000000e+000  5.0520326698e-001 2.7822608773e+001
 2.6200000000e+000  5.0642445709e-001 2.7587298855e+001
 2.6300000000e+000  5.0757649663e-001 2.7369190764e+001
 2.6400000000e+000  5.0866547888e-001 2.7168261388e+001
 2.6500000000e+000  5.0969767524e-001 2.6984491370e+001
 2.6600000000e+000  5.1067954795e-001 2.6817862020e+001
 2.6700000000e+000  5.1161776191e-001 2.6668352037e+001
 2.6800000000e+000  5.1251919513e-001 2.6535934007e+001
 2.6900000000e+000  5.1339094784e-001 2.6420570697e+001
 2.7000000000e+000  5.1424034968e-001 2.6322211129e+001
 2.7100000000e+000  5.1507496488e-001 2.6240786438e+001
 2.7200000000e+000  5.1590259492e-001 2.6176205524e+001
 2.7300000000e+000  5.1673127846e-001 2.6128350526e+001
 2.7400000000e+000  5.1756928808e-001 2.6097072124e+001
 2.7500000000e+000  5.1842512342e-001 2.6082184721e+001
 2.7600000000e+000  5.1930750046e-001 2.6083461553e+001
 2.7700000000e+000  5.2022533645e-001 2.6100629760e+001
 2.7800000000e+000  5.2118773019e-001 2.6133365519e+001
 2.7900000000e+000  5.2220393727e-001 2.6181289295e+001
 2.8000000000e+000  5.2328334007e-001 2.6243961308e+001
 2.8100000000e+000  5.2443541224e-001 2.6320877323e+001
 2.8200000000e+000  5.2566967745e-001 2.6411464873e+001
 2.8300000000e+000  5.2699566252e-001 2.6515080026e+001
 2.8400000000e+000  5.2842284473e-001 2.6631004835e+001
 2.8500000000e+000  5.2996059378e-001 2.6758445580e+001
 2.8600000000e+000  5.3161810838e-001 2.6896531942e+001
 2.8700000000e+000  5.3340434825e-001 2.7044317205e+001
 2.8800000000e+000  5.3532796191e-001 2.7200779615e+001
 2.8900000000e+000  5.3739721120e-001 2.7364824960e+001
 2.9000000000e+000  5.3961989339e-001 2.7535290444e+001
 2.9100000000e+000  5.4200326206e-001 2.7710949893e+001
 2.9200000000e+000  5.4455394786e-001 2.7890520291e+001
 2.9300000000e+000  5.4727788072e-001 2.8072669618e+001
 2.9400000000e+000  5.5018021468e-001 2.8256025910e+001
 2.9500000000e+000  5.5326525709e-001 2.8439187443e+001
 2.9600000000e+000  5.5653640357e-001 2.8620733883e+001
 2.9700000000e+000  5.5999608012e-001 2.8799238216e+001
 2.9800000000e+000  5.6364569398e-001 2.8973279252e+001
 2.9900000000e+000  5.6748559435e-001 2.9141454460e+001
 3.0000000000e+000  5.7151504408e-001 2.9302392868e+001
 3.0100000000e+000  5.7573220335e-001 2.9454767780e+001
 3.0200000000e+000  5.8013412581e-001 2.9597309031e+001
 3.0300000000e+000  5.8471676768e-001 2.9728814538e+001
 3.0400000000e+000  5.8947500989e-001 2.9848160906e+001
 3.0500000000e+000  5.9440269304e-001 2.9954312889e+001
 3.0600000000e+000  5.9949266474e-001 3.0046331531e+001
 3.0700000000e+000  6.0473683849e-001 3.0123380855e+001
 3.0800000000e+000  6.1012626330e-001 3.0184733008e+001
 3.0900000000e+000  6.1565120258e-001 3.0229771817e+001
 3.1000000000e+000  6.2130122121e-001 3.0257994753e+001
 3.1100000000e+000  6.2706527895e-001 3.0269013332e+001
 3.1200000000e+000  6.3293182888e-001 3.0262552025e+001
 3.1300000000e+000  6.3888891898e-001 3.0238445795e+001
 3.1400000000e+000  6.4492429534e-001 3.0196636360e+001
 3.1500000000e+000  6.5102550530e-001 3.0137167363e+001
 3.1600000000e+000  6.5717999900e-001 3.0060178581e+001
 3.1700000000e+000  6.6337522790e-001 2.9965899366e+001
 3.1800000000e+000  6.6959873907e-001 2.9854641466e+001
 3.1900000000e+000  6.7583826389e-001 2.9726791409e+001
 3.2000000000e+000  6.8208180054e-001 2.9582802603e+001
 3.2100000000e+000  6.8831768911e-001 2.9423187299e+001
 3.2200000000e+000  6.9453467908e-001 2.9248508556e+001
 3.2300000000e+000  7.0072198861e-001 2.9059372332e+001
 3.2400000000e+000  7.0686935534e-001 2.8856419789e+001
 3.2500000000e+000  7.1296707878e-001 2.8640319924e+001
 3.2600000000e+000  7.1900605437e-001 2.8411762581e+001
 3.2700000000e+000  7.2497779921e-001 2.8171451899e+001
 3.2800000000e+000  7.3087447016e-001 2.7920100248e+001
 3.2900000000e+000  7.3668887443e-001 2.7658422675e+001
 3.3000000000e+000  7.4241447329e-001 2.7387131866e+001
 3.3100000000e+000  7.4804537962e-001 2.7106933649e+001
 3.3200000000e+000  7.5357634958e-001 2.6818523007e+001
 3.3300000000e+000  7.5900276942e-001 2.6522580616e+001
 3.3400000000e+000  7.6432063779e-001 2.6219769865e+001
 3.3500000000e+000  7.6952654437e-001 2.5910734343e+001
 3.3600000000e+000  7.7461764533e-001 2.5596095776e+001
 3.3700000000e+000  7.7959163634e-001 2.5276452362e+001
 3.3800000000e+000  7.8444672358e-001 2.4952377488e+001
 3.3900000000e+000  7.8918159339e-001 2.4624418788e+001
 3.4000000000e+000  7.9379538096e-001 2.4293097515e+001
 3.4100000000e+000  7.9828763855e-001 2.3958908187e+001
 3.4200000000e+000  8.0265830362e-001 2.3622318478e+001
 3.4300000000e+000  8.0690766719e-001 2.3283769325e+001
 3.4400000000e+000  8.1103634272e-001 2.2943675222e+001
 3.4500000000e+000  8.1504523587e-001 2.2602424672e+001
 3.4600000000e+000  8.1893551517e-001 2.2260380769e+001
 3.4700000000e+000  8.2270858387e-001 2.1917881896e+001
 3.4800000000e+000  8.2636605315e-001 2.1575242509e+001
 3.4900000000e+000  8.2990971665e-001 2.1232753994e+001
 3.5000000000e+000  8.3334152648e-001 2.0890685573e+001
 3.5100000000e+000  8.3666357076e-001 2.0549285252e+001
 3.5200000000e+000  8.3987805266e-001 2.0208780797e+001
 3.5300000000e+000  8.4298727090e-001 1.9869380712e+001
 3.5400000000e+000  8.4599360183e-001 1.9531275234e+001
 3.5500000000e+000  8.4889948293e-001 1.9194637315e+001
 3.5600000000e+000  8.5170739770e-001 1.8859623591e+001
 3.5700000000e+000  8.5441986195e-001 1.8526375341e+001
 3.5800000000e+000  8.5703941138e-001 1.8195019409e+001
 3.5900000000e+000  8.5956859038e-001 1.7865669111e+001
 3.6000000000e+000  8.6200994202e-001 1.7538425107e+001
 3.6100000000e+000  8.6436599910e-001 1.7213376238e+001
 3.6200000000e+000  8.6663927626e-001 1.6890600332e+001
 3.6300000000e+000  8.6883226303e-001 1.6570164973e+001
 3.6400000000e+000  8.7094741775e-001 1.6252128232e+001
 3.6500000000e+000  8.7298716233e-001 1.5936539366e+001
 3.6600000000e+000  8.7495387771e-001 1.5623439476e+001
 3.6700000000e+000  8.7684990007e-001 1.5312862132e+001
 3.6800000000e+000  8.7867751760e-001 1.5004833960e+001
 3.6900000000e+000  8.8043896788e-001 1.4699375199e+001
 3.7000000000e+000  8.8213643577e-001 1.4396500220e+001
 3.7100000000e+000  8.8377205170e-001 1.4096218015e+001
 3.7200000000e+000  8.8534789049e-001 1.3798532655e+001
 3.7300000000e+000  8.8686597041e-001 1.3503443718e+001
 3.7400000000e+000  8.8832825269e-001 1.3210946689e+001
 3.7500000000e+000  8.8973664123e-001 1.2921033329e+001
 3.7600000000e+000  8.9109298258e-001 1.2633692029e+001
 3.7700000000e+000  8.9239906625e-001 1.2348908123e+001
 3.7800000000e+000  8.9365662504e-001 1.2066664197e+001
 3.7900000000e+000  8.9486733570e-001 1.1786940357e+001
 3.8000000000e+000  8.9603281964e-001 1.1509714494e+001
 3.8100000000e+000  8.9715464382e-001 1.1234962519e+001
 3.8200000000e+000  8.9823432171e-001 1.0962658579e+001
 3.8300000000e+000  8.9927331434e-001 1.0692775267e+001
 3.8400000000e+000  9.0027303144e-001 1.0425283803e+001
 3.8500000000e+000  9.0123483266e-001 1.0160154209e+001
 3.8600000000e+000  9.0216002875e-001 9.8973554674e+000
 3.8700000000e+000  9.0304988287e-001 9.6368556643e+000
 3.8800000000e+000  9.0390561186e-001 9.3786221256e+000
 3.8900000000e+000  9.0472838758e-001 9.1226215375e+000
 3.9000000000e+000  9.0551933819e-001 8.8688200592e+000
 3.9100000000e+000  9.0627954950e-001 8.6171834245e+000
