! IGNION VIRTUAL ANTENNA LIBRARY
!
! NN_RUN_B70x40_C40x11
! Virtual Antenna™ RUN mXTEND™: NN02-224 12.0 mm x 3.0 mm x 2.4 mm
! https://ignion.io/product/run-mxtend/
! Board: 70 mm x 40 mm
! Clearance Area: 40 mm x 11 mm
! Feeding line: L-shape; 11mm x 2mm and 5mm x 2mm
! Applications: Fleet management, IoT
! Frequency range 0.65GHz to 6GHz, step 10MHz
! Number of ports 1
!
! This product and its use is protected by at least one or more of the following patents and patent
! applications US 8,203,492 B2; US 8,237,615 B2; PCT/EP2013/064692; WO 2014/012842 A1; US 2019/190122 A1;
! US 62/072,671; and other domestic and international patents pending. Additional information about
! patents related to this product is available at https://ignion.io/files/Patent-list-NN.pdf, all
! rights reserved. Copyright, Ignion 2021.
!
! Need more help? Your platform is much different than these examples in the manual? Use our 
! Fast Track service (https://ignion.io/fast-track/), for free, and get a personalized antenna design in
! just 24 hours.
!
! 
! Touchstone port 1 = "Series Port"
!
! IE3D S-Parameters Output Version 2.0  
# GHZ S MA R 50
! Nport = 1
!

 6.5000000000e-001  9.9166618724e-001 -1.6726754016e+001
 6.6000000000e-001  9.9133568732e-001 -1.7051057960e+001
 6.7000000000e-001  9.9098942363e-001 -1.7379077754e+001
 6.8000000000e-001  9.9062649928e-001 -1.7710926284e+001
 6.9000000000e-001  9.9024596504e-001 -1.8046719805e+001
 7.0000000000e-001  9.8984681603e-001 -1.8386578052e+001
 7.1000000000e-001  9.8942798827e-001 -1.8730624354e+001
 7.2000000000e-001  9.8898835501e-001 -1.9078985747e+001
 7.3000000000e-001  9.8852672282e-001 -1.9431793087e+001
 7.4000000000e-001  9.8804182743e-001 -1.9789181169e+001
 7.5000000000e-001  9.8753232931e-001 -2.0151288844e+001
 7.6000000000e-001  9.8699680897e-001 -2.0518259129e+001
 7.7000000000e-001  9.8643376200e-001 -2.0890239327e+001
 7.8000000000e-001  9.8584159377e-001 -2.1267381136e+001
 7.9000000000e-001  9.8521861379e-001 -2.1649840762e+001
 8.0000000000e-001  9.8456302980e-001 -2.2037779021e+001
 8.1000000000e-001  9.8387294146e-001 -2.2431361447e+001
 8.2000000000e-001  9.8314633362e-001 -2.2830758382e+001
 8.3000000000e-001  9.8238106934e-001 -2.3236145065e+001
 8.4000000000e-001  9.8157488235e-001 -2.3647701712e+001
 8.5000000000e-001  9.8072536921e-001 -2.4065613584e+001
 8.6000000000e-001  9.7982998097e-001 -2.4490071036e+001
 8.7000000000e-001  9.7888601446e-001 -2.4921269561e+001
 8.8000000000e-001  9.7789060302e-001 -2.5359409806e+001
 8.9000000000e-001  9.7684070688e-001 -2.5804697569e+001
 9.0000000000e-001  9.7573310304e-001 -2.6257343774e+001
 9.1000000000e-001  9.7456437462e-001 -2.6717564409e+001
 9.2000000000e-001  9.7333089993e-001 -2.7185580436e+001
 9.3000000000e-001  9.7202884088e-001 -2.7661617666e+001
 9.4000000000e-001  9.7065413114e-001 -2.8145906575e+001
 9.5000000000e-001  9.6920246385e-001 -2.8638682085e+001
 9.6000000000e-001  9.6766927896e-001 -2.9140183280e+001
 9.7000000000e-001  9.6604975027e-001 -2.9650653056e+001
 9.8000000000e-001  9.6433877234e-001 -3.0170337699e+001
 9.9000000000e-001  9.6253094710e-001 -3.0699486384e+001
 1.0000000000e+000  9.6062057056e-001 -3.1238350571e+001
 1.0100000000e+000  9.5860161954e-001 -3.1787183309e+001
 1.0200000000e+000  9.5646773868e-001 -3.2346238413e+001
 1.0300000000e+000  9.5421222786e-001 -3.2915769517e+001
 1.0400000000e+000  9.5182803030e-001 -3.3496028983e+001
 1.0500000000e+000  9.4930772157e-001 -3.4087266648e+001
 1.0600000000e+000  9.4664349978e-001 -3.4689728398e+001
 1.0700000000e+000  9.4382717739e-001 -3.5303654547e+001
 1.0800000000e+000  9.4085017488e-001 -3.5929278004e+001
 1.0900000000e+000  9.3770351694e-001 -3.6566822214e+001
 1.1000000000e+000  9.3437783147e-001 -3.7216498841e+001
 1.1100000000e+000  9.3086335218e-001 -3.7878505189e+001
 1.1200000000e+000  9.2714992519e-001 -3.8553021322e+001
 1.1300000000e+000  9.2322702058e-001 -3.9240206882e+001
 1.1400000000e+000  9.1908374949e-001 -3.9940197571e+001
 1.1500000000e+000  9.1470888759e-001 -4.0653101287e+001
 1.1600000000e+000  9.1009090594e-001 -4.1378993900e+001
 1.1700000000e+000  9.0521801003e-001 -4.2117914640e+001
 1.1800000000e+000  9.0007818803e-001 -4.2869861116e+001
 1.1900000000e+000  8.9465926920e-001 -4.3634783935e+001
 1.2000000000e+000  8.8894899343e-001 -4.4412580938e+001
 1.2100000000e+000  8.8293509280e-001 -4.5203091070e+001
 1.2200000000e+000  8.7660538601e-001 -4.6006087887e+001
 1.2300000000e+000  8.6994788647e-001 -4.6821272747e+001
 1.2400000000e+000  8.6295092435e-001 -4.7648267726e+001
 1.2500000000e+000  8.5560328318e-001 -4.8486608320e+001
 1.2600000000e+000  8.4789435077e-001 -4.9335736000e+001
 1.2700000000e+000  8.3981428406e-001 -5.0194990735e+001
 1.2800000000e+000  8.3135418729e-001 -5.1063603577e+001
 1.2900000000e+000  8.2250630177e-001 -5.1940689450e+001
 1.3000000000e+000  8.1326420571e-001 -5.2825240306e+001
 1.3100000000e+000  8.0362302120e-001 -5.3716118811e+001
 1.3200000000e+000  7.9357962532e-001 -5.4612052766e+001
 1.3300000000e+000  7.8313286140e-001 -5.5511630474e+001
 1.3400000000e+000  7.7228374576e-001 -5.6413297277e+001
 1.3500000000e+000  7.6103566484e-001 -5.7315353515e+001
 1.3600000000e+000  7.4939455689e-001 -5.8215954141e+001
 1.3700000000e+000  7.3736907215e-001 -5.9113110246e+001
 1.3800000000e+000  7.2497070507e-001 -6.0004692734e+001
 1.3900000000e+000  7.1221389242e-001 -6.0888438376e+001
 1.4000000000e+000  6.9911607099e-001 -6.1761958448e+001
 1.4100000000e+000  6.8569768940e-001 -6.2622750135e+001
 1.4200000000e+000  6.7198216930e-001 -6.3468210842e+001
 1.4300000000e+000  6.5799581226e-001 -6.4295655512e+001
 1.4400000000e+000  6.4376765002e-001 -6.5102336996e+001
 1.4500000000e+000  6.2932923723e-001 -6.5885469477e+001
 1.4600000000e+000  6.1471438779e-001 -6.6642254877e+001
 1.4700000000e+000  5.9995885725e-001 -6.7369912111e+001
 1.4800000000e+000  5.8509997569e-001 -6.8065709006e+001
 1.4900000000e+000  5.7017623717e-001 -6.8726996597e+001
 1.5000000000e+000  5.5522685321e-001 -6.9351245460e+001
 1.5100000000e+000  5.4029127886e-001 -6.9936083677e+001
 1.5200000000e+000  5.2540872097e-001 -7.0479335888e+001
 1.5300000000e+000  5.1061763878e-001 -7.0979062871e+001
 1.5400000000e+000  4.9595524695e-001 -7.1433600935e+001
 1.5500000000e+000  4.8145703131e-001 -7.1841600340e+001
 1.5600000000e+000  4.6715628690e-001 -7.2202061857e+001
 1.5700000000e+000  4.5308368735e-001 -7.2514370478e+001
 1.5800000000e+000  4.3926689366e-001 -7.2778325211e+001
 1.5900000000e+000  4.2573020948e-001 -7.2994163813e+001
 1.6000000000e+000  4.1249428876e-001 -7.3162581313e+001
 1.6100000000e+000  3.9957590058e-001 -7.3284741153e+001
 1.6200000000e+000  3.8698775469e-001 -7.3362277892e+001
 1.6300000000e+000  3.7473839012e-001 -7.3397290522e+001
 1.6400000000e+000  3.6283212785e-001 -7.3392325685e+001
 1.6500000000e+000  3.5126908757e-001 -7.3350350367e+001
 1.6600000000e+000  3.4004526699e-001 -7.3274713979e+001
 1.6700000000e+000  3.2915268110e-001 -7.3169100175e+001
 1.6800000000e+000  3.1857955749e-001 -7.3037469134e+001
 1.6900000000e+000  3.0831058270e-001 -7.2883991456e+001
 1.7000000000e+000  2.9832719328e-001 -7.2712975166e+001
 1.7100000000e+000  2.8860790453e-001 -7.2528787551e+001
 1.7200000000e+000  2.7912866907e-001 -7.2335773705e+001
 1.7300000000e+000  2.6986325686e-001 -7.2138173577e+001
 1.7400000000e+000  2.6078364818e-001 -7.1940039134e+001
 1.7500000000e+000  2.5186043134e-001 -7.1745152829e+001
 1.7600000000e+000  2.4306319739e-001 -7.1556947993e+001
 1.7700000000e+000  2.3436092475e-001 -7.1378430976e+001
 1.7800000000e+000  2.2572234803e-001 -7.1212103921e+001
 1.7900000000e+000  2.1711630652e-001 -7.1059885836e+001
 1.8000000000e+000  2.0851206899e-001 -7.0923028114e+001
 1.8100000000e+000  1.9987963343e-001 -7.0802018748e+001
 1.8200000000e+000  1.9119000137e-001 -7.0696466764e+001
 1.8300000000e+000  1.8241542842e-001 -7.0604954675e+001
 1.8400000000e+000  1.7352965401e-001 -7.0524841002e+001
 1.8500000000e+000  1.6450811556e-001 -7.0451986068e+001
 1.8600000000e+000  1.5532815454e-001 -7.0380359842e+001
 1.8700000000e+000  1.4596922568e-001 -7.0301466554e+001
 1.8800000000e+000  1.3641312665e-001 -7.0203479032e+001
 1.8900000000e+000  1.2664427573e-001 -7.0069900826e+001
 1.9000000000e+000  1.1665008508e-001 -6.9877434014e+001
 1.9100000000e+000  1.0642151543e-001 -6.9592456004e+001
 1.9200000000e+000  9.5953979461e-002 -6.9164940673e+001
 1.9300000000e+000  8.5248941420e-002 -6.8517407451e+001
 1.9400000000e+000  7.4316996660e-002 -6.7523507552e+001
 1.9500000000e+000  6.3184372387e-002 -6.5963123419e+001
 1.9600000000e+000  5.1908257399e-002 -6.3418470529e+001
 1.9700000000e+000  4.0618426042e-002 -5.9002348061e+001
 1.9800000000e+000  2.9652932728e-002 -5.0541375045e+001
 1.9900000000e+000  2.0099681029e-002 -3.2018091494e+001
 2.0000000000e+000  1.5659456192e-002 6.9253093889e+000
 2.0100000000e+000  2.0590317176e-002 4.5666215973e+001
 2.0200000000e+000  3.0994365307e-002 6.3955713155e+001
 2.0300000000e+000  4.3299192645e-002 7.2200372307e+001
 2.0400000000e+000  5.6433985452e-002 7.6365227182e+001
 2.0500000000e+000  7.0052739436e-002 7.8605708629e+001
 2.0600000000e+000  8.4009534319e-002 7.9803306966e+001
 2.0700000000e+000  9.8226134799e-002 8.0374067210e+001
 2.0800000000e+000  1.1265130115e-001 8.0537902982e+001
 2.0900000000e+000  1.2724587981e-001 8.0421689582e+001
 2.1000000000e+000  1.4197659264e-001 8.0103864710e+001
 2.1100000000e+000  1.5681321535e-001 7.9635721213e+001
 2.1200000000e+000  1.7172723303e-001 7.9052408289e+001
 2.1300000000e+000  1.8669119803e-001 7.8378992166e+001
 2.1400000000e+000  2.0167844516e-001 7.7633976358e+001
 2.1500000000e+000  2.1666299737e-001 7.6831438724e+001
 2.1600000000e+000  2.3161957563e-001 7.5982378236e+001
 2.1700000000e+000  2.4652366511e-001 7.5095591282e+001
 2.1800000000e+000  2.6135161011e-001 7.4178257819e+001
 2.1900000000e+000  2.7608072032e-001 7.3236343066e+001
 2.2000000000e+000  2.9068937768e-001 7.2274878727e+001
 2.2100000000e+000  3.0515713662e-001 7.1298163722e+001
 2.2200000000e+000  3.1946481298e-001 7.0309910039e+001
 2.2300000000e+000  3.3359455856e-001 6.9313350470e+001
 2.2400000000e+000  3.4752991954e-001 6.8311319511e+001
 2.2500000000e+000  3.6125587796e-001 6.7306315068e+001
 2.2600000000e+000  3.7475887597e-001 6.6300546291e+001
 2.2700000000e+000  3.8802682350e-001 6.5295971279e+001
 2.2800000000e+000  4.0104909002e-001 6.4294327300e+001
 2.2900000000e+000  4.1381648182e-001 6.3297155447e+001
 2.3000000000e+000  4.2632120609e-001 6.2305821107e+001
 2.3100000000e+000  4.3855682353e-001 6.1321531260e+001
 2.3200000000e+000  4.5051819125e-001 6.0345349344e+001
 2.3300000000e+000  4.6220139751e-001 5.9378208231e+001
 2.3400000000e+000  4.7360369028e-001 5.8420921722e+001
 2.3500000000e+000  4.8472340100e-001 5.7474194852e+001
 2.3600000000e+000  4.9555986532e-001 5.6538633237e+001
 2.3700000000e+000  5.0611334202e-001 5.5614751605e+001
 2.3800000000e+000  5.1638493157e-001 5.4702981661e+001
 2.3900000000e+000  5.2637649525e-001 5.3803679353e+001
 2.4000000000e+000  5.3609057599e-001 5.2917131618e+001
 2.4100000000e+000  5.4553032155e-001 5.2043562658e+001
 2.4200000000e+000  5.5469941078e-001 5.1183139787e+001
 2.4300000000e+000  5.6360198347e-001 5.0335978874e+001
 2.4400000000e+000  5.7224257416e-001 4.9502149416e+001
 2.4500000000e+000  5.8062605007e-001 4.8681679261e+001
 2.4600000000e+000  5.8875755357e-001 4.7874558993e+001
 2.4700000000e+000  5.9664244892e-001 4.7080746002e+001
 2.4800000000e+000  6.0428627358e-001 4.6300168257e+001
 2.4900000000e+000  6.1169469380e-001 4.5532727787e+001
 2.5000000000e+000  6.1887346451e-001 4.4778303902e+001
 2.5100000000e+000  6.2582839330e-001 4.4036756143e+001
 2.5200000000e+000  6.3256530829e-001 4.3307927005e+001
 2.5300000000e+000  6.3909002965e-001 4.2591644419e+001
 2.5400000000e+000  6.4540834466e-001 4.1887724029e+001
 2.5500000000e+000  6.5152598593e-001 4.1195971258e+001
 2.5600000000e+000  6.5744861265e-001 4.0516183195e+001
 2.5700000000e+000  6.6318179456e-001 3.9848150297e+001
 2.5800000000e+000  6.6873099842e-001 3.9191657937e+001
 2.5900000000e+000  6.7410157688e-001 3.8546487788e+001
 2.6000000000e+000  6.7929875927e-001 3.7912419080e+001
 2.6100000000e+000  6.8432764437e-001 3.7289229716e+001
 2.6200000000e+000  6.8919319487e-001 3.6676697275e+001
 2.6300000000e+000  6.9390023322e-001 3.6074599900e+001
 2.6400000000e+000  6.9845343897e-001 3.5482717090e+001
 2.6500000000e+000  7.0285734711e-001 3.4900830399e+001
 2.6600000000e+000  7.0711634764e-001 3.4328724044e+001
 2.6700000000e+000  7.1123468587e-001 3.3766185446e+001
 2.6800000000e+000  7.1521646363e-001 3.3213005693e+001
 2.6900000000e+000  7.1906564110e-001 3.2668979948e+001
 2.7000000000e+000  7.2278603926e-001 3.2133907785e+001
 2.7100000000e+000  7.2638134281e-001 3.1607593493e+001
 2.7200000000e+000  7.2985510355e-001 3.1089846313e+001
 2.7300000000e+000  7.3321074406e-001 3.0580480646e+001
 2.7400000000e+000  7.3645156175e-001 3.0079316217e+001
 2.7500000000e+000  7.3958073305e-001 2.9586178206e+001
 2.7600000000e+000  7.4260131790e-001 2.9100897345e+001
 2.7700000000e+000  7.4551626428e-001 2.8623309994e+001
 2.7800000000e+000  7.4832841297e-001 2.8153258181e+001
 2.7900000000e+000  7.5104050227e-001 2.7690589634e+001
 2.8000000000e+000  7.5365517286e-001 2.7235157776e+001
 2.8100000000e+000  7.5617497268e-001 2.6786821715e+001
 2.8200000000e+000  7.5860236178e-001 2.6345446212e+001
 2.8300000000e+000  7.6093971720e-001 2.5910901633e+001
 2.8400000000e+000  7.6318933779e-001 2.5483063891e+001
 2.8500000000e+000  7.6535344905e-001 2.5061814371e+001
 2.8600000000e+000  7.6743420789e-001 2.4647039847e+001
 2.8700000000e+000  7.6943370729e-001 2.4238632391e+001
 2.8800000000e+000  7.7135398098e-001 2.3836489262e+001
 2.8900000000e+000  7.7319700801e-001 2.3440512798e+001
 2.9000000000e+000  7.7496471719e-001 2.3050610293e+001
 2.9100000000e+000  7.7665899155e-001 2.2666693863e+001
 2.9200000000e+000  7.7828167261e-001 2.2288680313e+001
 2.9300000000e+000  7.7983456462e-001 2.1916490985e+001
 2.9400000000e+000  7.8131943865e-001 2.1550051609e+001
 2.9500000000e+000  7.8273803661e-001 2.1189292137e+001
 2.9600000000e+000  7.8409207515e-001 2.0834146577e+001
 2.9700000000e+000  7.8538324942e-001 2.0484552814e+001
 2.9800000000e+000  7.8661323671e-001 2.0140452426e+001
 2.9900000000e+000  7.8778370000e-001 1.9801790494e+001
 3.0000000000e+000  7.8889629130e-001 1.9468515400e+001
 3.0100000000e+000  7.8995265493e-001 1.9140578619e+001
 3.0200000000e+000  7.9095443053e-001 1.8817934505e+001
 3.0300000000e+000  7.9190325603e-001 1.8500540069e+001
 3.0400000000e+000  7.9280077036e-001 1.8188354746e+001
 3.0500000000e+000  7.9364861600e-001 1.7881340156e+001
 3.0600000000e+000  7.9444844137e-001 1.7579459860e+001
 3.0700000000e+000  7.9520190294e-001 1.7282679107e+001
 3.0800000000e+000  7.9591066719e-001 1.6990964571e+001
 3.0900000000e+000  7.9657641235e-001 1.6704284087e+001
 3.1000000000e+000  7.9720082981e-001 1.6422606375e+001
 3.1100000000e+000  7.9778562539e-001 1.6145900763e+001
 3.1200000000e+000  7.9833252028e-001 1.5874136905e+001
 3.1300000000e+000  7.9884325173e-001 1.5607284491e+001
 3.1400000000e+000  7.9931957347e-001 1.5345312958e+001
 3.1500000000e+000  7.9976325578e-001 1.5088191196e+001
 3.1600000000e+000  8.0017608538e-001 1.4835887256e+001
 3.1700000000e+000  8.0055986485e-001 1.4588368061e+001
 3.1800000000e+000  8.0091641190e-001 1.4345599109e+001
 3.1900000000e+000  8.0124755821e-001 1.4107544191e+001
 3.2000000000e+000  8.0155514802e-001 1.3874165109e+001
 3.2100000000e+000  8.0184103635e-001 1.3645421401e+001
 3.2200000000e+000  8.0210708695e-001 1.3421270076e+001
 3.2300000000e+000  8.0235516996e-001 1.3201665364e+001
 3.2400000000e+000  8.0258715917e-001 1.2986558470e+001
 3.2500000000e+000  8.0280492911e-001 1.2775897351e+001
 3.2600000000e+000  8.0301035179e-001 1.2569626509e+001
 3.2700000000e+000  8.0320529324e-001 1.2367686801e+001
 3.2800000000e+000  8.0339160971e-001 1.2170015269e+001
 3.2900000000e+000  8.0357114379e-001 1.1976544999e+001
 3.3000000000e+000  8.0374572026e-001 1.1787204998e+001
 3.3100000000e+000  8.0391714174e-001 1.1601920102e+001
 3.3200000000e+000  8.0408718434e-001 1.1420610911e+001
 3.3300000000e+000  8.0425759307e-001 1.1243193753e+001
 3.3400000000e+000  8.0443007727e-001 1.1069580675e+001
 3.3500000000e+000  8.0460630602e-001 1.0899679473e+001
 3.3600000000e+000  8.0478790351e-001 1.0733393745e+001
 3.3700000000e+000  8.0497644451e-001 1.0570622979e+001
 3.3800000000e+000  8.0517344988e-001 1.0411262678e+001
 3.3900000000e+000  8.0538038228e-001 1.0255204505e+001
 3.4000000000e+000  8.0559864197e-001 1.0102336468e+001
 3.4100000000e+000  8.0582956287e-001 9.9525431285e+000
 3.4200000000e+000  8.0607440883e-001 9.8057058439e+000
 3.4300000000e+000  8.0633437020e-001 9.6617030284e+000
 3.4400000000e+000  8.0661056066e-001 9.5204104442e+000
 3.4500000000e+000  8.0690401442e-001 9.3817015116e+000
 3.4600000000e+000  8.0721568379e-001 9.2454476390e+000
 3.4700000000e+000  8.0754643706e-001 9.1115185702e+000
 3.4800000000e+000  8.0789705684e-001 8.9797827441e+000
 3.4900000000e+000  8.0826823877e-001 8.8501076664e+000
 3.5000000000e+000  8.0866059068e-001 8.7223602880e+000
 3.5100000000e+000  8.0907463211e-001 8.5964073877e+000
 3.5200000000e+000  8.0951079432e-001 8.4721159569e+000
 3.5300000000e+000  8.0996942067e-001 8.3493535817e+000
 3.5400000000e+000  8.1045076741e-001 8.2279888197e+000
 3.5500000000e+000  8.1095500488e-001 8.1078915704e+000
 3.5600000000e+000  8.1148221908e-001 7.9889334325e+000
 3.5700000000e+000  8.1203241361e-001 7.8709880507e+000
 3.5800000000e+000  8.1260551190e-001 7.7539314441e+000
 3.5900000000e+000  8.1320135986e-001 7.6376423193e+000
 3.6000000000e+000  8.1381972868e-001 7.5220023616e+000
 3.6100000000e+000  8.1446031800e-001 7.4068965067e+000
 3.6200000000e+000  8.1512275923e-001 7.2922131891e+000
 3.6300000000e+000  8.1580661916e-001 7.1778445661e+000
 3.6400000000e+000  8.1651140360e-001 7.0636867191e+000
 3.6500000000e+000  8.1723656130e-001 6.9496398284e+000
 3.6600000000e+000  8.1798148788e-001 6.8356083242e+000
 3.6700000000e+000  8.1874552988e-001 6.7215010116e+000
 3.6800000000e+000  8.1952798884e-001 6.6072311711e+000
 3.6900000000e+000  8.2032812537e-001 6.4927166356e+000
 3.7000000000e+000  8.2114516330e-001 6.3778798426e+000
 3.7100000000e+000  8.2197829369e-001 6.2626478646e+000
 3.7200000000e+000  8.2282667887e-001 6.1469524177e+000
 3.7300000000e+000  8.2368945636e-001 6.0307298490e+000
 3.7400000000e+000  8.2456574270e-001 5.9139211060e+000
 3.7500000000e+000  8.2545463718e-001 5.7964716866e+000
 3.7600000000e+000  8.2635522544e-001 5.6783315735e+000
 3.7700000000e+000  8.2726658294e-001 5.5594551536e+000
 3.7800000000e+000  8.2818777829e-001 5.4398011224e+000
 3.7900000000e+000  8.2911787636e-001 5.3193323781e+000
 3.8000000000e+000  8.3005594134e-001 5.1980159031e+000
 3.8100000000e+000  8.3100103951e-001 5.0758226371e+000
 3.8200000000e+000  8.3195224195e-001 4.9527273417e+000
 3.8300000000e+000  8.3290862700e-001 4.8287084585e+000
 3.8400000000e+000  8.3386928255e-001 4.7037479616e+000
 3.8500000000e+000  8.3483330822e-001 4.5778312054e+000
 3.8600000000e+000  8.3579981734e-001 4.4509467694e+000
 3.8700000000e+000  8.3676793867e-001 4.3230863011e+000
 3.8800000000e+000  8.3773681815e-001 4.1942443569e+000
 3.8900000000e+000  8.3870562030e-001 4.0644182429e+000
 3.9000000000e+000  8.3967352958e-001 3.9336078563e+000
 3.9100000000e+000  8.4063975154e-001 3.8018155274e+000
