! IGNION VIRTUAL ANTENNA LIBRARY
!
! NN_RUN_B120x60_C60x11
! Virtual Antenna™ RUN mXTEND™: NN02-224 12.0 mm x 3.0 mm x 2.4 mm
! https://ignion.io/product/run-mxtend/
! Board: 120 mm x 60 mm
! Clearance Area: 60 mm x 11 mm
! Feeding line: L-shape; 11mm x 2mm and 5mm x 2mm
! Applications: Smartphone, Fleet management, IoT
! Frequency range 0.65GHz to 6GHz, step 10MHz
! Number of ports 1
!
! This product and its use is protected by at least one or more of the following patents and patent
! applications US 8,203,492 B2; US 8,237,615 B2; PCT/EP2013/064692; WO 2014/012842 A1; US 2019/190122 A1;
! US 62/072,671; and other domestic and international patents pending. Additional information about
! patents related to this product is available at https://ignion.io/files/Patent-list-NN.pdf, all
! rights reserved. Copyright, Ignion 2021.
!
! Need more help? Your platform is much different than these examples in the manual? Use our 
! Fast Track service (https://ignion.io/fast-track/), for free, and get a personalized antenna design in
! just 24 hours.
!
!
! Touchstone port 1 = "Series Port"
!
! IE3D S-Parameters Output Version 2.0
# GHZ S MA R 50
! Nport = 1
!

 6.5000000000e-001  9.8450473585e-001 -1.7764593448e+001
 6.6000000000e-001  9.8348072258e-001 -1.8128148407e+001
 6.7000000000e-001  9.8237714932e-001 -1.8496089876e+001
 6.8000000000e-001  9.8118798623e-001 -1.8868368079e+001
 6.9000000000e-001  9.7990692740e-001 -1.9244897791e+001
 7.0000000000e-001  9.7852743113e-001 -1.9625552629e+001
 7.1000000000e-001  9.7704277744e-001 -2.0010158869e+001
 7.2000000000e-001  9.7544614643e-001 -2.0398488858e+001
 7.3000000000e-001  9.7373072123e-001 -2.0790254151e+001
 7.4000000000e-001  9.7188981952e-001 -2.1185098576e+001
 7.5000000000e-001  9.6991705731e-001 -2.1582591522e+001
 7.6000000000e-001  9.6780654839e-001 -2.1982221817e+001
 7.7000000000e-001  9.6555314162e-001 -2.2383392722e+001
 7.8000000000e-001  9.6315269679e-001 -2.2785418652e+001
 7.9000000000e-001  9.6060239732e-001 -2.3187524386e+001
 8.0000000000e-001  9.5790109478e-001 -2.3588847640e+001
 8.1000000000e-001  9.5504967598e-001 -2.3988445950e+001
 8.2000000000e-001  9.5205143830e-001 -2.4385308835e+001
 8.3000000000e-001  9.4891245331e-001 -2.4778376161e+001
 8.4000000000e-001  9.4564189286e-001 -2.5166563386e+001
 8.5000000000e-001  9.4225228650e-001 -2.5548794089e+001
 8.6000000000e-001  9.3875967556e-001 -2.5924039592e+001
 8.7000000000e-001  9.3518362809e-001 -2.6291364857e+001
 8.8000000000e-001  9.3154708188e-001 -2.6649978981e+001
 8.9000000000e-001  9.2787599016e-001 -2.6999287758e+001
 9.0000000000e-001  9.2419875762e-001 -2.7338944933e+001
 9.1000000000e-001  9.2054547164e-001 -2.7668898191e+001
 9.2000000000e-001  9.1694695424e-001 -2.7989425644e+001
 9.3000000000e-001  9.1343368166e-001 -2.8301158825e+001
 9.4000000000e-001  9.1003463718e-001 -2.8605088996e+001
 9.5000000000e-001  9.0677617580e-001 -2.8902554879e+001
 9.6000000000e-001  9.0368098359e-001 -2.9195211648e+001
 9.7000000000e-001  9.0076720921e-001 -2.9484982858e+001
 9.8000000000e-001  8.9804782908e-001 -2.9773998731e+001
 9.9000000000e-001  8.9553028555e-001 -3.0064525559e+001
 1.0000000000e+000  8.9321640975e-001 -3.0358891662e+001
 1.0100000000e+000  8.9110261461e-001 -3.0659415398e+001
 1.0200000000e+000  8.8918032025e-001 -3.0968340071e+001
 1.0300000000e+000  8.8743655824e-001 -3.1287779436e+001
 1.0400000000e+000  8.8585469264e-001 -3.1619676132e+001
 1.0500000000e+000  8.8441519603e-001 -3.1965773893e+001
 1.0600000000e+000  8.8309642432e-001 -3.2327603132e+001
 1.0700000000e+000  8.8187534491e-001 -3.2706478481e+001
 1.0800000000e+000  8.8072818532e-001 -3.3103506248e+001
 1.0900000000e+000  8.7963098185e-001 -3.3519599431e+001
 1.1000000000e+000  8.7856001978e-001 -3.3955497950e+001
 1.1100000000e+000  8.7749216518e-001 -3.4411791923e+001
 1.1200000000e+000  8.7640509582e-001 -3.4888946175e+001
 1.1300000000e+000  8.7527744250e-001 -3.5387324535e+001
 1.1400000000e+000  8.7408885466e-001 -3.5907212870e+001
 1.1500000000e+000  8.7282000442e-001 -3.6448840167e+001
 1.1600000000e+000  8.7145254301e-001 -3.7012397244e+001
 1.1700000000e+000  8.6996902179e-001 -3.7598052945e+001
 1.1800000000e+000  8.6835278881e-001 -3.8205967806e+001
 1.1900000000e+000  8.6658786955e-001 -3.8836305317e+001
 1.2000000000e+000  8.6465883933e-001 -3.9489240969e+001
 1.2100000000e+000  8.6255069252e-001 -4.0164969318e+001
 1.2200000000e+000  8.6024871320e-001 -4.0863709299e+001
 1.2300000000e+000  8.5773834987e-001 -4.1585708023e+001
 1.2400000000e+000  8.5500509680e-001 -4.2331243266e+001
 1.2500000000e+000  8.5203438320e-001 -4.3100624839e+001
 1.2600000000e+000  8.4881147144e-001 -4.3894194989e+001
 1.2700000000e+000  8.4532136501e-001 -4.4712327978e+001
 1.2800000000e+000  8.4154872667e-001 -4.5555428909e+001
 1.2900000000e+000  8.3747780741e-001 -4.6423931905e+001
 1.3000000000e+000  8.3309238658e-001 -4.7318297673e+001
 1.3100000000e+000  8.2837572391e-001 -4.8239010479e+001
 1.3200000000e+000  8.2331052406e-001 -4.9186574563e+001
 1.3300000000e+000  8.1787891456e-001 -5.0161509969e+001
 1.3400000000e+000  8.1206243846e-001 -5.1164347783e+001
 1.3500000000e+000  8.0584206273e-001 -5.2195624749e+001
 1.3600000000e+000  7.9919820423e-001 -5.3255877222e+001
 1.3700000000e+000  7.9211077491e-001 -5.4345634422e+001
 1.3800000000e+000  7.8455924816e-001 -5.5465410946e+001
 1.3900000000e+000  7.7652274859e-001 -5.6615698486e+001
 1.4000000000e+000  7.6798016728e-001 -5.7796956726e+001
 1.4100000000e+000  7.5891030495e-001 -5.9009603371e+001
 1.4200000000e+000  7.4929204504e-001 -6.0254003310e+001
 1.4300000000e+000  7.3910455876e-001 -6.1530456881e+001
 1.4400000000e+000  7.2832754380e-001 -6.2839187281e+001
 1.4500000000e+000  7.1694149747e-001 -6.4180327139e+001
 1.4600000000e+000  7.0492802499e-001 -6.5553904337e+001
 1.4700000000e+000  6.9227018188e-001 -6.6959827174e+001
 1.4800000000e+000  6.7895284879e-001 -6.8397869013e+001
 1.4900000000e+000  6.6496313524e-001 -6.9867652587e+001
 1.5000000000e+000  6.5029080737e-001 -7.1368634183e+001
 1.5100000000e+000  6.3492873255e-001 -7.2900087937e+001
 1.5200000000e+000  6.1887333197e-001 -7.4461090533e+001
 1.5300000000e+000  6.0212503021e-001 -7.6050506579e+001
 1.5400000000e+000  5.8468868876e-001 -7.7666974952e+001
 1.5500000000e+000  5.6657400877e-001 -7.9308896364e+001
 1.5600000000e+000  5.4779588700e-001 -8.0974422358e+001
 1.5700000000e+000  5.2837470832e-001 -8.2661445800e+001
 1.5800000000e+000  5.0833655777e-001 -8.4367592826e+001
 1.5900000000e+000  4.8771333668e-001 -8.6090215902e+001
 1.6000000000e+000  4.6654276859e-001 -8.7826387401e+001
 1.6100000000e+000  4.4486828437e-001 -8.9572892570e+001
 1.6200000000e+000  4.2273877929e-001 -9.1326220167e+001
 1.6300000000e+000  4.0020823991e-001 -9.3082548133e+001
 1.6400000000e+000  3.7733524412e-001 -9.4837720354e+001
 1.6500000000e+000  3.5418234312e-001 -9.6587208608e+001
 1.6600000000e+000  3.3081534016e-001 -9.8326050794e+001
 1.6700000000e+000  3.0730248587e-001 -1.0004875166e+002
 1.6800000000e+000  2.8371361493e-001 -1.0174912415e+002
 1.6900000000e+000  2.6011925239e-001 -1.0342003531e+002
 1.7000000000e+000  2.3658972118e-001 -1.0505299519e+002
 1.7100000000e+000  2.1319428507e-001 -1.0663747835e+002
 1.7200000000e+000  1.9000036593e-001 -1.0815977024e+002
 1.7300000000e+000  1.6707288335e-001 -1.0960092338e+002
 1.7400000000e+000  1.4447378939e-001 -1.1093293406e+002
 1.7500000000e+000  1.2226193764e-001 -1.1211106452e+002
 1.7600000000e+000  1.0049361992e-001 -1.1305691653e+002
 1.7700000000e+000  7.9224747909e-002 -1.1361609906e+002
 1.7800000000e+000  5.8518242293e-002 -1.1343154024e+002
 1.7900000000e+000  3.8474315082e-002 -1.1144233717e+002
 1.8000000000e+000  1.9436141564e-002 -1.0257880036e+002
 1.8100000000e+000  6.8946430291e-003 -2.7453487823e+001
 1.8200000000e+000  2.0463430328e-002 3.4402306664e+001
 1.8300000000e+000  3.7686521281e-002 4.2092321637e+001
 1.8400000000e+000  5.4605353051e-002 4.4015061439e+001
 1.8500000000e+000  7.0954324985e-002 4.4383648208e+001
 1.8600000000e+000  8.6674259777e-002 4.4137448647e+001
 1.8700000000e+000  1.0174689304e-001 4.3601322868e+001
 1.8800000000e+000  1.1616831607e-001 4.2917183368e+001
 1.8900000000e+000  1.2994182602e-001 4.2156842325e+001
 1.9000000000e+000  1.4307527693e-001 4.1360518651e+001
 1.9100000000e+000  1.5557982290e-001 4.0552468120e+001
 1.9200000000e+000  1.6746918784e-001 3.9748161777e+001
 1.9300000000e+000  1.7875917025e-001 3.8957904108e+001
 1.9400000000e+000  1.8946727043e-001 3.8188794495e+001
 1.9500000000e+000  1.9961239135e-001 3.7445854797e+001
 1.9600000000e+000  2.0921458987e-001 3.6732709557e+001
 1.9700000000e+000  2.1829486611e-001 3.6052013088e+001
 1.9800000000e+000  2.2687498366e-001 3.5405726732e+001
 1.9900000000e+000  2.3497731579e-001 3.4795303860e+001
 2.0000000000e+000  2.4262471410e-001 3.4221816079e+001
 2.0100000000e+000  2.4984039657e-001 3.3686040779e+001
 2.0200000000e+000  2.5664785263e-001 3.3188522513e+001
 2.0300000000e+000  2.6307076279e-001 3.2729616214e+001
 2.0400000000e+000  2.6913293071e-001 3.2309517470e+001
 2.0500000000e+000  2.7485822592e-001 3.1928283371e+001
 2.0600000000e+000  2.8027053494e-001 3.1585846345e+001
 2.0700000000e+000  2.8539371931e-001 3.1282022671e+001
 2.0800000000e+000  2.9025157861e-001 3.1016516895e+001
 2.0900000000e+000  2.9486781682e-001 3.0788923068e+001
 2.1000000000e+000  2.9926601040e-001 3.0598723509e+001
 2.1100000000e+000  3.0346957641e-001 3.0445285665e+001
 2.1200000000e+000  3.0750173934e-001 3.0327857569e+001
 2.1300000000e+000  3.1138549485e-001 3.0245562347e+001
 2.1400000000e+000  3.1514356937e-001 3.0197392185e+001
 2.1500000000e+000  3.1879837393e-001 3.0182202204e+001
 2.1600000000e+000  3.2237195145e-001 3.0198704662e+001
 2.1700000000e+000  3.2588591621e-001 3.0245463924e+001
 2.1800000000e+000  3.2936138506e-001 3.0320892664e+001
 2.1900000000e+000  3.3281889992e-001 3.0423249739e+001
 2.2000000000e+000  3.3627834148e-001 3.0550640194e+001
 2.2100000000e+000  3.3975883471e-001 3.0701017801e+001
 2.2200000000e+000  3.4327864676e-001 3.0872190504e+001
 2.2300000000e+000  3.4685507883e-001 3.1061829074e+001
 2.2400000000e+000  3.5050435362e-001 3.1267479158e+001
 2.2500000000e+000  3.5424150081e-001 3.1486576823e+001
 2.2600000000e+000  3.5808024299e-001 3.1716467531e+001
 2.2700000000e+000  3.6203288521e-001 3.1954428344e+001
 2.2800000000e+000  3.6611021122e-001 3.2197693016e+001
 2.2900000000e+000  3.7032138971e-001 3.2443479462e+001
 2.3000000000e+000  3.7467389373e-001 3.2689018975e+001
 2.3100000000e+000  3.7917343629e-001 3.2931586461e+001
 2.3200000000e+000  3.8382392477e-001 3.3168530870e+001
 2.3300000000e+000  3.8862743628e-001 3.3397304996e+001
 2.3400000000e+000  3.9358421564e-001 3.3615493795e+001
 2.3500000000e+000  3.9869269662e-001 3.3820840461e+001
 2.3600000000e+000  4.0394954696e-001 3.4011269550e+001
 2.3700000000e+000  4.0934973627e-001 3.4184906609e+001
 2.3800000000e+000  4.1488662589e-001 3.4340093864e+001
 2.3900000000e+000  4.2055207871e-001 3.4475401732e+001
 2.4000000000e+000  4.2633658658e-001 3.4589636042e+001
 2.4100000000e+000  4.3222941268e-001 3.4681841025e+001
 2.4200000000e+000  4.3821874562e-001 3.4751298280e+001
 2.4300000000e+000  4.4429186215e-001 3.4797522011e+001
 2.4400000000e+000  4.5043529516e-001 3.4820250962e+001
 2.4500000000e+000  4.5663500385e-001 3.4819437499e+001
 2.4600000000e+000  4.6287654297e-001 3.4795234371e+001
 2.4700000000e+000  4.6914522844e-001 3.4747979650e+001
 2.4800000000e+000  4.7542629680e-001 3.4678180371e+001
 2.4900000000e+000  4.8170505649e-001 3.4586495353e+001
 2.5000000000e+000  4.8796702925e-001 3.4473717644e+001
 2.5100000000e+000  4.9419808014e-001 3.4340756974e+001
 2.5200000000e+000  5.0038453552e-001 3.4188622556e+001
 2.5300000000e+000  5.0651328816e-001 3.4018406515e+001
 2.5400000000e+000  5.1257188932e-001 3.3831268140e+001
 2.5500000000e+000  5.1854862793e-001 3.3628419149e+001
 2.5600000000e+000  5.2443259707e-001 3.3411110051e+001
 2.5700000000e+000  5.3021374835e-001 3.3180617695e+001
 2.5800000000e+000  5.3588293489e-001 3.2938234000e+001
 2.5900000000e+000  5.4143194370e-001 3.2685255886e+001
 2.6000000000e+000  5.4685351846e-001 3.2422976348e+001
 2.6100000000e+000  5.5214137365e-001 3.2152676628e+001
 2.6200000000e+000  5.5729020096e-001 3.1875619393e+001
 2.6300000000e+000  5.6229566912e-001 3.1593042846e+001
 2.6400000000e+000  5.6715441789e-001 3.1306155664e+001
 2.6500000000e+000  5.7186404729e-001 3.1016132656e+001
 2.6600000000e+000  5.7642310271e-001 3.0724111052e+001
 2.6700000000e+000  5.8083105663e-001 3.0431187308e+001
 2.6800000000e+000  5.8508828760e-001 3.0138414325e+001
 2.6900000000e+000  5.8919605679e-001 2.9846799004e+001
 2.7000000000e+000  5.9315648263e-001 2.9557300028e+001
 2.7100000000e+000  5.9697251359e-001 2.9270825805e+001
 2.7200000000e+000  6.0064789927e-001 2.8988232495e+001
 2.7300000000e+000  6.0418715974e-001 2.8710322064e+001
 2.7400000000e+000  6.0759555303e-001 2.8437840314e+001
 2.7500000000e+000  6.1087904042e-001 2.8171474849e+001
 2.7600000000e+000  6.1404424942e-001 2.7911852969e+001
 2.7700000000e+000  6.1709843377e-001 2.7659539463e+001
 2.7800000000e+000  6.2004943028e-001 2.7415034326e+001
 2.7900000000e+000  6.2290561188e-001 2.7178770414e+001
 2.8000000000e+000  6.2567583652e-001 2.6951111071e+001
 2.8100000000e+000  6.2836939146e-001 2.6732347800e+001
 2.8200000000e+000  6.3099593260e-001 2.6522698025e+001
 2.8300000000e+000  6.3356541863e-001 2.6322303041e+001
 2.8400000000e+000  6.3608803979e-001 2.6131226248e+001
 2.8500000000e+000  6.3857414131e-001 2.5949451765e+001
 2.8600000000e+000  6.4103414183e-001 2.5776883541e+001
 2.8700000000e+000  6.4347844711e-001 2.5613345083e+001
 2.8800000000e+000  6.4591735969e-001 2.5458579899e+001
 2.8900000000e+000  6.4836098553e-001 2.5312252766e+001
 2.9000000000e+000  6.5081913863e-001 2.5173951923e+001
 2.9100000000e+000  6.5330124503e-001 2.5043192241e+001
 2.9200000000e+000  6.5581624777e-001 2.4919419434e+001
 2.9300000000e+000  6.5837251449e-001 2.4802015320e+001
 2.9400000000e+000  6.6097774951e-001 2.4690304123e+001
 2.9500000000e+000  6.6363891225e-001 2.4583559755e+001
 2.9600000000e+000  6.6636214391e-001 2.4481014002e+001
 2.9700000000e+000  6.6915270407e-001 2.4381865478e+001
 2.9800000000e+000  6.7201491884e-001 2.4285289202e+001
 2.9900000000e+000  6.7495214201e-001 2.4190446600e+001
 3.0000000000e+000  6.7796673010e-001 2.4096495743e+001
 3.0100000000e+000  6.8106003209e-001 2.4002601572e+001
 3.0200000000e+000  6.8423239419e-001 2.3907945920e+001
 3.0300000000e+000  6.8748317936e-001 2.3811737079e+001
 3.0400000000e+000  6.9081080129e-001 2.3713218719e+001
 3.0500000000e+000  6.9421277171e-001 2.3611677978e+001
 3.0600000000e+000  6.9768575996e-001 2.3506452549e+001
 3.0700000000e+000  7.0122566308e-001 2.3396936656e+001
 3.0800000000e+000  7.0482768471e-001 2.3282585833e+001
 3.0900000000e+000  7.0848642081e-001 2.3162920458e+001
 3.1000000000e+000  7.1219595014e-001 2.3037528030e+001
 3.1100000000e+000  7.1594992736e-001 2.2906064235e+001
 3.1200000000e+000  7.1974167692e-001 2.2768252851e+001
 3.1300000000e+000  7.2356428560e-001 2.2623884590e+001
 3.1400000000e+000  7.2741069224e-001 2.2472814980e+001
 3.1500000000e+000  7.3127377298e-001 2.2314961436e+001
 3.1600000000e+000  7.3514642088e-001 2.2150299628e+001
 3.1700000000e+000  7.3902161881e-001 2.1978859314e+001
 3.1800000000e+000  7.4289250506e-001 2.1800719764e+001
 3.1900000000e+000  7.4675243103e-001 2.1616004908e+001
 3.2000000000e+000  7.5059501081e-001 2.1424878340e+001
 3.2100000000e+000  7.5441416269e-001 2.1227538280e+001
 3.2200000000e+000  7.5820414270e-001 2.1024212604e+001
 3.2300000000e+000  7.6195957055e-001 2.0815154005e+001
 3.2400000000e+000  7.6567544838e-001 2.0600635383e+001
 3.2500000000e+000  7.6934717287e-001 2.0380945485e+001
 3.2600000000e+000  7.7297054140e-001 2.0156384857e+001
 3.2700000000e+000  7.7654175279e-001 1.9927262126e+001
 3.2800000000e+000  7.8005740340e-001 1.9693890628e+001
 3.2900000000e+000  7.8351447916e-001 1.9456585390e+001
 3.3000000000e+000  7.8691034425e-001 1.9215660459e+001
 3.3100000000e+000  7.9024272705e-001 1.8971426578e+001
 3.3200000000e+000  7.9350970389e-001 1.8724189181e+001
 3.3300000000e+000  7.9670968110e-001 1.8474246703e+001
 3.3400000000e+000  7.9984137597e-001 1.8221889174e+001
 3.3500000000e+000  8.0290379687e-001 1.7967397079e+001
 3.3600000000e+000  8.0589622303e-001 1.7711040454e+001
 3.3700000000e+000  8.0881818424e-001 1.7453078205e+001
 3.3800000000e+000  8.1166944073e-001 1.7193757617e+001
 3.3900000000e+000  8.1444996349e-001 1.6933314028e+001
 3.4000000000e+000  8.1715991514e-001 1.6671970661e+001
 3.4100000000e+000  8.1979963162e-001 1.6409938572e+001
 3.4200000000e+000  8.2236960460e-001 1.6147416714e+001
 3.4300000000e+000  8.2487046492e-001 1.5884592093e+001
 3.4400000000e+000  8.2730296695e-001 1.5621639992e+001
 3.4500000000e+000  8.2966797388e-001 1.5358724261e+001
 3.4600000000e+000  8.3196644418e-001 1.5095997657e+001
 3.4700000000e+000  8.3419941887e-001 1.4833602219e+001
 3.4800000000e+000  8.3636800989e-001 1.4571669667e+001
 3.4900000000e+000  8.3847338939e-001 1.4310321829e+001
 3.5000000000e+000  8.4051677991e-001 1.4049671071e+001
 3.5100000000e+000  8.4249944547e-001 1.3789820735e+001
 3.5200000000e+000  8.4442268347e-001 1.3530865583e+001
 3.5300000000e+000  8.4628781734e-001 1.3272892228e+001
 3.5400000000e+000  8.4809618995e-001 1.3015979562e+001
 3.5500000000e+000  8.4984915770e-001 1.2760199176e+001
 3.5600000000e+000  8.5154808517e-001 1.2505615761e+001
 3.5700000000e+000  8.5319434044e-001 1.2252287497e+001
 3.5800000000e+000  8.5478929085e-001 1.2000266431e+001
 3.5900000000e+000  8.5633429923e-001 1.1749598831e+001
 3.6000000000e+000  8.5783072067e-001 1.1500325524e+001
 3.6100000000e+000  8.5927989952e-001 1.1252482220e+001
 3.6200000000e+000  8.6068316685e-001 1.1006099818e+001
 3.6300000000e+000  8.6204183816e-001 1.0761204690e+001
 3.6400000000e+000  8.6335721138e-001 1.0517818951e+001
 3.6500000000e+000  8.6463056507e-001 1.0275960715e+001
 3.6600000000e+000  8.6586315690e-001 1.0035644334e+001
 3.6700000000e+000  8.6705622217e-001 9.7968806161e+000
 3.6800000000e+000  8.6821097263e-001 9.5596770412e+000
 3.6900000000e+000  8.6932859531e-001 9.3240379546e+000
 3.7000000000e+000  8.7041025150e-001 9.0899647530e+000
 3.7100000000e+000  8.7145707581e-001 8.8574560591e+000
 3.7200000000e+000  8.7247017528e-001 8.6265078872e+000
 3.7300000000e+000  8.7345062855e-001 8.3971137998e+000
 3.7400000000e+000  8.7439948514e-001 8.1692650590e+000
 3.7500000000e+000  8.7531776462e-001 7.9429507702e+000
 3.7600000000e+000  8.7620645598e-001 7.7181580229e+000
 3.7700000000e+000  8.7706651691e-001 7.4948720271e+000
 3.7800000000e+000  8.7789887318e-001 7.2730762484e+000
 3.7900000000e+000  8.7870441804e-001 7.0527525406e+000
 3.8000000000e+000  8.7948401162e-001 6.8338812789e+000
 3.8100000000e+000  8.8023848048e-001 6.6164414928e+000
 3.8200000000e+000  8.8096861707e-001 6.4004110002e+000
 3.8300000000e+000  8.8167517945e-001 6.1857665426e+000
 3.8400000000e+000  8.8235889092e-001 5.9724839221e+000
 3.8500000000e+000  8.8302043986e-001 5.7605381396e+000
 3.8600000000e+000  8.8366047967e-001 5.5499035352e+000
 3.8700000000e+000  8.8427962876e-001 5.3405539289e+000
 3.8800000000e+000  8.8487847081e-001 5.1324627620e+000
 3.8900000000e+000  8.8545755506e-001 4.9256032388e+000
 3.9000000000e+000  8.8601739684e-001 4.7199484664e+000
 3.9100000000e+000  8.8655847825e-001 4.5154715927e+000
