! IGNION VIRTUAL ANTENNA LIBRARY
!
! NN_RUN_B70x40_C40x11
! Virtual Antenna™ RUN mXTEND™: NN02-224 12.0 mm x 3.0 mm x 2.4 mm
! https://ignion.io/product/run-mxtend/
! Board: 70 mm x 40 mm
! Clearance Area: 40 mm x 11 mm
! Feeding line: L-shape; 11mm x 2mm and 5mm x 2mm
! Applications: Fleet management, IoT
! Frequency range 0.65GHz to 6GHz, step 10MHz
! Number of ports 9
!
! This product and its use is protected by at least one or more of the following patents and patent
! applications US 8,203,492 B2; US 8,237,615 B2; PCT/EP2013/064692; WO 2014/012842 A1; US 2019/190122 A1;
! US 62/072,671; and other domestic and international patents pending. Additional information about
! patents related to this product is available at https://ignion.io/files/Patent-list-NN.pdf, all
! rights reserved. Copyright, Ignion 2021.
!
! Need more help? Your platform is much different than these examples in the manual? Use our 
! Fast Track service (https://ignion.io/fast-track/), for free, and get a personalized antenna design in
! just 24 hours.
!
! 
! Touchstone port 1 = "Series Port"
! Touchstone port 2 = "Shunt Port"
! Touchstone port 3 = "Series Port"
! Touchstone port 4 = "Shunt Port"
! Touchstone port 5 = "Series Port"
! Touchstone port 6 = "Shunt Port"
! Touchstone port 7 = "Series Port"
! Touchstone port 8 = "Shunt Port"
! Touchstone port 9 = "Series Port"
!
! IE3D S-Parameters Output Version 2.0  
# GHZ S MA R 50
! Nport = 9
!

 6.5000000000e-001  2.4890758662e-001 1.5319396092e+002  7.6209065137e-001 -5.1910231162e+000  4.6711101034e-001 1.7231704453e+002  2.9324030123e-001 -7.9229611043e+000
          1.7457787428e-001 1.7210542693e+002  1.1841870953e-001 -9.3825061175e+000  5.6722704951e-002 1.7527408843e+002  6.1917543517e-002 -1.2249996414e+001
          9.4758027866e-003 -6.7640959265e+001
          7.6209065137e-001 -5.1910231162e+000  2.4161060469e-001 1.6174838128e+002  4.7029460979e-001 1.7685178596e+002  2.9423800578e-001 -2.4144640714e+000
          1.7629198134e-001 1.7501278613e+002  1.1730920417e-001 -5.6539093304e+000  5.9085308886e-002 1.7638443833e+002  5.8273587941e-002 -9.8109250966e+000
          6.7429560769e-003 -1.0393247501e+002
          4.6711101034e-001 1.7231704453e+002  4.7029460979e-001 1.7685178596e+002  9.7427979598e-002 4.6020587122e+001  5.8650461276e-001 -5.0613306984e+000
          3.5032176606e-001 1.7387659678e+002  2.3541204904e-001 -7.7331233442e+000  1.1577404219e-001 1.7622535314e+002  1.2000082524e-001 -1.1848356215e+001
          1.7068047809e-002 -8.5007478350e+001
          2.9324030123e-001 -7.9229611043e+000  2.9423800578e-001 -2.4144640714e+000  5.8650461276e-001 -5.0613306984e+000  1.2720993369e-001 1.5395141070e+002
          5.2958065153e-001 1.7730399475e+002  3.5138321604e-001 -3.1140498719e+000  1.7826589870e-001 1.7753996463e+002  1.7322506111e-001 -9.3069926999e+000
          2.1966670879e-002 -1.0922553086e+002
          1.7457787428e-001 1.7210542693e+002  1.7629198134e-001 1.7501278613e+002  3.5032176606e-001 1.7387659678e+002  5.2958065153e-001 1.7730399475e+002
          1.2974225795e-001 1.9319879429e+001  5.8608539779e-001 -4.8199658353e+000  2.9399806870e-001 1.7759464896e+002  2.9289760206e-001 -1.0630552822e+001
          4.0571809387e-002 -9.8970146732e+001
          1.1841870953e-001 -9.3825061175e+000  1.1730920417e-001 -5.6539093304e+000  2.3541204904e-001 -7.7331233442e+000  3.5138321604e-001 -3.1140498719e+000
          5.8608539779e-001 -4.8199658353e+000  6.7595181668e-002 1.5471538091e+002  4.7629117988e-001 1.7999420267e+002  4.6135223430e-001 -7.4795400578e+000
          6.1785154435e-002 -1.0782763028e+002
          5.6722704951e-002 1.7527408843e+002  5.9085308886e-002 1.7638443833e+002  1.1577404219e-001 1.7622535314e+002  1.7826589870e-001 1.7753996463e+002
          2.9399806870e-001 1.7759464896e+002  4.7629117988e-001 1.7999420267e+002  2.2959613367e-001 -1.9146055673e+000  7.5345755611e-001 -8.6762593084e+000
          1.0657619087e-001 -1.0408495358e+002
          6.1917543517e-002 -1.2249996414e+001  5.8273587941e-002 -9.8109250966e+000  1.2000082524e-001 -1.1848356215e+001  1.7322506111e-001 -9.3069926999e+000
          2.9289760206e-001 -1.0630552822e+001  4.6135223430e-001 -7.4795400578e+000  7.5345755611e-001 -8.6762593084e+000  2.1695522825e-001 -1.7832277202e+001
          1.6799392572e-001 -1.0654198237e+002
          9.4758027866e-003 -6.7640959265e+001  6.7429560769e-003 -1.0393247501e+002  1.7068047809e-002 -8.5007478350e+001  2.1966670879e-002 -1.0922553086e+002
          4.0571809387e-002 -9.8970146732e+001  6.1785154435e-002 -1.0782763028e+002  1.0657619087e-001 -1.0408495358e+002  1.6799392572e-001 -1.0654198237e+002
          9.6831290138e-001 -1.7048103748e+001
 6.6000000000e-001  2.4933006610e-001 1.5280637462e+002  7.6202507340e-001 -5.2708071961e+000  4.6700701393e-001 1.7219924665e+002  2.9321783533e-001 -8.0462191080e+000
          1.7451862318e-001 1.7198727918e+002  1.1844460659e-001 -9.5368397213e+000  5.6657744371e-002 1.7523666339e+002  6.2018533524e-002 -1.2482812386e+001
          9.7347222705e-003 -6.7625436152e+001
          7.6202507340e-001 -5.2708071961e+000  2.4181994711e-001 1.6147705305e+002  4.7029052611e-001 1.7680359908e+002  2.9424342906e-001 -2.4523337065e+000
          1.7628953256e-001 1.7493775222e+002  1.1729649192e-001 -5.7439900113e+000  5.9098897832e-002 1.7633904185e+002  5.8249915448e-002 -9.9796182713e+000
          6.8770958457e-003 -1.0421748610e+002
          4.6700701393e-001 1.7219924665e+002  4.7029052611e-001 1.7680359908e+002  9.8370592001e-002 4.6334616608e+001  5.8645758643e-001 -5.1399964310e+000
          3.5024320368e-001 1.7378495491e+002  2.3541572413e-001 -7.8583635684e+000  1.1572148730e-001 1.7618859708e+002  1.2007338152e-001 -1.2060220478e+001
          1.7444398455e-002 -8.5039211233e+001
          2.9321783533e-001 -8.0462191080e+000  2.9424342906e-001 -2.4523337065e+000  5.8645758643e-001 -5.1399964310e+000  1.2750656979e-001 1.5359085815e+002
          5.2959762589e-001 1.7726380628e+002  3.5132780130e-001 -3.1636117542e+000  1.7834012046e-001 1.7750849724e+002  1.7310250658e-001 -9.4635410328e+000
          2.2386381960e-002 -1.0958153885e+002
          1.7451862318e-001 1.7198727918e+002  1.7628953256e-001 1.7493775222e+002  3.5024320368e-001 1.7378495491e+002  5.2959762589e-001 1.7726380628e+002
          1.3007676302e-001 1.9559830234e+001  5.8601146947e-001 -4.8974780066e+000  2.9401811548e-001 1.7756918578e+002  2.9283843699e-001 -1.0813487882e+001
          4.1351088620e-002 -9.9164391471e+001
          1.1844460659e-001 -9.5368397213e+000  1.1729649192e-001 -5.7439900113e+000  2.3541572413e-001 -7.8583635684e+000  3.5132780130e-001 -3.1636117542e+000
          5.8601146947e-001 -4.8974780066e+000  6.7876427111e-002 1.5443154638e+002  4.7651802208e-001 1.7999931729e+002  4.6100893036e-001 -7.6070143995e+000
          6.2946045373e-002 -1.0815873554e+002
          5.6657744371e-002 1.7523666339e+002  5.9098897832e-002 1.7633904185e+002  1.1572148730e-001 1.7618859708e+002  1.7834012046e-001 1.7750849724e+002
          2.9401811548e-001 1.7756918578e+002  4.7651802208e-001 1.7999931729e+002  2.2935120973e-001 -1.9699967377e+000  7.5303131707e-001 -8.8245719371e+000
          1.0855397039e-001 -1.0435502432e+002
          6.2018533524e-002 -1.2482812386e+001  5.8249915448e-002 -9.9796182713e+000  1.2007338152e-001 -1.2060220478e+001  1.7310250658e-001 -9.4635410328e+000
          2.9283843699e-001 -1.0813487882e+001  4.6100893036e-001 -7.6070143995e+000  7.5303131707e-001 -8.8245719371e+000  2.1628504745e-001 -1.8213962424e+001
          1.7111492881e-001 -1.0685160779e+002
          9.7347222705e-003 -6.7625436152e+001  6.8770958457e-003 -1.0421748610e+002  1.7444398455e-002 -8.5039211233e+001  2.2386381960e-002 -1.0958153885e+002
          4.1351088620e-002 -9.9164391471e+001  6.2946045373e-002 -1.0815873554e+002  1.0855397039e-001 -1.0435502432e+002  1.7111492881e-001 -1.0685160779e+002
          9.6710191440e-001 -1.7368107774e+001
 6.7000000000e-001  2.4975787220e-001 1.5241980930e+002  7.6195852729e-001 -5.3505905430e+000  4.6690126987e-001 1.7208147739e+002  2.9319499745e-001 -8.1695588756e+000
          1.7445835812e-001 1.7186933985e+002  1.1847085244e-001 -9.6917477389e+000  5.6591959004e-002 1.7520133983e+002  6.2121205907e-002 -1.2718105636e+001
          9.9990259169e-003 -6.7621200753e+001
          7.6195852729e-001 -5.3505905430e+000  2.4203224818e-001 1.6120613797e+002  4.7028641891e-001 1.7675542783e+002  2.9424881637e-001 -2.4902344559e+000
          1.7628718435e-001 1.7486280462e+002  1.1728331661e-001 -5.8342111756e+000  5.9113115362e-002 1.7629411262e+002  5.8225287481e-002 -1.0149185349e+001
          7.0127916839e-003 -1.0450725062e+002
          4.6690126987e-001 1.7208147739e+002  4.7028641891e-001 1.7675542783e+002  9.9317920309e-002 4.6640430004e+001  5.8640970146e-001 -5.2187068856e+000
          3.5016348382e-001 1.7369346100e+002  2.3541914938e-001 -7.9839468042e+000  1.1566869173e-001 1.7615301618e+002  1.2014665956e-001 -1.2273710391e+001
          1.7826555928e-002 -8.5077028664e+001
          2.9319499745e-001 -8.1695588756e+000  2.9424881637e-001 -2.4902344559e+000  5.8640970146e-001 -5.2187068856e+000  1.2780718143e-001 1.5323193381e+002
          5.2961536401e-001 1.7722367740e+002  3.5127069900e-001 -3.2132277660e+000  1.7841679696e-001 1.7747726783e+002  1.7297613931e-001 -9.6206912574e+000
          2.2810242903e-002 -1.0994177362e+002
          1.7445835812e-001 1.7186933985e+002  1.7628718435e-001 1.7486280462e+002  3.5016348382e-001 1.7369346100e+002  5.2961536401e-001 1.7722367740e+002
          1.3041423725e-001 1.9797606459e+001  5.8593525115e-001 -4.9751523060e+000  2.9404032341e-001 1.7754427895e+002  2.9277609450e-001 -1.0997418776e+001
          4.2138272345e-002 -9.9362620662e+001
          1.1847085244e-001 -9.6917477389e+000  1.1728331661e-001 -5.8342111756e+000  2.3541914938e-001 -7.9839468042e+000  3.5127069900e-001 -3.2132277660e+000
          5.8593525115e-001 -4.9751523060e+000  6.8162612461e-002 1.5415185567e+002  4.7675181214e-001 -1.7999539518e+002  4.6065524940e-001 -7.7350341735e+000
          6.4117540047e-002 -1.0849387381e+002
          5.6591959004e-002 1.7520133983e+002  5.9113115362e-002 1.7629411262e+002  1.1566869173e-001 1.7615301618e+002  1.7841679696e-001 1.7747726783e+002
          2.9404032341e-001 1.7754427895e+002  4.7675181214e-001 -1.7999539518e+002  2.2909748408e-001 -2.0265604671e+000  7.5259120370e-001 -8.9735895903e+000
          1.1054872436e-001 -1.0462893306e+002
          6.2121205907e-002 -1.2718105636e+001  5.8225287481e-002 -1.0149185349e+001  1.2014665956e-001 -1.2273710391e+001  1.7297613931e-001 -9.6206912574e+000
          2.9277609450e-001 -1.0997418776e+001  4.6065524940e-001 -7.7350341735e+000  7.5259120370e-001 -8.9735895903e+000  2.1559629996e-001 -1.8601636975e+001
          1.7426283505e-001 -1.0716516686e+002
          9.9990259169e-003 -6.7621200753e+001  7.0127916839e-003 -1.0450725062e+002  1.7826555928e-002 -8.5077028664e+001  2.2810242903e-002 -1.0994177362e+002
          4.2138272345e-002 -9.9362620662e+001  6.4117540047e-002 -1.0849387381e+002  1.1054872436e-001 -1.0462893306e+002  1.7426283505e-001 -1.0716516686e+002
          9.6585067110e-001 -1.7691143936e+001
 6.8000000000e-001  2.5019095652e-001 1.5203427298e+002  7.6189101255e-001 -5.4303733927e+000  4.6679376989e-001 1.7196373822e+002  2.9317178191e-001 -8.2929832764e+000
          1.7439707758e-001 1.7175161737e+002  1.1849743578e-001 -9.8472489311e+000  5.6525375604e-002 1.7516819159e+002  6.2225551763e-002 -1.2955952402e+001
          1.0268820760e-002 -6.7628280198e+001
          7.6189101255e-001 -5.4303733927e+000  2.4224749919e-001 1.6093564090e+002  4.7028229155e-001 1.7670727278e+002  2.9425416009e-001 -2.5281664625e+000
          1.7628494646e-001 1.7478794510e+002  1.1726966069e-001 -5.9245739218e+000  5.9127989280e-002 1.7624965461e+002  5.8199663756e-002 -1.0319641155e+001
          7.1500775852e-003 -1.0480190781e+002
          4.6679376989e-001 1.7196373822e+002  4.7028229155e-001 1.7670727278e+002  1.0026979668e-001 4.6938215161e+001  5.8636094494e-001 -5.2974633459e+000
          3.5008261507e-001 1.7360211990e+002  2.3542229687e-001 -8.1098826455e+000  1.1561570573e-001 1.7611864359e+002  1.2022061478e-001 -1.2488873024e+001
          1.8214652325e-002 -8.5121065294e+001
          2.9317178191e-001 -8.2929832764e+000  2.9425416009e-001 -2.5281664625e+000  5.8636094494e-001 -5.2974633459e+000  1.2811175585e-001 1.5287464825e+002
          5.2963389834e-001 1.7718360872e+002  3.5121185824e-001 -3.2628958917e+000  1.7849600931e-001 1.7744627236e+002  1.7284583546e-001 -9.7784473486e+000
          2.3238340610e-002 -1.1030636266e+002
          1.7439707758e-001 1.7175161737e+002  1.7628494646e-001 1.7478794510e+002  3.5008261507e-001 1.7360211990e+002  5.2963389834e-001 1.7718360872e+002
          1.3075457923e-001 2.0033206464e+001  5.8585666375e-001 -5.0529911532e+000  2.9406481924e-001 1.7751993669e+002  2.9271041010e-001 -1.1182367330e+001
          4.2933531088e-002 -9.9564954031e+001
          1.1849743578e-001 -9.8472489311e+000  1.1726966069e-001 -5.9245739218e+000  2.3542229687e-001 -8.1098826455e+000  3.5121185824e-001 -3.2628958917e+000
          5.8585666375e-001 -5.0529911532e+000  6.8453824025e-002 1.5387632354e+002  4.7699276035e-001 -1.7998994060e+002  4.6029086716e-001 -7.8636014150e+000
          6.5299853392e-002 -1.0883316673e+002
          5.6525375604e-002 1.7516819159e+002  5.9127989280e-002 1.7624965461e+002  1.1561570573e-001 1.7611864359e+002  1.7849600931e-001 1.7744627236e+002
          2.9406481924e-001 1.7751993669e+002  4.7699276035e-001 -1.7998994060e+002  2.2883463740e-001 -2.0843056815e+000  7.5213673160e-001 -9.1233216103e+000
          1.1256079009e-001 -1.0490679585e+002
          6.2225551763e-002 -1.2955952402e+001  5.8199663756e-002 -1.0319641155e+001  1.2022061478e-001 -1.2488873024e+001  1.7284583546e-001 -9.7784473486e+000
          2.9271041010e-001 -1.1182367330e+001  4.6029086716e-001 -7.8636014150e+000  7.5213673160e-001 -9.1233216103e+000  2.1488844994e-001 -1.8995484313e+001
          1.7743817529e-001 -1.0748277811e+002
          1.0268820760e-002 -6.7628280198e+001  7.1500775852e-003 -1.0480190781e+002  1.8214652325e-002 -8.5121065294e+001  2.3238340610e-002 -1.1030636266e+002
          4.2933531088e-002 -9.9564954031e+001  6.5299853392e-002 -1.0883316673e+002  1.1256079009e-001 -1.0490679585e+002  1.7743817529e-001 -1.0748277811e+002
          9.6455766696e-001 -1.8017286442e+001
 6.9000000000e-001  2.5062926999e-001 1.5164977348e+002  7.6182252857e-001 -5.5101559948e+000  4.6668450567e-001 1.7184603070e+002  2.9314818249e-001 -8.4164952663e+000
          1.7433478049e-001 1.7163412045e+002  1.1852434413e-001 -1.0003362611e+001  5.6458023475e-002 1.7513729480e+002  6.2331560268e-002 -1.3196431113e+001
          1.0544215350e-002 -6.7646706041e+001
          7.6182252857e-001 -5.5101559948e+000  2.4246569140e-001 1.6066556661e+002  4.7027814762e-001 1.7665913454e+002  2.9425945236e-001 -2.5661298303e+000
          1.7628282908e-001 1.7471317538e+002  1.1725550588e-001 -6.0150791711e+000  5.9143548516e-002 1.7620567121e+002  5.8173002243e-002 -1.0491000117e+001
          7.2889876783e-003 -1.0510160059e+002
          4.6668450567e-001 1.7184603070e+002  4.7027814762e-001 1.7665913454e+002  1.0122605740e-001 4.7228155922e+001  5.8631130315e-001 -5.3762671161e+000
          3.5000060693e-001 1.7351093664e+002  2.3542513688e-001 -8.2361808742e+000  1.1556258282e-001 1.7608551300e+002  1.2029519917e-001 -1.2705756585e+001
          1.8608821287e-002 -8.5171458902e+001
          2.9314818249e-001 -8.4164952663e+000  2.9425945236e-001 -2.5661298303e+000  5.8631130315e-001 -5.3762671161e+000  1.2842028098e-001 1.5251901154e+002
          5.2965326268e-001 1.7714360074e+002  3.5115122650e-001 -3.3126138301e+000  1.7857784137e-001 1.7741550601e+002  1.7271146651e-001 -9.9368124281e+000
          2.3670761998e-002 -1.1067543702e+002
          1.7433478049e-001 1.7163412045e+002  1.7628282908e-001 1.7471317538e+002  3.5000060693e-001 1.7351093664e+002  5.2965326268e-001 1.7714360074e+002
          1.3109768560e-001 2.0266629891e+001  5.8577562480e-001 -5.1309968677e+000  2.9409173527e-001 1.7749616689e+002  2.9264121142e-001 -1.1368355410e+001
          4.3737036016e-002 -9.9771514680e+001
          1.1852434413e-001 -1.0003362611e+001  1.1725550588e-001 -6.0150791711e+000  2.3542513688e-001 -8.2361808742e+000  3.5115122650e-001 -3.3126138301e+000
          5.8577562480e-001 -5.1309968677e+000  6.8750153968e-002 1.5360496220e+002  4.7724108378e-001 -1.7998432569e+002  4.5991544755e-001 -7.9927172473e+000
          6.6493199816e-002 -1.0917673935e+002
          5.6458023475e-002 1.7513729480e+002  5.9143548516e-002 1.7620567121e+002  1.1556258282e-001 1.7608551300e+002  1.7857784137e-001 1.7741550601e+002
          2.9409173527e-001 1.7749616689e+002  4.7724108378e-001 -1.7998432569e+002  2.2856233875e-001 -2.1432398156e+000  7.5166739701e-001 -9.2737767993e+000
          1.1459050354e-001 -1.0518873196e+002
          6.2331560268e-002 -1.3196431113e+001  5.8173002243e-002 -1.0491000117e+001  1.2029519917e-001 -1.2705756585e+001  1.7271146651e-001 -9.9368124281e+000
          2.9264121142e-001 -1.1368355410e+001  4.5991544755e-001 -7.9927172473e+000  7.5166739701e-001 -9.2737767993e+000  2.1416094111e-001 -1.9395693432e+001
          1.8064147785e-001 -1.0780456340e+002
          1.0544215350e-002 -6.7646706041e+001  7.2889876783e-003 -1.0510160059e+002  1.8608821287e-002 -8.5171458902e+001  2.3670761998e-002 -1.1067543702e+002
          4.3737036016e-002 -9.9771514680e+001  6.6493199816e-002 -1.0917673935e+002  1.1459050354e-001 -1.0518873196e+002  1.8064147785e-001 -1.0780456340e+002
          9.6322133122e-001 -1.8346610455e+001
 7.0000000000e-001  2.5107276288e-001 1.5126631841e+002  7.6175307454e-001 -5.5899386132e+000  4.6657346876e-001 1.7172835645e+002  2.9312419241e-001 -8.5400978887e+000
          1.7427146630e-001 1.7151685820e+002  1.1855156372e-001 -1.0160108654e+001  5.6389934658e-002 1.7510872792e+002  6.2439218502e-002 -1.3439622433e+001
          1.0825319718e-002 -6.7676514487e+001
          7.6175307454e-001 -5.5899386132e+000  2.4268681607e-001 1.6039591983e+002  4.7027399102e-001 1.7661101370e+002  2.9426468501e-001 -2.6041246218e+000
          1.7628084292e-001 1.7463849721e+002  1.1724083323e-001 -6.1057276482e+000  5.9159823175e-002 1.7616216519e+002  5.8145259100e-002 -1.0663276203e+001
          7.4295561794e-003 -1.0540647569e+002
          4.6657346876e-001 1.7172835645e+002  4.7027399102e-001 1.7661101370e+002  1.0218654274e-001 4.7510432119e+001  5.8626076158e-001 -5.4551195205e+000
          3.4991746985e-001 1.7341991637e+002  2.3542763779e-001 -8.3628514571e+000  1.1550937993e-001 1.7605365872e+002  1.2037036104e-001 -1.2924410427e+001
          1.9009197922e-002 -8.5228350514e+001
          2.9312419241e-001 -8.5400978887e+000  2.9426468501e-001 -2.6041246218e+000  5.8626076158e-001 -5.4551195205e+000  1.2873274548e-001 1.5216503326e+002
          5.2967349219e-001 1.7710365393e+002  3.5108874961e-001 -3.3623789731e+000  1.7866237984e-001 1.7738496311e+002  1.7257289913e-001 -1.0095788677e+001
          2.4107593855e-002 -1.1104913135e+002
          1.7427146630e-001 1.7151685820e+002  1.7628084292e-001 1.7463849721e+002  3.4991746985e-001 1.7341991637e+002  5.2967349219e-001 1.7710365393e+002
          1.3144345101e-001 2.0497877687e+001  5.8569204835e-001 -5.2091716541e+000  2.9412120949e-001 1.7747297703e+002  2.9256831784e-001 -1.1555404890e+001
          4.4548958704e-002 -9.9982429171e+001
