! IGNION VIRTUAL ANTENNA LIBRARY
!
! NN_RUN_B70x55_C55x11
! Virtual Antenna™ RUN mXTEND™: NN02-224 12.0 mm x 3.0 mm x 2.4 mm
! https://ignion.io/product/run-mxtend/
! Board: 70 mm x 55 mm
! Clearance Area: 55 mm x 11 mm
! Feeding line: L-shape; 11mm x 2mm and 5mm x 2mm
! Applications: Fleet management, IoT
! Frequency range 0.65GHz to 6GHz, step 10MHz
! Number of ports 1
!
! This product and its use is protected by at least one or more of the following patents and patent
! applications US 8,203,492 B2; US 8,237,615 B2; PCT/EP2013/064692; WO 2014/012842 A1; US 2019/190122 A1;
! US 62/072,671; and other domestic and international patents pending. Additional information about
! patents related to this product is available at https://ignion.io/files/Patent-list-NN.pdf, all
! rights reserved. Copyright, Ignion 2021.
!
! Need more help? Your platform is much different than these examples in the manual? Use our 
! Fast Track service (https://ignion.io/fast-track/), for free, and get a personalized antenna design in
! just 24 hours.
!
! 
! Touchstone port 1 = "Series Port"
!
! IE3D S-Parameters Output Version 2.0  
# GHZ S MA R 50
! Nport = 1
!

 6.5000000000e-001  9.9106425133e-001 -1.7044031009e+001
 6.6000000000e-001  9.9069210698e-001 -1.7378359829e+001
 6.7000000000e-001  9.9030128144e-001 -1.7716722832e+001
 6.8000000000e-001  9.8989067798e-001 -1.8059244680e+001
 6.9000000000e-001  9.8945913422e-001 -1.8406053756e+001
 7.0000000000e-001  9.8900541808e-001 -1.8757282269e+001
 7.1000000000e-001  9.8852822340e-001 -1.9113066370e+001
 7.2000000000e-001  9.8802616536e-001 -1.9473546262e+001
 7.3000000000e-001  9.8749777555e-001 -1.9838866303e+001
 7.4000000000e-001  9.8694149686e-001 -2.0209175120e+001
 7.5000000000e-001  9.8635567790e-001 -2.0584625707e+001
 7.6000000000e-001  9.8573856725e-001 -2.0965375529e+001
 7.7000000000e-001  9.8508830725e-001 -2.1351586612e+001
 7.8000000000e-001  9.8440292753e-001 -2.1743425635e+001
 7.9000000000e-001  9.8368033813e-001 -2.2141064009e+001
 8.0000000000e-001  9.8291832221e-001 -2.2544677950e+001
 8.1000000000e-001  9.8211452846e-001 -2.2954448536e+001
 8.2000000000e-001  9.8126646297e-001 -2.3370561755e+001
 8.3000000000e-001  9.8037148085e-001 -2.3793208536e+001
 8.4000000000e-001  9.7942677729e-001 -2.4222584763e+001
 8.5000000000e-001  9.7842937829e-001 -2.4658891263e+001
 8.6000000000e-001  9.7737613094e-001 -2.5102333775e+001
 8.7000000000e-001  9.7626369327e-001 -2.5553122888e+001
 8.8000000000e-001  9.7508852370e-001 -2.6011473948e+001
 8.9000000000e-001  9.7384687012e-001 -2.6477606925e+001
 9.0000000000e-001  9.7253475859e-001 -2.6951746242e+001
 9.1000000000e-001  9.7114798171e-001 -2.7434120555e+001
 9.2000000000e-001  9.6968208669e-001 -2.7924962478e+001
 9.3000000000e-001  9.6813236320e-001 -2.8424508248e+001
 9.4000000000e-001  9.6649383106e-001 -2.8932997325e+001
 9.5000000000e-001  9.6476122784e-001 -2.9450671913e+001
 9.6000000000e-001  9.6292899649e-001 -2.9977776394e+001
 9.7000000000e-001  9.6099127313e-001 -3.0514556678e+001
 9.8000000000e-001  9.5894187515e-001 -3.1061259434e+001
 9.9000000000e-001  9.5677428979e-001 -3.1618131216e+001
 1.0000000000e+000  9.5448166337e-001 -3.2185417460e+001
 1.0100000000e+000  9.5205679150e-001 -3.2763361334e+001
 1.0200000000e+000  9.4949211048e-001 -3.3352202446e+001
 1.0300000000e+000  9.4677969018e-001 -3.3952175375e+001
 1.0400000000e+000  9.4391122886e-001 -3.4563508023e+001
 1.0500000000e+000  9.4087805025e-001 -3.5186419778e+001
 1.0600000000e+000  9.3767110330e-001 -3.5821119450e+001
 1.0700000000e+000  9.3428096530e-001 -3.6467803001e+001
 1.0800000000e+000  9.3069784861e-001 -3.7126651013e+001
 1.0900000000e+000  9.2691161195e-001 -3.7797825919e+001
 1.1000000000e+000  9.2291177659e-001 -3.8481468958e+001
 1.1100000000e+000  9.1868754830e-001 -3.9177696850e+001
 1.1200000000e+000  9.1422784578e-001 -3.9886598191e+001
 1.1300000000e+000  9.0952133617e-001 -4.0608229545e+001
 1.1400000000e+000  9.0455647865e-001 -4.1342611253e+001
 1.1500000000e+000  8.9932157660e-001 -4.2089722940e+001
 1.1600000000e+000  8.9380483929e-001 -4.2849498740e+001
 1.1700000000e+000  8.8799445364e-001 -4.3621822251e+001
 1.1800000000e+000  8.8187866661e-001 -4.4406521249e+001
 1.1900000000e+000  8.7544587877e-001 -4.5203362170e+001
 1.2000000000e+000  8.6868474939e-001 -4.6012044434e+001
 1.2100000000e+000  8.6158431290e-001 -4.6832194631e+001
 1.2200000000e+000  8.5413410683e-001 -4.7663360648e+001
 1.2300000000e+000  8.4632431063e-001 -4.8505005810e+001
 1.2400000000e+000  8.3814589443e-001 -4.9356503120e+001
 1.2500000000e+000  8.2959077673e-001 -5.0217129691e+001
 1.2600000000e+000  8.2065198912e-001 -5.1086061492e+001
 1.2700000000e+000  8.1132384601e-001 -5.1962368524e+001
 1.2800000000e+000  8.0160211663e-001 -5.2845010547e+001
 1.2900000000e+000  7.9148419630e-001 -5.3732833511e+001
 1.3000000000e+000  7.8096927318e-001 -5.4624566818e+001
 1.3100000000e+000  7.7005848675e-001 -5.5518821557e+001
 1.3200000000e+000  7.5875507345e-001 -5.6414089854e+001
 1.3300000000e+000  7.4706449520e-001 -5.7308745444e+001
 1.3400000000e+000  7.3499454589e-001 -5.8201045599e+001
 1.3500000000e+000  7.2255543158e-001 -5.9089134483e+001
 1.3600000000e+000  7.0975981993e-001 -5.9971048003e+001
 1.3700000000e+000  6.9662285516e-001 -6.0844720195e+001
 1.3800000000e+000  6.8316213534e-001 -6.1707991131e+001
 1.3900000000e+000  6.6939764971e-001 -6.2558616323e+001
 1.4000000000e+000  6.5535167467e-001 -6.3394277524e+001
 1.4100000000e+000  6.4104862843e-001 -6.4212594817e+001
 1.4200000000e+000  6.2651488512e-001 -6.5011139814e+001
 1.4300000000e+000  6.1177855097e-001 -6.5787449771e+001
 1.4400000000e+000  5.9686920584e-001 -6.6539042372e+001
 1.4500000000e+000  5.8181761500e-001 -6.7263430896e+001
 1.4600000000e+000  5.6665541663e-001 -6.7958139488e+001
 1.4700000000e+000  5.5141479170e-001 -6.8620718180e+001
 1.4800000000e+000  5.3612812306e-001 -6.9248757342e+001
 1.4900000000e+000  5.2082765124e-001 -6.9839901193e+001
 1.5000000000e+000  5.0554513418e-001 -7.0391860007e+001
 1.5100000000e+000  4.9031151809e-001 -7.0902420658e+001
 1.5200000000e+000  4.7515662601e-001 -7.1369455097e+001
 1.5300000000e+000  4.6010887014e-001 -7.1790926404e+001
 1.5400000000e+000  4.4519499302e-001 -7.2164892001e+001
 1.5500000000e+000  4.3043984185e-001 -7.2489503627e+001
 1.5600000000e+000  4.1586617911e-001 -7.2763003628e+001
 1.5700000000e+000  4.0149453182e-001 -7.2983717115e+001
 1.5800000000e+000  3.8734308074e-001 -7.3150039465e+001
 1.5900000000e+000  3.7342758992e-001 -7.3260418625e+001
 1.6000000000e+000  3.5976137642e-001 -7.3313331563e+001
 1.6100000000e+000  3.4635531932e-001 -7.3307254163e+001
 1.6200000000e+000  3.3321790659e-001 -7.3240623708e+001
 1.6300000000e+000  3.2035531843e-001 -7.3111792991e+001
 1.6400000000e+000  3.0777154522e-001 -7.2918974872e+001
 1.6500000000e+000  2.9546853851e-001 -7.2660175916e+001
 1.6600000000e+000  2.8344639353e-001 -7.2333117431e+001
 1.6700000000e+000  2.7170356247e-001 -7.1935141900e+001
 1.6800000000e+000  2.6023709787e-001 -7.1463102332e+001
 1.6900000000e+000  2.4904292685e-001 -7.0913231554e+001
 1.7000000000e+000  2.3811615775e-001 -7.0280987775e+001
 1.7100000000e+000  2.2745142226e-001 -6.9560871996e+001
 1.7200000000e+000  2.1704325807e-001 -6.8746211965e+001
 1.7300000000e+000  2.0688653957e-001 -6.7828906440e+001
 1.7400000000e+000  1.9697696684e-001 -6.6799122689e+001
 1.7500000000e+000  1.8731162765e-001 -6.5644939703e+001
 1.7600000000e+000  1.7788965131e-001 -6.4351930015e+001
 1.7700000000e+000  1.6871297940e-001 -6.2902675449e+001
 1.7800000000e+000  1.5978728488e-001 -6.1276218144e+001
 1.7900000000e+000  1.5112307762e-001 -5.9447461261e+001
 1.8000000000e+000  1.4273703951e-001 -5.7386558814e+001
 1.8100000000e+000  1.3465363210e-001 -5.5058379776e+001
 1.8200000000e+000  1.2690700621e-001 -5.2422210172e+001
 1.8300000000e+000  1.1954320295e-001 -4.9431984106e+001
 1.8400000000e+000  1.1262254517e-001 -4.6037523598e+001
 1.8500000000e+000  1.0622194325e-001 -4.2187509386e+001
 1.8600000000e+000  1.0043654328e-001 -3.7835126591e+001
 1.8700000000e+000  9.5379720222e-002 -3.2947315268e+001
 1.8800000000e+000  9.1179965779e-002 -2.7517882913e+001
 1.8900000000e+000  8.7973063187e-002 -2.1582881209e+001
 1.9000000000e+000  8.5888663897e-002 -1.5233576845e+001
 1.9100000000e+000  8.5032488495e-002 -8.6195768700e+000
 1.9200000000e+000  8.5468427500e-002 -1.9355368494e+000
 1.9300000000e+000  8.7206801580e-002 4.6082603743e+000
 1.9400000000e+000  9.0203590218e-002 1.0821577816e+001
 1.9500000000e+000  9.4370677282e-002 1.6562043950e+001
 1.9600000000e+000  9.9592444570e-002 2.1746282721e+001
 1.9700000000e+000  1.0574263555e-001 2.6345173446e+001
 1.9800000000e+000  1.1269732548e-001 3.0370225800e+001
 1.9900000000e+000  1.2034274553e-001 3.3858292052e+001
 2.0000000000e+000  1.2857871304e-001 3.6858880653e+001
 2.0100000000e+000  1.3731912301e-001 3.9425370328e+001
 2.0200000000e+000  1.4649083500e-001 4.1609732521e+001
 2.0300000000e+000  1.5603188563e-001 4.3459805748e+001
 2.0400000000e+000  1.6588957107e-001 4.5018198222e+001
 2.0500000000e+000  1.7601867077e-001 4.6322127176e+001
 2.0600000000e+000  1.8637991997e-001 4.7403741226e+001
 2.0700000000e+000  1.9693875156e-001 4.8290653358e+001
 2.0800000000e+000  2.0766428759e-001 4.9006532655e+001
 2.0900000000e+000  2.1852854571e-001 4.9571676761e+001
 2.1000000000e+000  2.2950582339e-001 5.0003529726e+001
 2.1100000000e+000  2.4057222598e-001 5.0317133190e+001
 2.1200000000e+000  2.5170530926e-001 5.0525510852e+001
 2.1300000000e+000  2.6288381276e-001 5.0639991678e+001
 2.1400000000e+000  2.7408746432e-001 5.0670479459e+001
 2.1500000000e+000  2.8529684056e-001 5.0625676586e+001
 2.1600000000e+000  2.9649327084e-001 5.0513269425e+001
 2.1700000000e+000  3.0765877490e-001 5.0340081778e+001
 2.1800000000e+000  3.1877602635e-001 5.0112202006e+001
 2.1900000000e+000  3.2982833569e-001 4.9835088456e+001
 2.2000000000e+000  3.4079964773e-001 4.9513657070e+001
 2.2100000000e+000  3.5167454925e-001 4.9152354356e+001
 2.2200000000e+000  3.6243828361e-001 4.8755218331e+001
 2.2300000000e+000  3.7307676953e-001 4.8325929575e+001
 2.2400000000e+000  3.8357662181e-001 4.7867854138e+001
 2.2500000000e+000  3.9392517223e-001 4.7384079742e+001
 2.2600000000e+000  4.0411048920e-001 4.6877446440e+001
 2.2700000000e+000  4.1412139505e-001 4.6350572711e+001
 2.2800000000e+000  4.2394748018e-001 4.5805877758e+001
 2.2900000000e+000  4.3357911343e-001 4.5245600682e+001
 2.3000000000e+000  4.4300744822e-001 4.4671817060e+001
 2.3100000000e+000  4.5222442447e-001 4.4086453358e+001
 2.3200000000e+000  4.6122276596e-001 4.3491299568e+001
 2.3300000000e+000  4.6999597349e-001 4.2888020344e+001
 2.3400000000e+000  4.7853831378e-001 4.2278164900e+001
 2.3500000000e+000  4.8684480456e-001 4.1663175875e+001
 2.3600000000e+000  4.9491119611e-001 4.1044397322e+001
 2.3700000000e+000  5.0273394974e-001 4.0423081973e+001
 2.3800000000e+000  5.1031021349e-001 3.9800397881e+001
 2.3900000000e+000  5.1763779567e-001 3.9177434544e+001
 2.4000000000e+000  5.2471513664e-001 3.8555208569e+001
 2.4100000000e+000  5.3154127926e-001 3.7934668959e+001
 2.4200000000e+000  5.3811583861e-001 3.7316702056e+001
 2.4300000000e+000  5.4443897118e-001 3.6702136175e+001
 2.4400000000e+000  5.5051134424e-001 3.6091745988e+001
 2.4500000000e+000  5.5633410547e-001 3.5486256643e+001
 2.4600000000e+000  5.6190885347e-001 3.4886347673e+001
 2.4700000000e+000  5.6723760924e-001 3.4292656687e+001
 2.4800000000e+000  5.7232278912e-001 3.3705782858e+001
 2.4900000000e+000  5.7716717917e-001 3.3126290226e+001
 2.5000000000e+000  5.8177391145e-001 3.2554710806e+001
 2.5100000000e+000  5.8614644222e-001 3.1991547514e+001
 2.5200000000e+000  5.9028853215e-001 3.1437276906e+001
 2.5300000000e+000  5.9420422871e-001 3.0892351737e+001
 2.5400000000e+000  5.9789785085e-001 3.0357203324e+001
 2.5500000000e+000  6.0137397580e-001 2.9832243727e+001
 2.5600000000e+000  6.0463742814e-001 2.9317867727e+001
 2.5700000000e+000  6.0769327111e-001 2.8814454609e+001
 2.5800000000e+000  6.1054679993e-001 2.8322369732e+001
 2.5900000000e+000  6.1320353731e-001 2.7841965890e+001
 2.6000000000e+000  6.1566923067e-001 2.7373584438e+001
 2.6100000000e+000  6.1794985130e-001 2.6917556201e+001
 2.6200000000e+000  6.2005159502e-001 2.6474202126e+001
 2.6300000000e+000  6.2198088419e-001 2.6043833693e+001
 2.6400000000e+000  6.2374437100e-001 2.5626753054e+001
 2.6500000000e+000  6.2534894154e-001 2.5223252910e+001
 2.6600000000e+000  6.2680172059e-001 2.4833616095e+001
 2.6700000000e+000  6.2811007668e-001 2.4458114880e+001
 2.6800000000e+000  6.2928162715e-001 2.4097009966e+001
 2.6900000000e+000  6.3032424285e-001 2.3750549187e+001
 2.7000000000e+000  6.3124605211e-001 2.3418965892e+001
 2.7100000000e+000  6.3205544350e-001 2.3102477029e+001
 2.7200000000e+000  6.3276106707e-001 2.2801280922e+001
 2.7300000000e+000  6.3337183355e-001 2.2515554746e+001
 2.7400000000e+000  6.3389691110e-001 2.2245451734e+001
 2.7500000000e+000  6.3434571917e-001 2.1991098111e+001
 2.7600000000e+000  6.3472791896e-001 2.1752589799e+001
 2.7700000000e+000  6.3505340015e-001 2.1529988930e+001
 2.7800000000e+000  6.3533226345e-001 2.1323320196e+001
 2.7900000000e+000  6.3557479858e-001 2.1132567115e+001
 2.8000000000e+000  6.3579145744e-001 2.0957668247e+001
 2.8100000000e+000  6.3599282215e-001 2.0798513462e+001
 2.8200000000e+000  6.3618956792e-001 2.0654940321e+001
 2.8300000000e+000  6.3639242052e-001 2.0526730664e+001
 2.8400000000e+000  6.3661210863e-001 2.0413607517e+001
 2.8500000000e+000  6.3685931105e-001 2.0315232394e+001
 2.8600000000e+000  6.3714459924e-001 2.0231203124e+001
 2.8700000000e+000  6.3747837557e-001 2.0161052280e+001
 2.8800000000e+000  6.3787080803e-001 2.0104246337e+001
 2.8900000000e+000  6.3833176200e-001 2.0060185624e+001
 2.9000000000e+000  6.3887073017e-001 2.0028205174e+001
 2.9100000000e+000  6.3949676162e-001 2.0007576506e+001
 2.9200000000e+000  6.4021839108e-001 1.9997510416e+001
 2.9300000000e+000  6.4104356995e-001 1.9997160768e+001
 2.9400000000e+000  6.4197960002e-001 2.0005629296e+001
 2.9500000000e+000  6.4303307150e-001 2.0021971374e+001
 2.9600000000e+000  6.4420980655e-001 2.0045202693e+001
 2.9700000000e+000  6.4551480958e-001 2.0074306750e+001
 2.9800000000e+000  6.4695222548e-001 2.0108243034e+001
 2.9900000000e+000  6.4852530679e-001 2.0145955754e+001
 3.0000000000e+000  6.5023639057e-001 2.0186382960e+001
 3.0100000000e+000  6.5208688565e-001 2.0228465861e+001
 3.0200000000e+000  6.5407727063e-001 2.0271158166e+001
 3.0300000000e+000  6.5620710263e-001 2.0313435254e+001
 3.0400000000e+000  6.5847503679e-001 2.0354302986e+001
 3.0500000000e+000  6.6087885608e-001 2.0392805987e+001
 3.0600000000e+000  6.6341551075e-001 2.0428035252e+001
 3.0700000000e+000  6.6608116662e-001 2.0459134922e+001
 3.0800000000e+000  6.6887126124e-001 2.0485308142e+001
 3.0900000000e+000  6.7178056655e-001 2.0505821917e+001
 3.1000000000e+000  6.7480325709e-001 2.0520010911e+001
 3.1100000000e+000  6.7793298208e-001 2.0527280175e+001
 3.1200000000e+000  6.8116294034e-001 2.0527106817e+001
 3.1300000000e+000  6.8448595636e-001 2.0519040641e+001
 3.1400000000e+000  6.8789455667e-001 2.0502703820e+001
 3.1500000000e+000  6.9138104486e-001 2.0477789680e+001
 3.1600000000e+000  6.9493757455e-001 2.0444060675e+001
 3.1700000000e+000  6.9855621913e-001 2.0401345677e+001
 3.1800000000e+000  7.0222903756e-001 2.0349536663e+001
 3.1900000000e+000  7.0594813558e-001 2.0288584929e+001
 3.2000000000e+000  7.0970572173e-001 2.0218496936e+001
 3.2100000000e+000  7.1349415800e-001 2.0139329878e+001
 3.2200000000e+000  7.1730600469e-001 2.0051187094e+001
 3.2300000000e+000  7.2113405960e-001 1.9954213396e+001
 3.2400000000e+000  7.2497139136e-001 1.9848590398e+001
 3.2500000000e+000  7.2881136723e-001 1.9734531926e+001
 3.2600000000e+000  7.3264767549e-001 1.9612279543e+001
 3.2700000000e+000  7.3647434263e-001 1.9482098276e+001
 3.2800000000e+000  7.4028574584e-001 1.9344272541e+001
 3.2900000000e+000  7.4407662102e-001 1.9199102333e+001
 3.3000000000e+000  7.4784206680e-001 1.9046899673e+001
 3.3100000000e+000  7.5157754493e-001 1.8887985345e+001
 3.3200000000e+000  7.5527887751e-001 1.8722685917e+001
 3.3300000000e+000  7.5894224137e-001 1.8551331051e+001
 3.3400000000e+000  7.6256416012e-001 1.8374251096e+001
 3.3500000000e+000  7.6614149413e-001 1.8191774956e+001
 3.3600000000e+000  7.6967142895e-001 1.8004228224e+001
 3.3700000000e+000  7.7315146224e-001 1.7811931560e+001
 3.3800000000e+000  7.7657938986e-001 1.7615199309e+001
 3.3900000000e+000  7.7995329107e-001 1.7414338335e+001
 3.4000000000e+000  7.8327151328e-001 1.7209647050e+001
 3.4100000000e+000  7.8653265648e-001 1.7001414631e+001
 3.4200000000e+000  7.8973555765e-001 1.6789920405e+001
 3.4300000000e+000  7.9287927512e-001 1.6575433371e+001
 3.4400000000e+000  7.9596307319e-001 1.6358211870e+001
 3.4500000000e+000  7.9898640709e-001 1.6138503363e+001
 3.4600000000e+000  8.0194890833e-001 1.5916544309e+001
 3.4700000000e+000  8.0485037049e-001 1.5692560146e+001
 3.4800000000e+000  8.0769073567e-001 1.5466765335e+001
 3.4900000000e+000  8.1047008144e-001 1.5239363479e+001
 3.5000000000e+000  8.1318860847e-001 1.5010547493e+001
 3.5100000000e+000  8.1584662874e-001 1.4780499824e+001
 3.5200000000e+000  8.1844455454e-001 1.4549392706e+001
 3.5300000000e+000  8.2098288796e-001 1.4317388447e+001
 3.5400000000e+000  8.2346221117e-001 1.4084639739e+001
 3.5500000000e+000  8.2588317726e-001 1.3851289991e+001
 3.5600000000e+000  8.2824650178e-001 1.3617473665e+001
 3.5700000000e+000  8.3055295479e-001 1.3383316630e+001
 3.5800000000e+000  8.3280335360e-001 1.3148936517e+001
 3.5900000000e+000  8.3499855600e-001 1.2914443074e+001
 3.6000000000e+000  8.3713945404e-001 1.2679938526e+001
 3.6100000000e+000  8.3922696835e-001 1.2445517920e+001
 3.6200000000e+000  8.4126204288e-001 1.2211269476e+001
 3.6300000000e+000  8.4324564016e-001 1.1977274925e+001
 3.6400000000e+000  8.4517873694e-001 1.1743609838e+001
 3.6500000000e+000  8.4706232021e-001 1.1510343951e+001
 3.6600000000e+000  8.4889738367e-001 1.1277541469e+001
 3.6700000000e+000  8.5068492445e-001 1.1045261372e+001
 3.6800000000e+000  8.5242594021e-001 1.0813557700e+001
 3.6900000000e+000  8.5412142652e-001 1.0582479831e+001
 3.7000000000e+000  8.5577237451e-001 1.0352072748e+001
 3.7100000000e+000  8.5737976878e-001 1.0122377289e+001
 3.7200000000e+000  8.5894458554e-001 9.8934303914e+000
 3.7300000000e+000  8.6046779095e-001 9.6652653241e+000
 3.7400000000e+000  8.6195033967e-001 9.4379119042e+000
 3.7500000000e+000  8.6339317360e-001 9.2113967071e+000
 3.7600000000e+000  8.6479722072e-001 8.9857432642e+000
 3.7700000000e+000  8.6616339419e-001 8.7609722507e+000
 3.7800000000e+000  8.6749259146e-001 8.5371016630e+000
 3.7900000000e+000  8.6878569357e-001 8.3141469877e+000
 3.8000000000e+000  8.7004356459e-001 8.0921213601e+000
 3.8100000000e+000  8.7126705105e-001 7.8710357151e+000
 3.8200000000e+000  8.7245698159e-001 7.6508989291e+000
 3.8300000000e+000  8.7361416658e-001 7.4317179543e+000
 3.8400000000e+000  8.7473939788e-001 7.2134979452e+000
 3.8500000000e+000  8.7583344866e-001 6.9962423786e+000
 3.8600000000e+000  8.7689707321e-001 6.7799531660e+000
 3.8700000000e+000  8.7793100689e-001 6.5646307604e+000
 3.8800000000e+000  8.7893596610e-001 6.3502742565e+000
 3.8900000000e+000  8.7991264822e-001 6.1368814857e+000
 3.9000000000e+000  8.8086173170e-001 5.9244491057e+000
 3.9100000000e+000  8.8178387607e-001 5.7129726847e+000
