! IGNION VIRTUAL ANTENNA LIBRARY
!
! NN_TRIO_B80x70_C70x12
! Virtual Antenna™ TRIO mXTEND™: NN03-310 30.0mm x 3.0mm x 1.0mm
! https://ignion.io/product/trio-mxtend/
! Board: 80mm x 70mm
! Clearance Area: 70mm x 12mm
! Feeding line: straight line; 9mm x 1mm
! Applications: Smartphone, Fleet management, IoT
! Frequency range 0.65GHz to 6GHz, step ~5MHz
! Number of ports 5
!
! This product and its use are protected by at least one or more of the following patents and
! patent applications PAT. US 2020/0176855 A1; WO 2019/008171 A1; and other domestic and international
! patents pending. Additional information about patents related to this product is available at 
! https://ignion.io/files/Patent-list-NN.pdf, all rights reserved. Copyright, Ignion 2021.
!
! Need more help? Your platform is much different than these examples in the manual? Use our 
! Fast Track service (https://ignion.io/fast-track/), for free, and get a personalized antenna design in
! just 24 hours.
!
!
! Touchstone port 1 = CST MWS port 1 ("Series Feeding Port 1")
! Touchstone port 2 = CST MWS port 2 ("Series in-Trio Port 1")
! Touchstone port 3 = CST MWS port 3 ("Series in-Trio Port 2")
! Touchstone port 4 = CST MWS port 4 ("Series Port in Feeding line of Port 2")
! Touchstone port 5 = CST MWS port 5 ("Series Feeding Port 2")
!
! CST MICROWAVE STUDIO 2019
# GHz S MA R 50
! Nport = 5
0.65                    0.642702       0.0268509         0.365202         156.572         0.383278        -43.5195         0.387892        -43.3065
                        0.389157        -44.1353
                        0.364179         156.378         0.659183        -3.03466         0.372346         -44.595          0.37842        -44.3793
                        0.379543        -45.3852
                         0.38341        -43.4844         0.372122        -44.7357         0.700873       -0.995297          0.32779         151.789
                        0.334193          148.06
                        0.388472        -43.2134          0.37777         -44.659         0.326733         151.659         0.700217         4.08587
                         0.32211         156.922
                        0.389168        -44.1354          0.37888        -45.6787         0.333984         148.025         0.323181         157.024
                        0.696173        0.933184
0.65535                 0.643086      -0.0209349          0.36482         156.413         0.383096        -43.8782         0.387783         -43.664
                        0.389095        -44.5087
                        0.363736         156.231         0.659886        -3.09737         0.371941        -44.9516         0.378139        -44.7428
                        0.379279        -45.7579
                         0.38324        -43.8444         0.371668        -45.0888         0.702089        -1.08537         0.326709         151.623
                        0.333181         147.867
                        0.388395         -43.577         0.377391        -45.0139         0.325617         151.505         0.701403         4.03745
                        0.320954         156.832
                        0.389106        -44.5089         0.378512        -46.0425         0.332961         147.835         0.322049          156.92
                        0.697286        0.853675
0.6607                  0.643458      -0.0692274         0.364437         156.254          0.38291        -44.2372         0.387674        -44.0219
                        0.389029        -44.8829
                        0.363296         156.085         0.660591        -3.16069         0.371534         -45.308         0.377854        -45.1065
                         0.37901        -46.1309
                        0.383066        -44.2049         0.371213        -45.4413         0.703298        -1.17654         0.325624         151.458
                        0.332169         147.677
                        0.388313        -43.9414         0.377012        -45.3681         0.324504         151.354         0.702585         3.98762
                          0.3198         156.745
                         0.38904        -44.8831         0.378145        -46.4058         0.331941         147.647         0.320913          156.82
                        0.698388         0.77289
0.66605                 0.643819       -0.117985         0.364052         156.096         0.382721        -44.5966         0.387563        -44.3804
                        0.388959        -45.2579
                         0.36286          155.94         0.661298        -3.22461         0.371123        -45.6642         0.377564        -45.4704
                        0.378736        -46.5041
                        0.382888        -44.5658         0.370758        -45.7933           0.7045        -1.26878         0.324536         151.296
                        0.331159         147.489
                        0.388227        -44.3064         0.376634        -45.7219         0.323392         151.205         0.703761         3.93639
                        0.318649          156.66
                         0.38897        -45.2581         0.377778        -46.7685         0.330922         147.462         0.319775         156.722
                         0.69948        0.690863
0.6714                  0.644168       -0.167165         0.363665         155.938         0.382528        -44.9563          0.38745        -44.7394
                        0.388884        -45.6336
                        0.362429         155.795         0.662008        -3.28915         0.370711        -46.0202          0.37727        -45.8344
                        0.378458        -46.8774
                        0.382706        -44.9271         0.370302        -46.1447         0.705695        -1.36207         0.323445         151.136
                        0.330149         147.303
                        0.388137        -44.6721         0.376256        -46.0751         0.322282         151.058         0.704933         3.88378
                          0.3175         156.579
                        0.388895        -45.6338         0.377412        -47.1308         0.329905         147.279         0.318634         156.627
                        0.700562        0.607628
0.67675                 0.644506       -0.216727         0.363277         155.781         0.382332        -45.3164         0.387336        -45.0989
                        0.388805          -46.01
                        0.362001         155.651          0.66272        -3.35432         0.370296         -46.376         0.376971        -46.1985
                        0.378176         -47.251
                        0.382519        -45.2888         0.369847        -46.4956         0.706882        -1.45636          0.32235         150.977
                         0.32914          147.12
                        0.388042        -45.0383         0.375879        -46.4279         0.321174         150.913         0.706098         3.82979
                        0.316353         156.501
                        0.388816        -46.0102         0.377047        -47.4926          0.32889         147.098         0.317491         156.535
                        0.701634        0.523218
0.6821                  0.644832       -0.266631         0.362887         155.624         0.382132        -45.6767         0.387221        -45.4589
                        0.388721        -46.3871
                        0.361578         155.509         0.663434        -3.42013         0.369878        -46.7317         0.376667        -46.5628
                        0.377889        -47.6247
                        0.382328        -45.6508         0.369391        -46.8461         0.708062        -1.55163         0.321253         150.821
                        0.328132         146.938
                        0.387943        -45.4052         0.375502        -46.7803         0.320068         150.771         0.707258         3.77444
                         0.31521         156.426
                        0.388733        -46.3873         0.376683        -47.8539         0.327877         146.919         0.316346         156.446
                        0.702695        0.437665
0.68745                 0.645145       -0.316835         0.362496         155.468         0.381928        -46.0373         0.387103        -45.8194
                        0.388633        -46.7649
                        0.361159         155.366          0.66415        -3.48659         0.369458        -47.0872         0.376358        -46.9272
                        0.377598        -47.9985
                        0.382132        -46.0132         0.368935        -47.1961         0.709235        -1.64784         0.320153         150.668
                        0.327126         146.758
                        0.387839        -45.7726         0.375125        -47.1323         0.318965         150.631         0.708412         3.71775
                         0.31407         156.354
                        0.388645        -46.7651          0.37632        -48.2149         0.326867         146.742         0.315199         156.361
                        0.703746        0.350999
0.6928                  0.645447       -0.367301         0.362104         155.312         0.381721        -46.3982         0.386984        -46.1804
                         0.38854        -47.1434
                        0.360744         155.225         0.664868        -3.55371         0.369036        -47.4425         0.376045        -47.2916
                        0.377302        -48.3724
                        0.381932        -46.3759         0.368479        -47.5457         0.710401        -1.74498         0.319051         150.516
                        0.326121         146.581
                         0.38773        -46.1406          0.37475        -47.4838         0.317864         150.494         0.709559         3.65974
                        0.312934         156.285
                        0.388551        -47.1435         0.375958        -48.5755         0.325859         146.567         0.314051         156.278
                        0.704786        0.263251
0.69815                 0.645738       -0.417991          0.36171         155.157         0.381509        -46.7593         0.386863        -46.5419
                        0.388442        -47.5224
                        0.360333         155.084         0.665587        -3.62149         0.368611        -47.7976         0.375727        -47.6561
                        0.377001        -48.7465
                        0.381727        -46.7389         0.368024        -47.8949         0.711559        -1.84301         0.317947         150.367
                        0.325118         146.405
                        0.387616        -46.5091         0.374375        -47.8351         0.316766         150.358         0.710699         3.60041
                        0.311801         156.218
                        0.388453        -47.5226         0.375597        -48.9358         0.324854         146.395         0.312902         156.198
                        0.705816        0.174448
0.7035                  0.646016       -0.468865         0.361315         155.003         0.381294        -47.1206          0.38674        -46.9039
                        0.388339         -47.902
                        0.359928         154.944         0.666308        -3.68995         0.368184        -48.1526         0.375404        -48.0206
                        0.376696        -49.1206
                        0.381517        -47.1021         0.367568        -48.2437          0.71271        -1.94191         0.316841          150.22
                        0.324116         146.232
                        0.387497        -46.8781         0.374001         -48.186         0.315671         150.225         0.711832         3.53979
                        0.310672         156.155
                         0.38835        -47.9022         0.375237        -49.2957         0.323852         146.224         0.311753         156.122
                        0.706834       0.0846197
0.70885                 0.646283       -0.519887         0.360919         154.849         0.381075        -47.4822         0.386614        -47.2664
                         0.38823        -48.2822
                        0.359526         154.805         0.667029        -3.75908         0.367754        -48.5074         0.375076        -48.3852
                        0.376385        -49.4947
                        0.381303        -47.4656         0.367112        -48.5921         0.713854        -2.04166         0.315733         150.076
                        0.323116          146.06
                        0.387374        -47.2475         0.373628        -48.5366         0.314578         150.093         0.712957         3.47789
                        0.309547         156.095
                        0.388242        -48.2824         0.374878        -49.6555         0.322852         146.055         0.310603         156.049
                        0.707842     -0.00620899
0.7142                  0.646538       -0.571021         0.360522         154.696         0.380852        -47.8439         0.386486        -47.6294
                        0.388117         -48.663
                        0.359129         154.666         0.667752        -3.82889         0.367322        -48.8621         0.374744        -48.7497
                        0.376071        -49.8689
                        0.381084        -47.8293         0.366657        -48.9403         0.714991        -2.14223         0.314623         149.933
                        0.322118         145.891
                        0.387245        -47.6174         0.373256         -48.887         0.313488         149.964         0.714075         3.41472
                        0.308426         156.037
                        0.388128        -48.6632         0.374521         -50.015         0.321855         145.889         0.309453         155.979
                        0.708839      -0.0980123
0.71955                 0.646782        -0.62223         0.360124         154.544         0.380625        -48.2058         0.386356        -47.9929
                        0.387998        -49.0443
                        0.358737         154.528         0.668476         -3.8994         0.366888        -49.2166         0.374407        -49.1142
                        0.375751        -50.2432
                         0.38086        -48.1932         0.366202        -49.2881         0.716121         -2.2436         0.313512         149.793
                        0.321122         145.723
                        0.387111        -47.9877         0.372885        -49.2372         0.312402         149.837         0.715185         3.35032
                         0.30731         155.983
                        0.388009        -49.0444         0.374165        -50.3743         0.320861         145.724         0.308304         155.913
                        0.709825       -0.190766
0.7249                  0.647014        -0.67348         0.359726         154.393         0.380394        -48.5679         0.386223         -48.357
                        0.387874         -49.426
                         0.35835          154.39         0.669201        -3.97059         0.366451        -49.5709         0.374065        -49.4787
                        0.375427        -50.6174
                        0.380632        -48.5573         0.365747        -49.6357         0.717244        -2.34574           0.3124         149.656
                        0.320128         145.558
                        0.386971        -48.3583         0.372514        -49.5872         0.311318         149.712         0.716286         3.28468
                        0.306197         155.931
                        0.387885        -49.4262          0.37381        -50.7334          0.31987         145.561         0.307155          155.85
                        0.710801       -0.284448
0.73025                 0.647234       -0.724738         0.359327         154.242         0.380159        -48.9302         0.386088        -48.7215
                        0.387744        -49.8083
                        0.357967         154.253         0.669925        -4.04247         0.366011        -49.9251         0.373718        -49.8431
                        0.375098        -50.9916
                        0.380398        -48.9215         0.365293         -49.983          0.71836        -2.44866         0.311286         149.521
                        0.319136         145.394
                        0.386827        -48.7294         0.372145         -49.937         0.310237         149.589         0.717379         3.21784
                         0.30509         155.883
                        0.387756        -49.8085         0.373456        -51.0925         0.318882           145.4         0.306008          155.79
                        0.711765       -0.379035
0.7356                  0.647444       -0.775971         0.358928         154.092         0.379919        -49.2926          0.38595        -49.0865
                        0.387609         -50.191
                        0.357588         154.116          0.67065        -4.11504          0.36557        -50.2792         0.373366        -50.2075
                        0.374764        -51.3658
                         0.38016        -49.2858         0.364839        -50.3301         0.719469        -2.55231         0.310172         149.388
                        0.318146         145.232
                        0.386677        -49.1008         0.371776        -50.2867         0.309158         149.468         0.718463         3.14981
                        0.303986         155.837
                        0.387621        -50.1911         0.373104        -51.4514         0.317897         145.241         0.304861         155.734
                        0.712719       -0.474507
0.74095                 0.647642       -0.827145         0.358529         153.943         0.379677        -49.6551         0.385809         -49.452
                        0.387469        -50.5741
                        0.357214          153.98         0.671375         -4.1883         0.365126        -50.6331          0.37301        -50.5718
                        0.374425          -51.74
                        0.379918        -49.6503         0.364384         -50.677         0.720571        -2.65669         0.309058         149.258
                        0.317158         145.072
                        0.386522        -49.4725         0.371409        -50.6363         0.308083         149.349         0.719538         3.08061
                        0.302888         155.794
                         0.38748        -50.5743         0.372752        -51.8103         0.316915         145.084         0.303717         155.681
                        0.713661       -0.570845
0.7463                   0.64783       -0.878231          0.35813         153.794          0.37943        -50.0177         0.385665        -49.8181
                        0.387323        -50.9576
                        0.356845         153.844           0.6721        -4.26225         0.364679        -50.9868         0.372649        -50.9359
                        0.374082        -52.1141
                         0.37967        -50.0149          0.36393        -51.0238         0.721667        -2.76179         0.307943          149.13
                        0.316172         144.914
