! IGNION VIRTUAL ANTENNA LIBRARY
!
! NN_TRIO_B50x35_C35x12
! Virtual Antenna™ TRIO mXTEND™: NN03-310 30.0mm x 3.0mm x 1.0mm
! https://ignion.io/product/trio-mxtend/
! Board: 50mm x 35mm
! Clearance Area: 35mm x 12mm
! Feeding line: straight line; 9mm x 1mm
! Applications: Smartphone, Fleet management, IoT
! Frequency range 0.65GHz to 6GHz, step ~5MHz
! Number of ports 5
!
! This product and its use are protected by at least one or more of the following patents and
! patent applications PAT. US 2020/0176855 A1; WO 2019/008171 A1; and other domestic and international
! patents pending. Additional information about patents related to this product is available at 
! https://ignion.io/files/Patent-list-NN.pdf, all rights reserved. Copyright, Ignion 2021.
!
! Need more help? Your platform is much different than these examples in the manual? Use our 
! Fast Track service (https://ignion.io/fast-track/), for free, and get a personalized antenna design in
! just 24 hours.
!
!
! Touchstone port 1 = CST MWS port 1 ("Series Feeding Port 1")
! Touchstone port 2 = CST MWS port 2 ("Series in-Trio Port 1")
! Touchstone port 3 = CST MWS port 3 ("Series in-Trio Port 2")
! Touchstone port 4 = CST MWS port 4 ("Series Port in Feeding line of Port 2")
! Touchstone port 5 = CST MWS port 5 ("Series Feeding Port 2")
!
! CST MICROWAVE STUDIO 2019
# GHz S MA R 50
! Nport = 5
0.65                     0.65834         1.39881         0.355229         155.407         0.377603        -42.6639         0.381994        -42.0371
                         0.38264        -42.5664
                        0.355245         155.406         0.670007        -1.75446         0.369381        -43.6684         0.375198        -43.3802
                        0.376795        -44.1109
                         0.37762        -42.6642         0.369382        -43.6684         0.702641        0.387237         0.329489         151.142
                        0.337683         147.559
                        0.382002        -42.0373         0.375189          -43.38         0.329482         151.142          0.70338         5.42207
                        0.326236         155.337
                        0.382356        -42.5276         0.376518        -44.0759         0.338004         147.489         0.326699           155.2
                        0.697854         2.72456
0.65535                 0.659053          1.3579         0.354587         155.252         0.377369        -42.9922         0.381842        -42.3617
                        0.382488        -42.8969
                        0.354603         155.252         0.670863        -1.82277         0.369003        -44.0042         0.374923        -43.7144
                        0.376533        -44.4526
                        0.377387        -42.9925         0.369003        -44.0042           0.7039          0.3146         0.328429         150.958
                        0.336761          147.34
                        0.381851        -42.3618         0.374914        -43.7143         0.328421         150.958         0.704651         5.38624
                        0.325154           155.2
                         0.38222        -42.8565         0.376271         -44.416         0.337057         147.269         0.325571         155.061
                         0.69903         2.67063
0.6607                   0.65976          1.3159         0.353945           155.1         0.377137        -43.3205         0.381693        -42.6863
                        0.382338        -43.2274
                        0.353961           155.1         0.671718        -1.89198         0.368625        -44.3398         0.374649        -44.0486
                        0.376272        -44.7941
                        0.377154        -43.3207         0.368625        -44.3398         0.705158        0.240728         0.327363         150.776
                        0.335834         147.123
                        0.381701        -42.6864          0.37464        -44.0485         0.327355         150.776         0.705917         5.34897
                        0.324067         155.066
                        0.382086        -43.1855         0.376023        -44.7561         0.336106         147.049         0.324439         154.923
                        0.700202          2.6154
0.66605                 0.660463         1.27283         0.353303         154.949         0.376905        -43.6487         0.381545         -43.011
                         0.38219         -43.558
                        0.353319         154.948         0.672569        -1.96209         0.368246        -44.6753         0.374374        -44.3828
                         0.37601        -45.1356
                        0.376922         -43.649         0.368246        -44.6753         0.706412        0.165635         0.326294         150.595
                        0.334904         146.907
                        0.381554        -43.0111         0.374366        -44.3826         0.326286         150.596          0.70718         5.31029
                        0.322976         154.933
                        0.381954        -43.5147         0.375777        -45.0962         0.335152         146.832         0.323303         154.789
                        0.701372         2.55889
0.6714                   0.66116          1.2287          0.35266         154.799         0.376674        -43.9769         0.381399        -43.3359
                        0.382043        -43.8887
                        0.352676         154.799         0.673418        -2.03309         0.367866        -45.0107         0.374101        -44.7169
                        0.375749        -45.4769
                        0.376691        -43.9772         0.367866        -45.0107         0.707664       0.0893372          0.32522         150.417
                         0.33397         146.693
                        0.381407         -43.336         0.374092        -44.7168         0.325213         150.417         0.708438         5.27022
                        0.321882         154.803
                        0.381824        -43.8441         0.375531        -45.4363         0.334193         146.616         0.322163         154.657
                        0.702538         2.50111
0.67675                 0.661852         1.18354         0.352017         154.651         0.376444        -44.3051         0.381254        -43.6609
                        0.381897        -44.2195
                        0.352033         154.651         0.674264        -2.10496         0.367486        -45.3459         0.373827        -45.0511
                        0.375489        -45.8182
                        0.376461        -44.3054         0.367486        -45.3459         0.708913       0.0118494         0.324143          150.24
                        0.333033          146.48
                        0.381262         -43.661         0.373818        -45.0509         0.324135          150.24          0.70969         5.22877
                        0.320784         154.675
                        0.381695        -44.1738         0.375285        -45.7765          0.33323         146.402          0.32102         154.527
                          0.7037         2.44207
0.6821                  0.662538         1.13737         0.351375         154.504         0.376214        -44.6333          0.38111         -43.986
                        0.381753        -44.5503
                        0.351391         154.504         0.675107        -2.17769         0.367105         -45.681         0.373553        -45.3852
                        0.375228        -46.1594
                        0.376231        -44.6336         0.367105         -45.681         0.710159      -0.0668124         0.323062         150.066
                        0.332092         146.269
                        0.381119        -43.9861         0.373544         -45.385         0.323055         150.066         0.710938         5.18597
                        0.319683         154.549
                        0.381568        -44.5036         0.375039        -46.1167         0.332265          146.19         0.319873           154.4
                        0.704858         2.38179
0.68745                 0.663218         1.09019         0.350732         154.359         0.375984        -44.9615         0.380968        -44.3112
                         0.38161        -44.8812
                        0.350748         154.358         0.675947        -2.25126         0.366723        -46.0159          0.37328        -45.7193
                        0.374968        -46.5005
                        0.376001        -44.9618         0.366723        -46.0159         0.711401       -0.146632         0.321978         149.893
                        0.331148         146.059
                        0.380976        -44.3114         0.373271        -45.7191         0.321971         149.893          0.71218         5.14184
                        0.318578         154.425
                        0.381442        -44.8337         0.374794         -46.457         0.331296         145.979         0.318724         154.276
                        0.706012         2.32028
0.6928                  0.663892         1.04204          0.35009         154.215         0.375755        -45.2897         0.380827        -44.6366
                        0.381468        -45.2122
                        0.350106         154.215         0.676784        -2.32567         0.366341        -46.3507         0.373006        -46.0534
                        0.374707        -46.8415
                        0.375772        -45.2899         0.366341        -46.3507          0.71264       -0.227594         0.320891         149.722
                        0.330201         145.851
                        0.380835        -44.6367         0.372997        -46.0532         0.320884         149.722         0.713416          5.0964
                         0.31747         154.304
                        0.381318        -45.1639         0.374549        -46.7972         0.330324          145.77         0.317572         154.154
                        0.707162         2.25756
0.69815                 0.664559        0.992936         0.349449         154.073         0.375527        -45.6179         0.380686        -44.9621
                        0.381328        -45.5433
                        0.349465         154.072         0.677617         -2.4009         0.365958        -46.6853         0.372732        -46.3874
                        0.374447        -47.1824
                        0.375544        -45.6181         0.365958        -46.6853         0.713875       -0.309682         0.319801         149.553
                        0.329251         145.644
                        0.380695        -44.9623         0.372724        -46.3873         0.319793         149.553         0.714646         5.04968
                         0.31636         154.184
                        0.381194        -45.4944         0.374304        -47.1376         0.329349         145.563         0.316418         154.035
                        0.708307         2.19364
0.7035                   0.66522        0.942893         0.348809         153.932         0.375298         -45.946         0.380547        -45.2878
                        0.381188        -45.8745
                        0.348824         153.931         0.678446        -2.47693         0.365574        -47.0199         0.372459        -46.7215
                        0.374187        -47.5233
                        0.375315        -45.9463         0.365574        -47.0199         0.715106       -0.392879         0.318708         149.386
                        0.328298         145.439
                        0.380555         -45.288          0.37245        -46.7214         0.318701         149.386          0.71587         5.00169
                        0.315247         154.067
                        0.381072        -45.8251          0.37406        -47.4779         0.328371         145.357         0.315262         153.919
                        0.709447         2.12853
0.70885                 0.665874        0.891936         0.348169         153.792          0.37507        -46.2742         0.380408        -45.6136
                         0.38105        -46.2058
                        0.348185         153.792         0.679272        -2.55376         0.365189        -47.3543         0.372185        -47.0556
                        0.373927        -47.8641
                        0.375087        -46.2745          0.36519        -47.3543         0.716333       -0.477168         0.317613         149.221
                        0.327342         145.236
                        0.380417        -45.6138         0.372176        -47.0554         0.317605         149.221         0.717087         4.95246
                        0.314131         153.952
                         0.38095        -46.1561         0.373815        -47.8183         0.327391         145.154         0.314104         153.805
                        0.710582         2.06224
0.7142                   0.66652        0.840085         0.347531         153.654         0.374842        -46.6024          0.38027        -45.9396
                        0.380912        -46.5373
                        0.347547         153.654         0.680094        -2.63137         0.364804        -47.6885          0.37191        -47.3896
                        0.373666        -48.2048
                        0.374859        -46.6027         0.364804        -47.6885         0.717555       -0.562534         0.316515         149.058
                        0.326383         145.034
                        0.380279        -45.9397         0.371901        -47.3895         0.316507         149.058         0.718297         4.90201
                        0.313013          153.84
                         0.38083        -46.4873          0.37357        -48.1587         0.326409         144.952         0.312945         153.694
                        0.711711          1.9948
0.71955                  0.66716        0.787361         0.346894         153.517         0.374614        -46.9306         0.380133        -46.2657
                        0.380776        -46.8688
                         0.34691         153.517         0.680912        -2.70974         0.364418        -48.0226         0.371636        -47.7237
                        0.373406        -48.5454
                        0.374631        -46.9309         0.364418        -48.0226         0.718773        -0.64896         0.315415         148.897
                        0.325423         144.833
                        0.380142        -46.2659         0.371627        -47.7235         0.315407         148.897           0.7195         4.85037
                        0.311893          153.73
                         0.38071        -46.8187         0.373325        -48.4992         0.325425         144.752         0.311785         153.585
                        0.712835         1.92622
0.7249                  0.667792        0.733786         0.346259         153.382         0.374387        -47.2588         0.379997         -46.592
                         0.38064        -47.2004
                        0.346275         153.382         0.681726        -2.78886          0.36403        -48.3566         0.371361        -48.0577
                        0.373146        -48.8859
                        0.374404         -47.259          0.36403        -48.3566         0.719987       -0.736428         0.314313         148.738
                         0.32446         144.634
                        0.380005        -46.5921         0.371352        -48.0575         0.314305         148.738         0.720696         4.79756
                        0.310772         153.622
                        0.380591        -47.1503         0.373079        -48.8397         0.324439         144.554         0.310624          153.48
                        0.713954         1.85652
0.73025                 0.668416        0.679382         0.345625         153.248         0.374159        -47.5869         0.379861        -46.9184
                        0.380505        -47.5321
                        0.345641         153.248         0.682536        -2.86871         0.363642        -48.6905         0.371085        -48.3917
                        0.372885        -49.2264
                        0.374176        -47.5872         0.363642        -48.6905         0.721195       -0.824922         0.313209         148.581
                        0.323495         144.437
                        0.379869        -46.9185         0.371076        -48.3915         0.313202         148.581         0.721885         4.74359
                        0.309648         153.517
                        0.380472        -47.4822         0.372834        -49.1802         0.323451         144.358         0.309463         153.377
                        0.715066          1.7857
0.7356                  0.669032         0.62417         0.344993         153.116         0.373931        -47.9151         0.379725        -47.2449
                        0.380371         -47.864
                        0.345009         153.116         0.683341        -2.94929         0.363253        -49.0242         0.370809        -48.7257
                        0.372624        -49.5668
                        0.373948        -47.9154         0.363253        -49.0242         0.722399       -0.914426         0.312104         148.425
                        0.322527         144.242
                        0.379734        -47.2451         0.370801        -48.7255         0.312096         148.426         0.723065         4.68851
                        0.308523         153.414
                        0.380354        -47.8142         0.372588        -49.5208         0.322462         144.163         0.308301         153.277
                        0.716172         1.71378
0.74095                 0.669641        0.568172         0.344363         152.985         0.373704        -48.2433          0.37959        -47.5716
                        0.380237        -48.1959
                        0.344379         152.985         0.684142        -3.03058         0.362863        -49.3577         0.370533        -49.0597
                        0.372363        -49.9071
                         0.37372        -48.2436         0.362863        -49.3578         0.723598        -1.00492         0.310997         148.272
                        0.321558         144.048
                        0.379599        -47.5717         0.370524        -49.0595          0.31099         148.273         0.724238         4.63232
                        0.307397         153.313
                        0.380237        -48.1465         0.372341        -49.8614         0.321471          143.97         0.307139         153.179
                        0.717273         1.64078
0.7463                  0.670241        0.511409         0.343735         152.855         0.373476        -48.5714         0.379455        -47.8984
                        0.380104         -48.528
                        0.343751         152.855         0.684939        -3.11257         0.362471        -49.6912         0.370256        -49.3936
                        0.372102        -50.2474
                        0.373492        -48.5717         0.362471        -49.6912         0.724791         -1.0964         0.309889         148.121
                        0.320587         143.856
